CITIFILE A.01.01
#NA VERSION HP8510C.08.10
NAME DATA
#NA REGISTER 1
VAR FREQ MAG 201
DATA S[1,1] RI
DATA S[2,1] RI
DATA S[1,2] RI
DATA S[2,2] RI
SEG_LIST_BEGIN
SEG 8000000000 12000000000 201
SEG_LIST_END
COMMENT       YEAR MONTH DAY HOUR MINUTE SECONDS
CONSTANT TIME 2013   09   26  19    20    14.0
BEGIN
-5.06164E-1,-1.74072E-1
-5.21606E-1,-1.19537E-1
-5.31677E-1,-0.55908E-1
-5.39886E-1,-0.05401E-1
-5.40771E-1,0.52795E-1
-5.26184E-1,1.01196E-1
-5.12085E-1,1.53503E-1
-4.92706E-1,2.02575E-1
-4.74868E-1,2.62680E-1
-4.45327E-1,3.12896E-1
-4.14428E-1,3.50112E-1
-3.74893E-1,3.86581E-1
-3.35632E-1,4.18243E-1
-2.89794E-1,4.62829E-1
-2.37014E-1,4.91516E-1
-1.90307E-1,5.13916E-1
-1.38031E-1,5.28564E-1
-0.88684E-1,5.34088E-1
-0.38269E-1,5.50201E-1
0.29449E-1,5.45684E-1
0.81970E-1,5.39856E-1
1.34674E-1,5.29388E-1
1.81060E-1,5.12603E-1
2.26165E-1,4.90387E-1
2.67883E-1,4.63775E-1
3.08136E-1,4.40246E-1
3.48648E-1,4.08004E-1
3.86810E-1,3.75564E-1
4.18350E-1,3.30215E-1
4.41757E-1,3.01773E-1
4.73419E-1,2.57309E-1
4.93438E-1,2.05139E-1
5.09002E-1,1.58905E-1
5.19989E-1,1.03790E-1
5.28686E-1,0.65521E-1
5.33660E-1,-0.00152E-1
5.16235E-1,-0.46264E-1
5.08728E-1,-0.86761E-1
5.07110E-1,-1.4151E-1
4.78378E-1,-1.93924E-1
4.54269E-1,-2.34329E-1
4.25415E-1,-2.61642E-1
3.97537E-1,-2.95745E-1
3.70330E-1,-3.32000E-1
3.26293E-1,-3.75701E-1
2.94967E-1,-3.96133E-1
2.53189E-1,-4.12292E-1
2.16003E-1,-4.22027E-1
1.74881E-1,-4.30542E-1
1.31469E-1,-4.58709E-1
0.72250E-1,-4.56451E-1
0.45211E-1,-4.54284E-1
0.16815E-1,-4.53674E-1
-0.21270E-1,-4.46243E-1
-0.65673E-1,-4.36142E-1
-1.194E-1,-4.24774E-1
-1.54388E-1,-4.15252E-1
-1.83258E-1,-3.99414E-1
-2.06451E-1,-3.75244E-1
-2.25662E-1,-3.41140E-1
-2.66784E-1,-3.20266E-1
-2.98538E-1,-2.79541E-1
-3.09738E-1,-2.62237E-1
-3.21716E-1,-2.48870E-1
-3.30246E-1,-2.18566E-1
-3.42147E-1,-1.84371E-1
-3.62686E-1,-1.34628E-1
-3.78082E-1,-1.07116E-1
-3.83728E-1,-0.82366E-1
-3.74908E-1,-0.58471E-1
-3.57162E-1,-0.32608E-1
-3.59726E-1,0.12252E-1
-3.49075E-1,0.51284E-1
-3.48846E-1,0.65170E-1
-3.47869E-1,0.71319E-1
-3.35601E-1,0.83480E-1
-3.16009E-1,1.16546E-1
-2.92785E-1,1.50558E-1
-2.99911E-1,1.81335E-1
-3.03710E-1,2.05291E-1
-2.92968E-1,2.19863E-1
-2.53143E-1,2.27356E-1
-2.13821E-1,2.42927E-1
-1.91284E-1,2.76718E-1
-1.78268E-1,3.10821E-1
-1.72943E-1,3.21395E-1
-1.57058E-1,3.16772E-1
-1.23794E-1,3.12881E-1
-0.78933E-1,3.17672E-1
-0.39978E-1,3.49716E-1
-0.08529E-1,3.70300E-1
0.03753E-1,3.74618E-1
0.20584E-1,3.53775E-1
0.53695E-1,3.31970E-1
0.98815E-1,3.26843E-1
1.53289E-1,3.29330E-1
1.75872E-1,3.30398E-1
1.87561E-1,3.29757E-1
2.11364E-1,3.02963E-1
2.34710E-1,2.67105E-1
2.88589E-1,2.41424E-1
3.36319E-1,2.15087E-1
3.72528E-1,1.92077E-1
3.74359E-1,1.50894E-1
3.69033E-1,1.03378E-1
3.81240E-1,0.48049E-1
4.02893E-1,-0.13885E-1
4.08950E-1,-0.62835E-1
3.95629E-1,-0.90347E-1
3.72726E-1,-1.20513E-1
3.45016E-1,-1.64596E-1
3.25836E-1,-2.29354E-1
3.03604E-1,-2.82333E-1
2.85781E-1,-3.16238E-1
2.52456E-1,-3.29681E-1
2.01568E-1,-3.44070E-1
1.39709E-1,-3.71551E-1
0.78414E-1,-4.08172E-1
0.38940E-1,-4.26620E-1
0.23239E-1,-4.27200E-1
-0.11657E-1,-4.18716E-1
-0.68969E-1,-3.97598E-1
-1.45752E-1,-3.86276E-1
-2.01583E-1,-3.83453E-1
-2.35122E-1,-3.91449E-1
-2.56500E-1,-3.77441E-1
-2.86056E-1,-3.35601E-1
-3.32641E-1,-2.69439E-1
-3.84674E-1,-2.22900E-1
-4.31396E-1,-1.99020E-1
-4.44259E-1,-1.90582E-1
-4.47418E-1,-1.63055E-1
-4.49050E-1,-0.92544E-1
-4.50576E-1,-0.09857E-1
-4.76516E-1,0.43457E-1
-5.03356E-1,0.74127E-1
-5.01739E-1,0.88043E-1
-4.78408E-1,1.27609E-1
-4.31732E-1,1.97814E-1
-4.08416E-1,2.67730E-1
-4.08844E-1,3.30337E-1
-4.03656E-1,3.48510E-1
-3.86825E-1,3.56445E-1
-3.22982E-1,3.86917E-1
-2.45285E-1,4.28985E-1
-2.03750E-1,4.79202E-1
-1.89422E-1,5.09613E-1
-1.85241E-1,5.06012E-1
-1.55334E-1,5.04119E-1
-0.56701E-1,5.01892E-1
0.21575E-1,5.06561E-1
0.74981E-1,5.48095E-1
0.89447E-1,5.61920E-1
0.91918E-1,5.54809E-1
1.49139E-1,5.12603E-1
2.26394E-1,4.45800E-1
2.96127E-1,4.31182E-1
3.49975E-1,4.34799E-1
3.58001E-1,4.36737E-1
3.65051E-1,4.11987E-1
3.90960E-1,3.29361E-1
4.28268E-1,2.63336E-1
4.97375E-1,2.20962E-1
5.35064E-1,2.04864E-1
5.43121E-1,1.85852E-1
5.13183E-1,1.28601E-1
4.92736E-1,0.43487E-1
4.95651E-1,-0.49911E-1
5.08148E-1,-1.04400E-1
5.14221E-1,-1.24054E-1
4.82574E-1,-1.25473E-1
4.38919E-1,-1.56204E-1
3.80355E-1,-2.1875E-1
3.51776E-1,-2.80014E-1
3.58093E-1,-3.21319E-1
3.52401E-1,-3.28231E-1
3.29742E-1,-3.19931E-1
2.54226E-1,-3.37799E-1
1.73522E-1,-3.62258E-1
1.40487E-1,-4.02160E-1
1.27670E-1,-4.29626E-1
1.33178E-1,-4.10873E-1
1.00189E-1,-3.9505E-1
0.24246E-1,-3.60870E-1
-0.36148E-1,-3.64654E-1
-0.80154E-1,-4.01870E-1
-0.80764E-1,-4.12231E-1
-0.68649E-1,-4.02771E-1
-1.03805E-1,-3.50906E-1
-1.63879E-1,-2.95074E-1
-2.37762E-1,-2.85186E-1
-2.76367E-1,-2.89047E-1
-2.49252E-1,-3.05847E-1
-2.40020E-1,-2.83187E-1
-2.36633E-1,-1.96334E-1
-2.80212E-1,-1.34780E-1
-3.47030E-1,-0.99807E-1
-3.54568E-1,-1.25793E-1
-3.39401E-1,-1.69418E-1
-3.00933E-1,-1.36825E-1
-2.81799E-1,-0.53405E-1
END
BEGIN
-8.63128E-1,1.52252E-1
-7.74627E-1,2.34008E-1
-7.77679E-1,2.66387E-1
-7.53204E-1,3.95965E-1
-6.80542E-1,4.56115E-1
-6.27471E-1,5.51849E-1
-4.89257E-1,5.82885E-1
-4.53460E-1,5.41259E-1
-4.49615E-1,5.93994E-1
-3.91662E-1,6.29180E-1
-3.60015E-1,6.83319E-1
-2.41058E-1,7.17620E-1
-2.06634E-1,6.65313E-1
-2.18963E-1,7.29339E-1
-1.08947E-1,7.85614E-1
-0.47027E-1,7.90741E-1
0.71411E-1,8.19824E-1
1.48864E-1,7.31445E-1
1.31652E-1,7.35626E-1
2.23815E-1,7.78137E-1
2.9422E-1,7.56073E-1
4.01245E-1,7.79357E-1
5.25451E-1,6.71203E-1
5.22796E-1,6.14074E-1
6.15478E-1,6.03576E-1
6.72790E-1,4.96734E-1
7.18536E-1,4.60510E-1
8.00201E-1,3.13659E-1
7.15515E-1,2.04803E-1
7.01660E-1,2.12707E-1
7.19879E-1,1.61560E-1
7.22412E-1,1.50604E-1
7.99377E-1,0.86181E-1
7.55950E-1,-0.23559E-1
7.42218E-1,-0.06225E-1
8.20526E-1,-0.53619E-1
8.51593E-1,-1.39923E-1
9.18975E-1,-2.69561E-1
8.19702E-1,-4.73907E-1
6.90979E-1,-4.72473E-1
7.02117E-1,-5.15869E-1
6.28082E-1,-5.99731E-1
6.01196E-1,-6.35864E-1
5.18920E-1,-7.55279E-1
3.84948E-1,-7.30957E-1
3.94592E-1,-7.25952E-1
3.3078E-1,-8.11431E-1
2.64221E-1,-8.21380E-1
2.02392E-1,-9.17907E-1
0.03692E-1,-9.24316E-1
-0.57525E-1,-8.33160E-1
-1.05835E-1,-8.30230E-1
-1.64184E-1,-7.85217E-1
-1.84539E-1,-8.00323E-1
-2.97058E-1,-8.03863E-1
-3.49243E-1,-7.30560E-1
-3.82324E-1,-7.26165E-1
-4.47540E-1,-6.91162E-1
-4.81658E-1,-6.94397E-1
-6.23596E-1,-6.90399E-1
-7.08526E-1,-5.41015E-1
-7.03704E-1,-4.70947E-1
-7.40509E-1,-3.91357E-1
-7.06573E-1,-3.34503E-1
-7.57537E-1,-3.43475E-1
-8.22998E-1,-2.36419E-1
-7.94616E-1,-1.72027E-1
-8.28674E-1,-1.37359E-1
-8.40332E-1,-0.63476E-1
-8.84185E-1,-0.19439E-1
-9.29077E-1,1.29486E-1
-8.48419E-1,2.43011E-1
-8.21044E-1,2.95257E-1
-7.54608E-1,3.80676E-1
-6.97174E-1,3.82476E-1
-6.99310E-1,4.37347E-1
-6.36108E-1,4.88647E-1
-6.29211E-1,5.06927E-1
-6.01318E-1,5.85235E-1
-5.48980E-1,6.01745E-1
-5.66345E-1,6.63238E-1
-4.87548E-1,7.71728E-1
-4.03472E-1,8.09936E-1
-3.10577E-1,8.77441E-1
-1.90887E-1,8.50738E-1
-1.83776E-1,8.46374E-1
-0.93811E-1,9.11041E-1
-0.00305E-1,8.70330E-1
0.35919E-1,8.91784E-1
1.46331E-1,8.90869E-1
1.77337E-1,8.61572E-1
2.57476E-1,9.27276E-1
4.13177E-1,8.77258E-1
4.66766E-1,8.07098E-1
5.58227E-1,7.66967E-1
6.04553E-1,6.63879E-1
6.27807E-1,6.38855E-1
7.01812E-1,5.70129E-1
6.99005E-1,5.05767E-1
7.50061E-1,4.98901E-1
8.17810E-1,4.15557E-1
8.28918E-1,3.65203E-1
9.09698E-1,3.14605E-1
9.36737E-1,1.98242E-1
9.60205E-1,1.36444E-1
1.01049E0,0.03234E-1
9.54071E-1,-1.23657E-1
9.25231E-1,-1.82220E-1
9.00329E-1,-2.79296E-1
8.49517E-1,-3.36120E-1
8.33953E-1,-4.13208E-1
7.56988E-1,-4.97131E-1
7.03338E-1,-5.11108E-1
6.85852E-1,-5.75073E-1
6.27014E-1,-6.30920E-1
5.90850E-1,-6.85150E-1
5.07843E-1,-7.63549E-1
4.11346E-1,-7.78656E-1
3.51165E-1,-8.07037E-1
2.53173E-1,-8.26568E-1
1.96136E-1,-8.04412E-1
1.43676E-1,-8.33740E-1
0.4953E-1,-8.18542E-1
0.05279E-1,-7.93090E-1
-0.64361E-1,-7.88757E-1
-1.06170E-1,-7.51098E-1
-1.31378E-1,-7.69989E-1
-2.12371E-1,-7.72430E-1
-2.67791E-1,-7.45239E-1
-3.43048E-1,-7.22137E-1
-3.93432E-1,-6.46331E-1
-4.01763E-1,-6.32446E-1
-4.79187E-1,-6.19995E-1
-5.15716E-1,-5.55023E-1
-5.44281E-1,-5.32074E-1
-5.88653E-1,-4.64019E-1
-5.68878E-1,-4.23858E-1
-6.22192E-1,-4.29504E-1
-6.82189E-1,-3.58703E-1
-6.97570E-1,-3.14209E-1
-7.45361E-1,-2.57507E-1
-7.30804E-1,-1.81793E-1
-7.44354E-1,-1.64978E-1
-7.87994E-1,-0.74249E-1
-7.57263E-1,-0.04241E-1
-7.79235E-1,0.37017E-1
-7.54913E-1,1.27716E-1
-7.12463E-1,1.31317E-1
-7.45910E-1,1.65741E-1
-7.22717E-1,2.40936E-1
-7.26043E-1,2.74963E-1
-7.26532E-1,3.78601E-1
-6.60278E-1,4.28131E-1
-6.62170E-1,4.52911E-1
-6.22528E-1,5.30822E-1
-5.80993E-1,5.57861E-1
-5.55542E-1,6.44531E-1
-4.45068E-1,6.90948E-1
-4.21539E-1,6.80725E-1
-3.92395E-1,7.52838E-1
-3.18603E-1,7.68188E-1
-2.99774E-1,8.14727E-1
-1.84448E-1,8.80645E-1
-1.01928E-1,8.53027E-1
-0.48980E-1,8.95874E-1
0.64331E-1,8.91998E-1
1.08093E-1,8.72436E-1
2.02880E-1,8.97583E-1
2.94158E-1,8.32519E-1
3.35632E-1,8.01849E-1
4.13543E-1,7.69622E-1
4.46350E-1,7.18322E-1
4.97741E-1,7.31933E-1
5.96984E-1,6.72180E-1
6.25427E-1,6.12060E-1
6.87774E-1,5.68603E-1
7.2229E-1,4.84619E-1
7.41577E-1,4.51751E-1
8.18664E-1,3.84826E-1
8.26873E-1,2.95532E-1
8.44085E-1,2.47436E-1
8.69659E-1,1.67541E-1
8.57635E-1,0.98846E-1
8.84429E-1,0.45898E-1
8.81073E-1,-0.56457E-1
8.51623E-1,-1.11602E-1
8.60778E-1,-1.80877E-1
8.29132E-1,-2.56500E-1
8.04687E-1,-2.95471E-1
7.90527E-1,-3.72589E-1
7.38159E-1,-4.31396E-1
7.15454E-1,-4.69482E-1
6.96228E-1,-5.30304E-1
6.48315E-1,-6.04797E-1
6.06506E-1,-6.57623E-1
5.26184E-1,-7.19696E-1
4.56726E-1,-7.24731E-1
4.17388E-1,-7.58331E-1
3.53942E-1,-8.06335E-1
2.93579E-1,-8.24249E-1
2.12860E-1,-8.65936E-1
END
BEGIN
-7.47283E-1,1.32843E-1
-7.64190E-1,2.02667E-1
-6.80206E-1,2.98797E-1
-6.53411E-1,2.67517E-1
-7.20336E-1,3.56628E-1
-6.41723E-1,4.67163E-1
-6.15692E-1,5.09613E-1
-5.34240E-1,6.14563E-1
-4.48486E-1,5.88653E-1
-4.888E-1,6.31500E-1
-4.02099E-1,7.56744E-1
-3.04595E-1,7.74414E-1
-2.01477E-1,8.24188E-1
-0.88501E-1,7.71820E-1
-0.99731E-1,7.63183E-1
-0.10833E-1,8.45764E-1
0.97412E-1,8.17169E-1
1.81701E-1,8.28826E-1
3.11645E-1,7.40722E-1
2.83233E-1,6.56646E-1
3.09295E-1,7.11486E-1
4.16900E-1,6.78375E-1
4.57824E-1,6.55609E-1
5.75531E-1,6.10015E-1
5.82305E-1,4.91088E-1
5.75866E-1,5.05615E-1
6.76208E-1,4.75128E-1
7.16247E-1,4.04724E-1
8.04931E-1,3.38501E-1
8.10394E-1,1.77490E-1
7.47253E-1,1.48468E-1
7.99499E-1,1.2854E-1
8.24188E-1,0.57098E-1
8.87847E-1,-0.13275E-1
8.71398E-1,-2.06817E-1
7.35412E-1,-2.44720E-1
7.50122E-1,-2.30560E-1
7.6651E-1,-3.0896E-1
7.82531E-1,-3.79638E-1
7.53479E-1,-5.59753E-1
5.66070E-1,-6.06201E-1
5.33630E-1,-5.49469E-1
5.36407E-1,-5.97473E-1
5.16326E-1,-6.41723E-1
4.96765E-1,-7.76397E-1
2.98614E-1,-8.51593E-1
2.22656E-1,-7.65014E-1
2.17742E-1,-7.86773E-1
1.61071E-1,-8.08380E-1
1.33056E-1,-8.73809E-1
-0.52337E-1,-9.47998E-1
-1.81671E-1,-8.24615E-1
-1.82891E-1,-7.83935E-1
-2.33703E-1,-7.74322E-1
-2.49176E-1,-7.77099E-1
-3.68286E-1,-8.36731E-1
-5.1828E-1,-7.15637E-1
-5.06164E-1,-6.23565E-1
-5.41473E-1,-6.01348E-1
-5.56396E-1,-5.67321E-1
-6.24755E-1,-6.01715E-1
-7.72522E-1,-4.98168E-1
-7.54303E-1,-3.58245E-1
-7.44445E-1,-3.18176E-1
-7.48657E-1,-2.61962E-1
-7.65472E-1,-2.70965E-1
-8.93646E-1,-2.10723E-1
-8.91693E-1,-0.35522E-1
-8.37432E-1,0.13275E-1
-8.35784E-1,0.69030E-1
-8.22052E-1,1.01348E-1
-8.95874E-1,1.56707E-1
-8.92456E-1,3.38928E-1
-7.83233E-1,4.15741E-1
-7.43347E-1,4.53369E-1
-6.91467E-1,4.97955E-1
-6.88385E-1,5.28198E-1
-6.71417E-1,6.44500E-1
-5.57037E-1,7.23724E-1
-4.73907E-1,7.40631E-1
-4.01977E-1,7.5E-1
-3.81652E-1,7.52105E-1
-3.53332E-1,8.37280E-1
-2.25372E-1,8.93737E-1
-1.39709E-1,8.75824E-1
-0.55816E-1,8.84582E-1
0.16784E-1,8.37860E-1
0.25207E-1,8.47229E-1
1.10504E-1,9.02984E-1
2.23114E-1,8.81652E-1
2.98767E-1,8.57513E-1
3.77197E-1,7.98919E-1
3.94134E-1,7.61230E-1
4.57366E-1,7.80334E-1
5.71655E-1,7.50183E-1
6.61682E-1,6.81701E-1
7.31445E-1,5.78674E-1
7.13867E-1,4.90234E-1
7.31384E-1,4.91943E-1
8.23303E-1,4.40673E-1
8.77197E-1,3.33526E-1
9.12414E-1,2.26593E-1
8.81195E-1,1.13311E-1
8.58276E-1,1.02478E-1
9.16687E-1,0.45532E-1
9.19677E-1,-0.62866E-1
9.17907E-1,-1.47247E-1
8.80310E-1,-2.75939E-1
7.95623E-1,-3.13293E-1
8.06854E-1,-3.39202E-1
7.99774E-1,-4.32556E-1
7.57537E-1,-5.17639E-1
6.78161E-1,-6.14959E-1
5.56335E-1,-6.28051E-1
5.38909E-1,-6.16638E-1
5.18127E-1,-6.81945E-1
4.56512E-1,-7.38678E-1
3.73596E-1,-7.99438E-1
2.48046E-1,-7.93975E-1
2.12310E-1,-7.44995E-1
1.96502E-1,-7.75024E-1
1.38916E-1,-8.11828E-1
0.59936E-1,-8.51440E-1
-0.68237E-1,-8.33587E-1
-1.13861E-1,-7.52868E-1
-1.23260E-1,-7.55645E-1
-1.80511E-1,-7.62237E-1
-2.40875E-1,-7.76397E-1
-3.59588E-1,-7.55310E-1
-4.07379E-1,-6.41357E-1
-3.82354E-1,-6.11572E-1
-4.25170E-1,-6.22711E-1
-4.85992E-1,-6.08215E-1
-5.77148E-1,-5.77880E-1
-6.25579E-1,-4.71801E-1
-5.97808E-1,-4.23614E-1
-6.24450E-1,-4.13574E-1
-6.5979E-1,-3.69598E-1
-7.08831E-1,-3.38287E-1
-7.71667E-1,-2.43652E-1
-7.40570E-1,-1.59851E-1
-7.33337E-1,-1.41204E-1
-7.49725E-1,-0.99853E-1
-7.69561E-1,-0.62103E-1
-8.17993E-1,0.19531E-1
-7.90069E-1,1.23382E-1
-7.63946E-1,1.56097E-1
-7.63793E-1,2.03704E-1
-7.54730E-1,2.41912E-1
-7.84088E-1,3.13324E-1
-7.38830E-1,4.52941E-1
-6.38397E-1,4.87854E-1
-6.20758E-1,5.02471E-1
-5.96069E-1,5.43243E-1
-5.87616E-1,5.83984E-1
-5.50231E-1,6.90643E-1
-4.25659E-1,7.43042E-1
-3.63281E-1,7.44354E-1
-3.10668E-1,7.73040E-1
-2.64617E-1,7.86071E-1
-2.20214E-1,8.37799E-1
-1.00830E-1,8.64135E-1
-0.18646E-1,8.26934E-1
0.34210E-1,8.15643E-1
0.83099E-1,8.10180E-1
1.26586E-1,8.22204E-1
2.06970E-1,8.35479E-1
2.86468E-1,7.96112E-1
3.43933E-1,7.56591E-1
3.88244E-1,7.19879E-1
4.35333E-1,7.05352E-1
5.05340E-1,6.98852E-1
5.84716E-1,6.43310E-1
6.22222E-1,5.77606E-1
6.50634E-1,5.20660E-1
6.86248E-1,4.77752E-1
7.29034E-1,4.33837E-1
7.88421E-1,3.74816E-1
8.16192E-1,2.97485E-1
8.23364E-1,2.33337E-1
8.38836E-1,1.79657E-1
8.51959E-1,1.05499E-1
8.69873E-1,0.39733E-1
8.80676E-1,-0.46447E-1
8.67279E-1,-1.17309E-1
8.57025E-1,-1.76635E-1
8.39263E-1,-2.55859E-1
8.02612E-1,-3.14910E-1
7.83905E-1,-3.84643E-1
7.44415E-1,-4.51599E-1
7.19207E-1,-4.99023E-1
6.93664E-1,-5.64025E-1
6.25061E-1,-6.20697E-1
5.73272E-1,-6.57470E-1
5.10955E-1,-7.07977E-1
4.62066E-1,-7.43621E-1
4.19158E-1,-8.01605E-1
3.29681E-1,-8.47564E-1
2.58606E-1,-8.37982E-1
1.92810E-1,-8.51440E-1
1.20269E-1,-8.45092E-1
END
BEGIN
-5.47180E-1,-1.41784E-1
-5.69732E-1,-0.79772E-1
-5.81146E-1,-0.16113E-1
-5.88073E-1,0.36499E-1
-5.86608E-1,1.08062E-1
-5.68389E-1,1.75842E-1
-5.48400E-1,2.5E-1
-5.20996E-1,3.10150E-1
-4.95437E-1,3.71063E-1
-4.54727E-1,4.22576E-1
-4.15023E-1,4.65072E-1
-3.61755E-1,5.08697E-1
-3.07312E-1,5.42572E-1
-2.47589E-1,5.84350E-1
-1.8573E-1,6.03485E-1
-1.25915E-1,6.20239E-1
-0.57617E-1,6.30859E-1
0.09521E-1,6.29669E-1
0.75622E-1,6.32293E-1
1.44409E-1,6.09832E-1
1.97418E-1,5.89325E-1
2.53753E-1,5.63262E-1
3.08563E-1,5.28442E-1
3.63159E-1,4.80606E-1
4.11270E-1,4.25277E-1
4.51507E-1,3.75946E-1
4.86297E-1,3.17535E-1
5.15350E-1,2.56927E-1
5.29022E-1,1.82067E-1
5.40679E-1,1.25122E-1
5.52825E-1,0.53741E-1
5.48217E-1,-0.11840E-1
5.41015E-1,-0.6073E-1
5.24078E-1,-1.09344E-1
5.10833E-1,-1.45996E-1
4.80621E-1,-2.13974E-1
4.34722E-1,-2.54806E-1
4.03793E-1,-2.89886E-1
3.74328E-1,-3.28399E-1
3.26751E-1,-3.56338E-1
2.78030E-1,-3.83514E-1
2.23098E-1,-3.96835E-1
1.69921E-1,-4.12841E-1
1.26937E-1,-4.27078E-1
0.75729E-1,-4.37362E-1
0.42327E-1,-4.37469E-1
-0.09872E-1,-4.28634E-1
-0.57006E-1,-4.13436E-1
-1.02081E-1,-3.95980E-1
-1.45645E-1,-3.88671E-1
-1.87683E-1,-3.57147E-1
-2.20092E-1,-3.36883E-1
-2.58285E-1,-3.10699E-1
-2.95745E-1,-2.77084E-1
-3.23608E-1,-2.47161E-1
-3.44360E-1,-2.16293E-1
-3.62136E-1,-1.94290E-1
-3.80233E-1,-1.52389E-1
-3.91387E-1,-1.01638E-1
-3.91738E-1,-0.53634E-1
-4.03427E-1,-0.20095E-1
-4.02679E-1,0.20843E-1
-3.99368E-1,0.57891E-1
-3.94699E-1,1.08657E-1
-3.76327E-1,1.64932E-1
-3.57818E-1,2.05581E-1
-3.42804E-1,2.35748E-1
-3.41354E-1,2.65976E-1
-3.09387E-1,3.01788E-1
-2.64343E-1,3.237E-1
-2.18704E-1,3.37692E-1
-1.79443E-1,3.63342E-1
-1.40792E-1,3.84277E-1
-0.91949E-1,4.04693E-1
-0.38665E-1,4.13269E-1
0.13961E-1,4.13726E-1
0.73547E-1,4.06768E-1
1.08505E-1,3.88015E-1
1.48712E-1,4.00970E-1
2.02285E-1,3.90075E-1
2.46353E-1,3.62457E-1
2.71987E-1,3.17092E-1
2.83203E-1,2.84622E-1
3.20053E-1,2.66189E-1
3.55697E-1,2.16262E-1
3.77227E-1,1.72500E-1
3.99902E-1,1.17095E-1
4.01245E-1,0.61340E-1
3.89419E-1,0.30822E-1
4.08889E-1,-0.07309E-1
4.01886E-1,-0.53421E-1
3.97491E-1,-0.93566E-1
3.67187E-1,-1.37313E-1
3.36425E-1,-1.65130E-1
3.27896E-1,-1.98150E-1
2.98660E-1,-2.46063E-1
2.73010E-1,-2.75711E-1
2.30072E-1,-3.14376E-1
1.73248E-1,-3.30612E-1
1.47232E-1,-3.31817E-1
1.23718E-1,-3.71154E-1
0.95947E-1,-3.91006E-1
0.66177E-1,-4.18396E-1
0.24459E-1,-4.01641E-1
0.09048E-1,-3.83010E-1
-0.24765E-1,-3.93569E-1
-0.70983E-1,-3.86810E-1
-1.07086E-1,-3.86734E-1
-1.50741E-1,-3.70361E-1
-1.72363E-1,-3.45611E-1
-1.91787E-1,-3.35342E-1
-2.28164E-1,-3.18222E-1
-2.51739E-1,-3.01223E-1
-2.88421E-1,-2.90237E-1
-3.09005E-1,-2.63488E-1
-3.18634E-1,-2.44918E-1
-3.35327E-1,-2.27783E-1
-3.49548E-1,-2.04574E-1
-3.69644E-1,-1.80007E-1
-3.79074E-1,-1.46347E-1
-3.93234E-1,-1.17248E-1
-4.05120E-1,-0.86975E-1
-4.20944E-1,-0.57037E-1
-4.35806E-1,-0.31921E-1
-4.52468E-1,-0.03265E-1
-4.69177E-1,0.28595E-1
-4.63455E-1,0.69335E-1
-4.58480E-1,0.90789E-1
-4.6492E-1,1.15753E-1
-4.71557E-1,1.56601E-1
-4.68826E-1,1.88140E-1
-4.57428E-1,2.35397E-1
-4.30496E-1,2.60208E-1
-4.23156E-1,2.88085E-1
-4.14138E-1,3.33267E-1
-3.92669E-1,3.71719E-1
-3.79852E-1,4.1362E-1
-3.39721E-1,4.45083E-1
-3.17459E-1,4.49264E-1
-3.06381E-1,4.76944E-1
-2.73101E-1,5.08728E-1
-2.46948E-1,5.25268E-1
-2.04895E-1,5.50842E-1
-1.61102E-1,5.43884E-1
-1.29791E-1,5.53741E-1
-0.81756E-1,5.73150E-1
-0.32379E-1,5.82824E-1
0.22888E-1,6.00341E-1
0.87310E-1,5.77697E-1
1.09954E-1,5.55481E-1
1.41143E-1,5.61676E-1
2.03399E-1,5.66162E-1
2.44781E-1,5.57769E-1
2.9776E-1,5.36773E-1
3.0867E-1,4.88662E-1
3.19625E-1,4.67224E-1
3.72131E-1,4.48928E-1
4.23736E-1,4.01977E-1
4.71099E-1,3.66012E-1
4.94812E-1,3.04428E-1
4.88739E-1,2.75665E-1
5.20233E-1,2.54791E-1
5.56610E-1,1.84722E-1
5.69793E-1,1.4505E-1
6.02783E-1,0.90698E-1
5.74218E-1,0.49377E-1
5.65673E-1,0.43762E-1
5.71838E-1,-0.06744E-1
5.41900E-1,-0.57586E-1
5.36834E-1,-1.06506E-1
4.99450E-1,-1.70837E-1
4.62188E-1,-1.90231E-1
4.45190E-1,-2.22091E-1
4.02908E-1,-2.65197E-1
3.81729E-1,-3.03192E-1
3.35479E-1,-3.71048E-1
2.81417E-1,-3.74496E-1
2.68005E-1,-3.78036E-1
2.30331E-1,-3.93966E-1
1.89315E-1,-3.92074E-1
1.37695E-1,-4.23538E-1
0.60440E-1,-4.20898E-1
0.33340E-1,-4.09042E-1
-0.04119E-1,-4.08950E-1
-0.36773E-1,-3.79104E-1
-0.72158E-1,-3.82156E-1
-1.64703E-1,-3.70636E-1
-1.96685E-1,-3.37860E-1
-2.19406E-1,-3.44497E-1
-2.31643E-1,-3.10348E-1
-2.15148E-1,-2.89749E-1
-2.61596E-1,-2.74963E-1
-3.11309E-1,-2.04299E-1
-3.21594E-1,-1.70471E-1
-3.31283E-1,-1.38290E-1
-3.00262E-1,-1.19110E-1
-3.15643E-1,-1.04385E-1
-3.56430E-1,-0.14785E-1
-3.48571E-1,0.47424E-1
-3.63967E-1,0.76370E-1
-3.27179E-1,0.82473E-1
END
