CITIFILE A.01.01
#NA VERSION HP8510C.08.10
NAME DATA
#NA REGISTER 1
VAR FREQ MAG 201
DATA S[1,1] RI
DATA S[2,1] RI
DATA S[1,2] RI
DATA S[2,2] RI
SEG_LIST_BEGIN
SEG 8000000000 12000000000 201
SEG_LIST_END
COMMENT       YEAR MONTH DAY HOUR MINUTE SECONDS
CONSTANT TIME 2013   09   26  19    24    26.0
BEGIN
-4.64767E-1,-2.11059E-1
-4.84344E-1,-1.60293E-1
-5.00854E-1,-0.99304E-1
-5.14099E-1,-0.51788E-1
-5.23681E-1,0.03997E-1
-5.14190E-1,0.51849E-1
-5.04425E-1,1.03485E-1
-4.87152E-1,1.55258E-1
-4.77981E-1,2.16384E-1
-4.54971E-1,2.70080E-1
-4.28695E-1,3.05923E-1
-3.91449E-1,3.42102E-1
-3.51715E-1,3.75289E-1
-3.10363E-1,4.25323E-1
-2.61428E-1,4.59762E-1
-2.21115E-1,4.83932E-1
-1.73584E-1,4.99221E-1
-1.24633E-1,5.02075E-1
-0.74554E-1,5.21667E-1
-0.03387E-1,5.26062E-1
0.48156E-1,5.23681E-1
0.92559E-1,5.17944E-1
1.35147E-1,4.99420E-1
1.80099E-1,4.76333E-1
2.29705E-1,4.51461E-1
2.71957E-1,4.30587E-1
3.09433E-1,4.06677E-1
3.39004E-1,3.77487E-1
3.66012E-1,3.33297E-1
3.88671E-1,3.01696E-1
4.27093E-1,2.59582E-1
4.51004E-1,2.11929E-1
4.63195E-1,1.76223E-1
4.67407E-1,1.31515E-1
4.69665E-1,0.97351E-1
4.84954E-1,0.30410E-1
4.74273E-1,-0.20538E-1
4.73419E-1,-0.52612E-1
4.71969E-1,-0.88501E-1
4.48593E-1,-1.29150E-1
4.26544E-1,-1.74682E-1
3.96652E-1,-2.12127E-1
3.81088E-1,-2.50183E-1
3.64959E-1,-2.80136E-1
3.37646E-1,-3.08609E-1
3.08761E-1,-3.25988E-1
2.59262E-1,-3.49945E-1
2.25738E-1,-3.68713E-1
1.94793E-1,-3.92425E-1
1.68838E-1,-4.13711E-1
1.23199E-1,-4.14382E-1
0.87280E-1,-4.0979E-1
0.50399E-1,-4.12155E-1
0.09033E-1,-4.21264E-1
-0.27664E-1,-4.24453E-1
-0.62393E-1,-4.21478E-1
-0.92407E-1,-4.09332E-1
-1.30859E-1,-3.85726E-1
-1.69952E-1,-3.68835E-1
-2.04147E-1,-3.49609E-1
-2.30438E-1,-3.43795E-1
-2.19207E-1,-4.46106E-1
-0.75622E-1,-3.55407E-1
-2.81539E-1,-2.56881E-1
-3.15200E-1,-2.29431E-1
-3.3638E-1,-2.04467E-1
-3.53225E-1,-1.80542E-1
-3.58627E-1,-1.56677E-1
-3.57711E-1,-1.15371E-1
-3.61648E-1,-0.75592E-1
-3.65387E-1,-0.38085E-1
-3.77166E-1,-0.17562E-1
-3.72161E-1,0.08743E-1
-3.45504E-1,0.29205E-1
-3.32199E-1,0.47958E-1
-3.27529E-1,0.8461E-1
-3.26904E-1,1.16851E-1
-3.21548E-1,1.36535E-1
-3.15856E-1,1.47598E-1
-2.96447E-1,1.61178E-1
-2.73956E-1,1.92184E-1
-2.40814E-1,2.24113E-1
-2.28805E-1,2.40493E-1
-2.23510E-1,2.59079E-1
-2.02331E-1,2.57934E-1
-1.84280E-1,2.62222E-1
-1.46087E-1,2.80456E-1
-1.20132E-1,2.91564E-1
-1.03851E-1,3.11187E-1
-0.90087E-1,3.1987E-1
-0.75271E-1,3.18359E-1
-0.42404E-1,3.22540E-1
0.00442E-1,3.11508E-1
0.21606E-1,3.17825E-1
0.47409E-1,3.28338E-1
0.63262E-1,3.20694E-1
0.79574E-1,3.13415E-1
1.14486E-1,2.94174E-1
1.44851E-1,2.85202E-1
1.82952E-1,2.82318E-1
2.08984E-1,2.76962E-1
2.25555E-1,2.68066E-1
2.60681E-1,2.38540E-1
2.83645E-1,1.83883E-1
3.10760E-1,1.51840E-1
3.42392E-1,1.23428E-1
3.49182E-1,0.95748E-1
3.53271E-1,0.63430E-1
3.42208E-1,0.07568E-1
3.40515E-1,-0.38345E-1
3.52554E-1,-0.89889E-1
3.51318E-1,-1.25793E-1
3.43841E-1,-1.48925E-1
3.17398E-1,-1.91314E-1
2.71637E-1,-2.38433E-1
2.37548E-1,-2.88940E-1
2.09838E-1,-3.29849E-1
1.86935E-1,-3.50479E-1
1.46072E-1,-3.62716E-1
0.87432E-1,-3.61862E-1
0.30960E-1,-3.82675E-1
-0.26199E-1,-4.03991E-1
-0.61721E-1,-4.15893E-1
-0.93719E-1,-4.11102E-1
-1.38305E-1,-3.90548E-1
-2.02499E-1,-3.68240E-1
-2.71102E-1,-3.42926E-1
-3.11721E-1,-3.28796E-1
-3.40911E-1,-3.12347E-1
-3.65249E-1,-2.7034E-1
-3.90441E-1,-2.12326E-1
-4.33792E-1,-1.50497E-1
-4.64660E-1,-1.08947E-1
-4.83886E-1,-0.86502E-1
-4.88525E-1,-0.52948E-1
-4.79126E-1,0.02746E-1
-4.79476E-1,0.77102E-1
-4.79080E-1,1.47247E-1
-4.89288E-1,1.82724E-1
-4.87579E-1,2.12493E-1
-4.56008E-1,2.46414E-1
-4.09011E-1,3.03604E-1
-3.59451E-1,3.68621E-1
-3.38989E-1,4.13864E-1
-3.29238E-1,4.44564E-1
-2.98370E-1,4.54132E-1
-2.42172E-1,4.64767E-1
-1.68533E-1,4.90570E-1
-1.05041E-1,5.21759E-1
-0.85784E-1,5.44860E-1
-0.74249E-1,5.62011E-1
-0.36254E-1,5.56579E-1
0.40191E-1,5.37078E-1
1.24877E-1,5.19195E-1
1.80603E-1,5.15899E-1
2.14202E-1,5.26062E-1
2.39044E-1,5.17364E-1
2.74200E-1,4.69635E-1
3.13598E-1,4.12674E-1
3.64349E-1,3.71597E-1
4.01733E-1,3.49151E-1
4.27871E-1,3.44787E-1
4.45404E-1,3.07952E-1
4.55062E-1,2.41424E-1
4.68826E-1,1.73324E-1
4.96093E-1,1.19155E-1
5.14099E-1,0.78552E-1
5.14038E-1,0.46295E-1
4.91485E-1,-0.02746E-1
4.53170E-1,-0.53680E-1
4.40216E-1,-1.05972E-1
4.27902E-1,-1.49002E-1
4.26422E-1,-1.65023E-1
4.07333E-1,-1.86828E-1
3.61633E-1,-2.10174E-1
3.23349E-1,-2.47924E-1
2.88864E-1,-2.94891E-1
2.74261E-1,-3.18801E-1
2.64617E-1,-3.36486E-1
2.24960E-1,-3.35815E-1
1.77780E-1,-3.27316E-1
1.22283E-1,-3.47137E-1
0.78308E-1,-3.63403E-1
0.72219E-1,-3.86001E-1
0.56243E-1,-3.88427E-1
0.37124E-1,-3.59619E-1
-0.04928E-1,-3.46389E-1
-0.7547E-1,-3.40408E-1
-1.18103E-1,-3.48388E-1
-1.43249E-1,-3.65524E-1
-1.48483E-1,-3.48831E-1
-1.50787E-1,-3.20724E-1
-2.04025E-1,-2.79174E-1
-2.51159E-1,-2.26715E-1
-2.84088E-1,-2.27630E-1
-3.02612E-1,-2.26944E-1
-2.84484E-1,-2.12905E-1
-2.91046E-1,-1.83471E-1
-3.19290E-1,-1.01257E-1
-3.33953E-1,-0.55236E-1
-3.65402E-1,-0.45837E-1
END
BEGIN
-8.78936E-1,0.85235E-1
-8.04260E-1,1.76544E-1
-8.04382E-1,2.13653E-1
-7.90283E-1,3.39019E-1
-7.23358E-1,4.06433E-1
-6.81121E-1,5.0177E-1
-5.52520E-1,5.51147E-1
-5.08056E-1,5.19989E-1
-5.03570E-1,5.71533E-1
-4.46106E-1,6.12487E-1
-4.16076E-1,6.64001E-1
-3.05969E-1,7.11822E-1
-2.58148E-1,6.66748E-1
-2.71057E-1,7.20916E-1
-1.68853E-1,7.86102E-1
-1.07025E-1,7.92755E-1
0.01129E-1,8.32061E-1
0.94055E-1,7.56561E-1
0.81665E-1,7.51709E-1
1.65039E-1,8.00323E-1
2.39410E-1,7.80426E-1
3.31451E-1,8.12805E-1
4.68658E-1,7.27569E-1
4.77142E-1,6.61132E-1
5.62530E-1,6.63543E-1
6.37908E-1,5.63049E-1
6.79382E-1,5.28167E-1
7.82470E-1,4.05578E-1
7.21496E-1,2.71820E-1
6.97052E-1,2.72827E-1
7.25250E-1,2.20245E-1
7.18780E-1,1.98059E-1
7.94006E-1,1.55273E-1
7.75817E-1,0.36499E-1
7.49023E-1,0.41839E-1
8.25195E-1,0.10040E-1
8.59527E-1,-0.75622E-1
9.29870E-1,-1.79931E-1
8.80554E-1,-3.89923E-1
7.44812E-1,-4.22485E-1
7.54913E-1,-4.56207E-1
6.92840E-1,-5.55816E-1
6.52343E-1,-5.90759E-1
5.99060E-1,-7.06787E-1
4.59777E-1,-7.18353E-1
4.55902E-1,-7.04681E-1
4.06433E-1,-7.94677E-1
3.26355E-1,-8.09967E-1
2.83203E-1,-8.90899E-1
1.01409E-1,-9.37713E-1
0.12664E-1,-8.55407E-1
-0.32165E-1,-8.54827E-1
-1.09039E-1,-8.22265E-1
-1.31347E-1,-8.15368E-1
-2.26684E-1,-8.34381E-1
-2.99041E-1,-7.70446E-1
-3.30169E-1,-7.60589E-1
-4.03289E-1,-7.37060E-1
-4.40460E-1,-7.22778E-1
-5.51574E-1,-7.30346E-1
-6.58935E-1,-6.10931E-1
-6.66931E-1,-5.16693E-1
-7.21283E-1,-4.39239E-1
-7.02148E-1,-3.94683E-1
-7.28515E-1,-3.92639E-1
-7.99835E-1,-3.12683E-1
-7.85400E-1,-2.34130E-1
-8.12713E-1,-2.05108E-1
-8.42224E-1,-1.30554E-1
-8.70910E-1,-0.81207E-1
-9.25079E-1,0.34027E-1
-8.73626E-1,1.59301E-1
-8.41827E-1,2.14111E-1
-8.01910E-1,3.04199E-1
-7.38647E-1,3.36151E-1
-7.34649E-1,3.75579E-1
-6.89056E-1,4.36370E-1
-6.67053E-1,4.57153E-1
-6.53076E-1,5.24566E-1
-6.04278E-1,5.66009E-1
-6.01715E-1,6.15142E-1
-5.57189E-1,7.12707E-1
-4.79919E-1,7.69226E-1
-3.98590E-1,8.35571E-1
-2.79205E-1,8.38958E-1
-2.4823E-1,8.31939E-1
-1.80694E-1,8.94134E-1
-0.78064E-1,8.84063E-1
-0.34759E-1,8.87725E-1
0.51116E-1,8.98925E-1
0.99182E-1,8.82934E-1
1.71203E-1,9.32220E-1
3.16406E-1,9.19830E-1
3.98315E-1,8.58764E-1
4.82605E-1,8.14544E-1
5.37475E-1,7.31170E-1
5.70312E-1,6.97509E-1
6.44287E-1,6.39953E-1
6.65557E-1,5.71594E-1
7.04742E-1,5.50628E-1
7.63885E-1,4.94689E-1
7.96478E-1,4.45922E-1
8.65234E-1,3.94043E-1
9.12231E-1,2.99194E-1
9.44885E-1,2.20764E-1
9.92492E-1,1.10504E-1
9.70428E-1,-0.15045E-1
9.44152E-1,-0.89050E-1
9.31427E-1,-1.74408E-1
8.96392E-1,-2.55767E-1
8.66668E-1,-3.33557E-1
8.12316E-1,-4.12475E-1
7.65899E-1,-4.49676E-1
7.46612E-1,-5.04791E-1
7.05841E-1,-5.76995E-1
6.47766E-1,-6.38580E-1
5.81573E-1,-7.02056E-1
5.01617E-1,-7.41516E-1
4.37774E-1,-7.73956E-1
3.58093E-1,-8.13140E-1
2.72735E-1,-8.15643E-1
2.10449E-1,-8.15033E-1
1.40441E-1,-8.20282E-1
0.75378E-1,-8.12439E-1
0.17028E-1,-8.10150E-1
-0.48461E-1,-8.00262E-1
-0.95245E-1,-7.79296E-1
-1.38671E-1,-7.79022E-1
-2.05993E-1,-7.73620E-1
-2.77069E-1,-7.53875E-1
-3.49578E-1,-7.14569E-1
-3.92059E-1,-6.62933E-1
-4.19067E-1,-6.36261E-1
-4.64141E-1,-6.08398E-1
-5.07812E-1,-5.68389E-1
-5.47699E-1,-5.24078E-1
-5.76751E-1,-4.72045E-1
-5.91888E-1,-4.37439E-1
-6.29669E-1,-4.14032E-1
-6.72180E-1,-3.64593E-1
-7.00622E-1,-3.14666E-1
-7.31964E-1,-2.5177E-1
-7.40417E-1,-1.84173E-1
-7.48382E-1,-1.34704E-1
-7.57293E-1,-0.76141E-1
-7.59857E-1,-0.20690E-1
-7.61047E-1,0.45105E-1
-7.39593E-1,1.03515E-1
-7.13470E-1,1.44317E-1
-7.10022E-1,1.68670E-1
-7.20886E-1,2.16003E-1
-7.24823E-1,2.76794E-1
-7.09137E-1,3.54400E-1
-6.65802E-1,4.13238E-1
-6.33209E-1,4.44397E-1
-6.21856E-1,4.93591E-1
-5.85479E-1,5.59600E-1
-5.31158E-1,6.13891E-1
-4.79492E-1,6.51245E-1
-4.31152E-1,6.76422E-1
-4.02954E-1,7.11395E-1
-3.56109E-1,7.70935E-1
-2.89123E-1,8.11798E-1
-2.11547E-1,8.50219E-1
-1.24969E-1,8.67919E-1
-0.54840E-1,8.76586E-1
0.18158E-1,8.89343E-1
1.04919E-1,8.87023E-1
1.87683E-1,8.68225E-1
2.63397E-1,8.36975E-1
3.28002E-1,7.99865E-1
3.68530E-1,7.71087E-1
4.37225E-1,7.60345E-1
5.01983E-1,7.26318E-1
5.69824E-1,6.85424E-1
6.27136E-1,6.19171E-1
6.61987E-1,5.63293E-1
7.16857E-1,5.17974E-1
7.58544E-1,4.46350E-1
7.94799E-1,3.85864E-1
8.24127E-1,3.12622E-1
8.33923E-1,2.43591E-1
8.52417E-1,1.85058E-1
8.66668E-1,0.97015E-1
8.64044E-1,0.38513E-1
8.78021E-1,-0.39764E-1
8.55529E-1,-1.12121E-1
8.53454E-1,-1.67114E-1
8.33526E-1,-2.55889E-1
7.81982E-1,-3.04260E-1
7.70599E-1,-3.57574E-1
7.3349E-1,-4.23187E-1
7.16705E-1,-4.67346E-1
6.88446E-1,-5.51483E-1
6.08642E-1,-6.09008E-1
5.65826E-1,-6.31958E-1
5.04241E-1,-6.86767E-1
4.49218E-1,-6.93145E-1
4.23645E-1,-7.55523E-1
3.14788E-1,-8.07952E-1
2.50824E-1,-7.8125E-1
END
BEGIN
-7.73590E-1,0.87829E-1
-7.92938E-1,1.53533E-1
-7.19085E-1,2.60955E-1
-6.79748E-1,2.34558E-1
-7.49847E-1,3.08715E-1
-6.84967E-1,4.26605E-1
-6.59149E-1,4.67651E-1
-5.91674E-1,5.80352E-1
-4.96917E-1,5.64849E-1
-5.38909E-1,5.94421E-1
-4.70794E-1,7.26440E-1
-3.72802E-1,7.53295E-1
-2.80242E-1,8.125E-1
-1.56494E-1,7.76886E-1
-1.64276E-1,7.58911E-1
-0.90850E-1,8.49029E-1
0.22094E-1,8.33252E-1
0.99334E-1,8.50982E-1
2.42248E-1,7.85949E-1
2.29644E-1,6.89971E-1
2.42279E-1,7.43774E-1
3.54217E-1,7.26532E-1
3.94989E-1,7.03125E-1
5.13488E-1,6.77490E-1
5.41595E-1,5.57647E-1
5.28564E-1,5.65155E-1
6.29394E-1,5.50628E-1
6.77612E-1,4.82666E-1
7.67334E-1,4.33410E-1
8.04473E-1,2.76763E-1
7.43652E-1,2.29187E-1
7.92999E-1,2.19482E-1
8.28125E-1,1.47796E-1
8.89862E-1,0.88348E-1
9.10247E-1,-0.95062E-1
7.83050E-1,-1.69311E-1
7.84423E-1,-1.53747E-1
8.11615E-1,-2.27783E-1
8.27636E-1,-2.96264E-1
8.29925E-1,-4.61303E-1
6.60400E-1,-5.52032E-1
6.03332E-1,-5.0354E-1
6.10931E-1,-5.46600E-1
5.88104E-1,-5.93902E-1
5.87799E-1,-7.10876E-1
4.20776E-1,-8.27819E-1
3.125E-1,-7.58392E-1
3.07952E-1,-7.67700E-1
2.51800E-1,-7.98797E-1
2.31353E-1,-8.52478E-1
0.79315E-1,-9.57855E-1
-0.82061E-1,-8.67675E-1
-0.92987E-1,-8.13171E-1
-1.43524E-1,-8.12408E-1
-1.65741E-1,-8.05114E-1
-2.53967E-1,-8.76495E-1
-4.30053E-1,-8.00476E-1
-4.42352E-1,-6.89636E-1
-4.68627E-1,-6.70135E-1
-4.94384E-1,-6.33178E-1
-5.40405E-1,-6.68060E-1
-7.05627E-1,-6.16760E-1
-7.33825E-1,-4.63836E-1
-7.03277E-1,-4.12994E-1
-7.18475E-1,-3.58245E-1
-7.22106E-1,-3.58184E-1
-8.45397E-1,-3.36883E-1
-8.92425E-1,-1.62811E-1
-8.33862E-1,-0.93139E-1
-8.38592E-1,-0.47027E-1
-8.28521E-1,-0.07690E-1
-8.96057E-1,0.22857E-1
-9.39453E-1,1.95800E-1
-8.39111E-1,3.01544E-1
-8.03680E-1,3.34838E-1
-7.63885E-1,3.93310E-1
-7.51190E-1,4.15985E-1
-7.68951E-1,5.21179E-1
-6.70532E-1,6.32965E-1
-5.86456E-1,6.57592E-1
-5.26184E-1,6.86309E-1
-4.89776E-1,6.93786E-1
-4.82818E-1,7.62390E-1
-3.78082E-1,8.50524E-1
-2.80181E-1,8.49243E-1
-2.07763E-1,8.70575E-1
-1.18774E-1,8.52417E-1
-1.02783E-1,8.44940E-1
-0.44830E-1,9.12200E-1
0.74035E-1,9.15924E-1
1.50939E-1,8.97125E-1
2.42279E-1,8.69140E-1
2.82867E-1,8.22601E-1
3.26049E-1,8.41827E-1
4.38659E-1,8.37280E-1
5.25573E-1,7.84912E-1
6.14349E-1,7.16918E-1
6.41937E-1,6.17340E-1
6.47399E-1,5.97961E-1
7.36389E-1,5.73761E-1
8.03894E-1,4.83703E-1
8.50524E-1,4.01428E-1
8.70819E-1,2.88726E-1
8.44055E-1,2.34649E-1
8.86413E-1,2.02697E-1
9.22851E-1,1.08062E-1
9.30725E-1,0.27282E-1
9.35455E-1,-0.89325E-1
8.66912E-1,-1.73767E-1
8.52417E-1,-1.95770E-1
8.69506E-1,-2.79052E-1
8.4198E-1,-3.66943E-1
8.07434E-1,-4.65148E-1
7.00836E-1,-5.37628E-1
6.42822E-1,-5.31494E-1
6.36993E-1,-5.77026E-1
5.90759E-1,-6.49902E-1
5.28442E-1,-7.18627E-1
4.17144E-1,-7.61871E-1
3.44421E-1,-7.31872E-1
3.28857E-1,-7.34191E-1
2.87719E-1,-7.82196E-1
2.12799E-1,-8.23761E-1
1.06628E-1,-8.46252E-1
0.18859E-1,-8.00872E-1
-0.01556E-1,-7.73437E-1
-0.32745E-1,-7.92633E-1
-1.03729E-1,-8.12927E-1
-2.02423E-1,-8.06366E-1
-2.87353E-1,-7.35504E-1
-2.98248E-1,-6.84021E-1
-3.13842E-1,-6.84173E-1
-3.72802E-1,-6.94122E-1
-4.56726E-1,-6.65618E-1
-5.17791E-1,-5.93505E-1
-5.32989E-1,-5.35644E-1
-5.50994E-1,-5.04303E-1
-5.82641E-1,-4.87518E-1
-6.43493E-1,-4.55169E-1
-6.91772E-1,-3.83361E-1
-7.01507E-1,-3.09906E-1
-7.06237E-1,-2.59124E-1
-7.12188E-1,-2.25280E-1
-7.48321E-1,-1.96746E-1
-7.84606E-1,-1.28021E-1
-7.83294E-1,-0.51422E-1
-7.76123E-1,0.07690E-1
-7.67120E-1,0.61950E-1
-7.79907E-1,1.02691E-1
-8.00018E-1,1.79992E-1
-7.77465E-1,2.62115E-1
-7.33612E-1,3.1604E-1
-6.99554E-1,3.59985E-1
-6.76727E-1,3.90502E-1
-6.84021E-1,4.56146E-1
-6.42120E-1,5.4599E-1
-5.84259E-1,5.96405E-1
-5.30944E-1,6.36383E-1
-4.71893E-1,6.61132E-1
-4.41375E-1,6.94030E-1
-3.73718E-1,7.63671E-1
-2.86682E-1,7.85827E-1
-2.29675E-1,8.00109E-1
-1.60949E-1,8.125E-1
-1.16790E-1,8.01330E-1
-0.70404E-1,8.32977E-1
0.21942E-1,8.40148E-1
0.85510E-1,8.26568E-1
1.54418E-1,8.25714E-1
2.14019E-1,8.00994E-1
2.58117E-1,7.95654E-1
3.39599E-1,7.84576E-1
4.03839E-1,7.43072E-1
4.66674E-1,7.12799E-1
5.26062E-1,6.64856E-1
5.62194E-1,6.24847E-1
6.19567E-1,5.96221E-1
6.70745E-1,5.30883E-1
7.04345E-1,4.77539E-1
7.49908E-1,4.19616E-1
7.83691E-1,3.52478E-1
8.07525E-1,2.98828E-1
8.38348E-1,2.29248E-1
8.46252E-1,1.61865E-1
8.62793E-1,0.93994E-1
8.71582E-1,0.13061E-1
8.63037E-1,-0.61798E-1
8.60748E-1,-1.28387E-1
8.41857E-1,-1.96228E-1
8.22052E-1,-2.52655E-1
8.02276E-1,-3.16833E-1
7.76611E-1,-3.96545E-1
7.32208E-1,-4.57946E-1
6.96289E-1,-5.18615E-1
6.48712E-1,-5.67352E-1
6.07940E-1,-6.03515E-1
5.71991E-1,-6.56005E-1
4.97772E-1,-7.14813E-1
4.25811E-1,-7.51831E-1
3.50952E-1,-7.72766E-1
3.02307E-1,-7.78106E-1
END
BEGIN
-4.73953E-1,-1.46331E-1
-4.96627E-1,-0.92605E-1
-5.10070E-1,-0.37628E-1
-5.18981E-1,0.07171E-1
-5.22064E-1,0.70312E-1
-5.10040E-1,1.30462E-1
-4.98504E-1,1.97708E-1
-4.77966E-1,2.52502E-1
-4.61059E-1,3.069E-1
-4.31030E-1,3.56231E-1
-3.97583E-1,3.96331E-1
-3.53683E-1,4.39971E-1
-3.07434E-1,4.74838E-1
-2.59155E-1,5.17547E-1
-2.07794E-1,5.41137E-1
-1.53411E-1,5.61676E-1
-0.93475E-1,5.77148E-1
-0.30181E-1,5.84137E-1
0.27496E-1,5.92468E-1
0.89965E-1,5.82580E-1
1.40716E-1,5.70312E-1
1.93725E-1,5.50445E-1
2.48352E-1,5.25146E-1
3.04946E-1,4.86312E-1
3.51974E-1,4.43695E-1
3.92608E-1,4.08828E-1
4.31152E-1,3.57284E-1
4.61639E-1,3.04855E-1
4.87808E-1,2.33459E-1
5.00885E-1,1.80603E-1
5.20843E-1,1.23443E-1
5.28717E-1,0.62774E-1
5.24017E-1,0.15899E-1
5.13641E-1,-0.36926E-1
4.96215E-1,-0.75973E-1
4.82513E-1,-1.39465E-1
4.48913E-1,-1.84265E-1
4.21737E-1,-2.18368E-1
3.99169E-1,-2.56195E-1
3.47427E-1,-2.94143E-1
3.03848E-1,-3.18725E-1
2.61032E-1,-3.38134E-1
2.15683E-1,-3.61007E-1
1.78024E-1,-3.73947E-1
1.24984E-1,-3.94180E-1
0.82595E-1,-3.87817E-1
0.40527E-1,-3.85360E-1
-0.00396E-1,-3.82736E-1
-0.38650E-1,-3.66485E-1
-0.77255E-1,-3.65280E-1
-1.34643E-1,-3.26934E-1
-1.56173E-1,-3.04977E-1
-1.90902E-1,-2.96722E-1
-2.25540E-1,-2.73086E-1
-2.48611E-1,-2.51403E-1
-2.79251E-1,-2.15774E-1
-2.87292E-1,-1.82617E-1
-3.07769E-1,-1.56387E-1
-3.26721E-1,-1.18789E-1
-3.27514E-1,-0.83969E-1
-3.44726E-1,-0.55679E-1
-3.37814E-1,0.03906E-1
-3.22723E-1,0.27252E-1
-3.37966E-1,0.64498E-1
-3.31069E-1,1.10519E-1
-3.25210E-1,1.41861E-1
-3.12439E-1,1.88919E-1
-2.93838E-1,2.10098E-1
-2.82089E-1,2.38967E-1
-2.52227E-1,2.65625E-1
-2.21374E-1,2.73590E-1
-1.96334E-1,3.10745E-1
-1.38382E-1,3.31680E-1
-1.07177E-1,3.40988E-1
-0.74050E-1,3.66668E-1
-0.30853E-1,3.71292E-1
0.09307E-1,3.75549E-1
0.62805E-1,3.70361E-1
1.00784E-1,3.67294E-1
1.40197E-1,3.71826E-1
1.79351E-1,3.62701E-1
2.02301E-1,3.36059E-1
2.28622E-1,3.11950E-1
2.63320E-1,2.78167E-1
2.95501E-1,2.46368E-1
3.3284E-1,2.10388E-1
3.48449E-1,1.68594E-1
3.61953E-1,1.42044E-1
3.76297E-1,0.93170E-1
3.80737E-1,0.49270E-1
3.88824E-1,0.08789E-1
3.88336E-1,-0.31341E-1
3.69689E-1,-0.56274E-1
3.64547E-1,-0.87783E-1
3.45230E-1,-1.34185E-1
3.2164E-1,-1.77963E-1
2.95211E-1,-2.18734E-1
2.63046E-1,-2.40799E-1
2.40722E-1,-2.65121E-1
1.98425E-1,-2.91412E-1
1.65054E-1,-3.13064E-1
1.41723E-1,-3.41629E-1
1.12701E-1,-3.64563E-1
0.90255E-1,-3.57528E-1
0.70602E-1,-3.54324E-1
0.31433E-1,-3.50662E-1
-0.10269E-1,-3.54873E-1
-0.66345E-1,-3.57437E-1
-0.93826E-1,-3.36486E-1
-1.02706E-1,-3.34365E-1
-1.35513E-1,-3.21655E-1
-1.67221E-1,-2.98721E-1
-2.09594E-1,-2.81326E-1
-2.37365E-1,-2.57843E-1
-2.45025E-1,-2.52624E-1
-2.62176E-1,-2.48672E-1
-2.74841E-1,-2.26409E-1
-2.95120E-1,-2.00500E-1
-3.08792E-1,-1.56921E-1
-3.04077E-1,-1.36566E-1
-3.22067E-1,-1.32843E-1
-3.44055E-1,-1.08200E-1
-3.59603E-1,-0.79208E-1
-3.69125E-1,-0.41366E-1
-3.68545E-1,-0.22995E-1
-3.83010E-1,-0.10986E-1
-3.99734E-1,0.10635E-1
-4.09713E-1,0.41946E-1
-4.08783E-1,0.74920E-1
-3.96087E-1,0.98739E-1
-3.96987E-1,1.11160E-1
-4.03625E-1,1.37573E-1
-4.05273E-1,1.78253E-1
-3.92242E-1,2.21176E-1
-3.75793E-1,2.47436E-1
-3.73153E-1,2.72247E-1
-3.59420E-1,3.05572E-1
-3.49060E-1,3.35205E-1
-3.32717E-1,3.7677E-1
-3.08776E-1,4.02221E-1
-2.96905E-1,4.15267E-1
-2.76886E-1,4.34448E-1
-2.48184E-1,4.45022E-1
-2.22015E-1,4.72793E-1
-1.77398E-1,5.03112E-1
-1.43432E-1,5.13092E-1
-1.17553E-1,5.25878E-1
-0.76568E-1,5.27618E-1
-0.36834E-1,5.38147E-1
0.30548E-1,5.57128E-1
0.76446E-1,5.54473E-1
0.96038E-1,5.67840E-1
1.28723E-1,5.71960E-1
1.54632E-1,5.4953E-1
1.98730E-1,5.43853E-1
2.57843E-1,5.12298E-1
2.90756E-1,4.95315E-1
3.28918E-1,4.88937E-1
3.62091E-1,4.50973E-1
3.86077E-1,4.18090E-1
4.37896E-1,3.68881E-1
4.66796E-1,3.21197E-1
5.02319E-1,3.04718E-1
5.42846E-1,2.69287E-1
5.34149E-1,2.25463E-1
5.41839E-1,2.04742E-1
5.61981E-1,1.42791E-1
5.60699E-1,0.94421E-1
5.76446E-1,0.54107E-1
5.50476E-1,-0.02105E-1
5.20355E-1,-0.19287E-1
5.12939E-1,-0.76049E-1
4.80545E-1,-1.38610E-1
4.70092E-1,-1.88720E-1
4.44747E-1,-2.45086E-1
4.06097E-1,-2.46551E-1
4.02526E-1,-2.62619E-1
3.53912E-1,-3.06381E-1
3.05465E-1,-3.29116E-1
2.67608E-1,-3.65768E-1
2.22305E-1,-3.65615E-1
2.18551E-1,-3.56887E-1
1.74011E-1,-3.70712E-1
1.10031E-1,-3.57330E-1
0.55938E-1,-3.7146E-1
-0.11810E-1,-3.72238E-1
-0.16159E-1,-3.57360E-1
-0.33493E-1,-3.74191E-1
-0.72662E-1,-3.42788E-1
-0.96817E-1,-3.25439E-1
-1.61163E-1,-3.16223E-1
-1.84753E-1,-2.78991E-1
-1.79473E-1,-2.81539E-1
-1.94946E-1,-2.54333E-1
-1.98188E-1,-2.13478E-1
-2.46391E-1,-1.7659E-1
-2.81005E-1,-1.09771E-1
-2.69897E-1,-1.06124E-1
-2.86621E-1,-1.02569E-1
-2.71041E-1,-0.75012E-1
-2.90344E-1,-0.44021E-1
END
