CITIFILE A.01.01
#NA VERSION HP8510C.08.10
NAME DATA
#NA REGISTER 2
VAR FREQ MAG 201
DATA S[1,1] RI
DATA S[2,1] RI
DATA S[1,2] RI
DATA S[2,2] RI
SEG_LIST_BEGIN
SEG 8000000000 12000000000 201
SEG_LIST_END
COMMENT       YEAR MONTH DAY HOUR MINUTE SECONDS
CONSTANT TIME 2013   09   26  19    07    39.0
BEGIN
-5.26916E-1,-1.82037E-1
-5.42968E-1,-1.26953E-1
-5.53222E-1,-0.61126E-1
-5.60760E-1,-0.10284E-1
-5.61828E-1,0.52612E-1
-5.47363E-1,1.02722E-1
-5.33752E-1,1.56646E-1
-5.12481E-1,2.05535E-1
-4.93789E-1,2.66647E-1
-4.62249E-1,3.19381E-1
-4.29443E-1,3.57162E-1
-3.89663E-1,3.95538E-1
-3.50082E-1,4.27642E-1
-3.02703E-1,4.72427E-1
-2.47192E-1,5.01983E-1
-1.96746E-1,5.25116E-1
-1.42242E-1,5.40130E-1
-0.91095E-1,5.44036E-1
-0.39428E-1,5.60638E-1
0.29876E-1,5.53497E-1
0.85205E-1,5.44952E-1
1.39495E-1,5.33142E-1
1.86431E-1,5.14862E-1
2.31246E-1,4.90966E-1
2.73086E-1,4.62066E-1
3.13934E-1,4.36950E-1
3.54599E-1,4.03518E-1
3.94119E-1,3.70147E-1
4.23889E-1,3.22540E-1
4.46807E-1,2.92434E-1
4.77218E-1,2.46597E-1
4.95651E-1,1.92947E-1
5.10528E-1,1.44592E-1
5.19683E-1,0.89477E-1
5.26947E-1,0.50445E-1
5.2948E-1,-0.15655E-1
5.11047E-1,-0.61859E-1
5.03448E-1,-1.03241E-1
5.01007E-1,-1.5802E-1
4.69970E-1,-2.10250E-1
4.43374E-1,-2.49725E-1
4.13909E-1,-2.77267E-1
3.84445E-1,-3.12027E-1
3.56079E-1,-3.48007E-1
3.10791E-1,-3.89755E-1
2.77984E-1,-4.07653E-1
2.36511E-1,-4.22409E-1
1.98944E-1,-4.33181E-1
1.58767E-1,-4.41940E-1
1.14624E-1,-4.69818E-1
0.54840E-1,-4.66217E-1
0.27252E-1,-4.62478E-1
-0.02090E-1,-4.62371E-1
-0.40939E-1,-4.54376E-1
-0.84091E-1,-4.43634E-1
-1.37710E-1,-4.31488E-1
-1.72119E-1,-4.20608E-1
-2.01873E-1,-4.03259E-1
-2.25479E-1,-3.79882E-1
-2.43530E-1,-3.46588E-1
-2.85766E-1,-3.26873E-1
-3.17672E-1,-2.83401E-1
-3.27514E-1,-2.64495E-1
-3.40423E-1,-2.50503E-1
-3.49563E-1,-2.19726E-1
-3.60412E-1,-1.85577E-1
-3.80737E-1,-1.34414E-1
-3.94073E-1,-1.06491E-1
-3.98864E-1,-0.80581E-1
-3.89953E-1,-0.55481E-1
-3.72268E-1,-0.32608E-1
-3.76266E-1,0.11825E-1
-3.63510E-1,0.51208E-1
-3.6203E-1,0.66070E-1
-3.61251E-1,0.72906E-1
-3.49609E-1,0.86593E-1
-3.31619E-1,1.19659E-1
-3.06945E-1,1.52252E-1
-3.13232E-1,1.82296E-1
-3.15551E-1,2.07214E-1
-3.04458E-1,2.23083E-1
-2.64633E-1,2.30331E-1
-2.27050E-1,2.44529E-1
-2.05291E-1,2.77771E-1
-1.90383E-1,3.13125E-1
-1.82647E-1,3.25546E-1
-1.66519E-1,3.21090E-1
-1.34582E-1,3.17565E-1
-0.89416E-1,3.20785E-1
-0.51498E-1,3.52035E-1
-0.17334E-1,3.72787E-1
-0.01647E-1,3.77655E-1
0.15136E-1,3.57223E-1
0.46997E-1,3.34137E-1
0.90072E-1,3.28079E-1
1.46118E-1,3.30047E-1
1.71478E-1,3.30139E-1
1.85684E-1,3.29055E-1
2.08313E-1,3.01712E-1
2.30270E-1,2.63900E-1
2.8302E-1,2.38082E-1
3.31100E-1,2.08755E-1
3.67355E-1,1.83029E-1
3.69262E-1,1.41708E-1
3.62106E-1,0.94528E-1
3.72055E-1,0.39474E-1
3.92730E-1,-0.24063E-1
3.98132E-1,-0.75561E-1
3.84536E-1,-1.04629E-1
3.61450E-1,-1.35391E-1
3.31771E-1,-1.79611E-1
3.09188E-1,-2.43087E-1
2.84408E-1,-2.96569E-1
2.64419E-1,-3.31100E-1
2.30941E-1,-3.44223E-1
1.79290E-1,-3.57894E-1
1.15158E-1,-3.83224E-1
0.53329E-1,-4.19021E-1
0.12435E-1,-4.37011E-1
-0.03509E-1,-4.37896E-1
-0.40313E-1,-4.30526E-1
-1.0112E-1,-4.08218E-1
-1.78253E-1,-3.93402E-1
-2.3526E-1,-3.89328E-1
-2.70568E-1,-3.96194E-1
-2.93808E-1,-3.80493E-1
-3.24768E-1,-3.38684E-1
-3.72131E-1,-2.67166E-1
-4.24072E-1,-2.18704E-1
-4.70504E-1,-1.93267E-1
-4.83581E-1,-1.83151E-1
-4.88189E-1,-1.54754E-1
-4.90737E-1,-0.78857E-1
-4.90768E-1,0.07980E-1
-5.16387E-1,0.62774E-1
-5.41900E-1,0.96069E-1
-5.38604E-1,1.12457E-1
-5.14617E-1,1.57867E-1
-4.62616E-1,2.31735E-1
-4.36767E-1,3.02688E-1
-4.33563E-1,3.67553E-1
-4.24881E-1,3.84079E-1
-4.06509E-1,3.93508E-1
-3.39355E-1,4.26666E-1
-2.58300E-1,4.68093E-1
-2.13775E-1,5.16967E-1
-1.94671E-1,5.46234E-1
-1.88140E-1,5.39764E-1
-1.54724E-1,5.40161E-1
-0.48736E-1,5.37536E-1
0.29632E-1,5.37811E-1
0.85693E-1,5.76629E-1
1.01379E-1,5.85784E-1
1.05560E-1,5.75561E-1
1.66656E-1,5.30944E-1
2.42828E-1,4.60937E-1
3.12652E-1,4.44580E-1
3.65325E-1,4.44213E-1
3.73123E-1,4.42764E-1
3.81881E-1,4.14566E-1
4.08660E-1,3.29162E-1
4.46014E-1,2.60101E-1
5.11810E-1,2.14996E-1
5.45074E-1,1.95526E-1
5.51605E-1,1.72485E-1
5.19165E-1,1.12701E-1
4.97848E-1,0.26962E-1
4.98031E-1,-0.65383E-1
5.07019E-1,-1.19384E-1
5.10009E-1,-1.40899E-1
4.76440E-1,-1.45111E-1
4.31640E-1,-1.78237E-1
3.71719E-1,-2.41302E-1
3.40042E-1,-2.99408E-1
3.42865E-1,-3.39950E-1
3.31604E-1,-3.47518E-1
3.05679E-1,-3.39614E-1
2.29476E-1,-3.58261E-1
1.47720E-1,-3.78723E-1
1.14669E-1,-4.14688E-1
0.97473E-1,-4.39880E-1
0.98770E-1,-4.20883E-1
0.62606E-1,-4.06051E-1
-0.15319E-1,-3.70925E-1
-0.74340E-1,-3.69857E-1
-1.18240E-1,-4.02450E-1
-1.22940E-1,-4.08111E-1
-1.12579E-1,-3.94882E-1
-1.50451E-1,-3.42941E-1
-2.09487E-1,-2.82745E-1
-2.78274E-1,-2.70080E-1
-3.15216E-1,-2.68981E-1
-2.89001E-1,-2.82150E-1
-2.83325E-1,-2.56195E-1
-2.80548E-1,-1.66854E-1
-3.18512E-1,-1.03118E-1
-3.80355E-1,-0.66207E-1
-3.84460E-1,-0.88470E-1
-3.68866E-1,-1.28372E-1
-3.32366E-1,-0.94268E-1
-3.09509E-1,-0.08789E-1
END
BEGIN
-8.70697E-1,1.49383E-1
-7.81066E-1,2.30743E-1
-7.85644E-1,2.64129E-1
-7.62237E-1,3.95599E-1
-6.89636E-1,4.57275E-1
-6.37817E-1,5.54565E-1
-4.97863E-1,5.87371E-1
-4.61761E-1,5.46051E-1
-4.57733E-1,5.99823E-1
-3.99566E-1,6.36444E-1
-3.66577E-1,6.92504E-1
-2.45758E-1,7.27783E-1
-2.09198E-1,6.74896E-1
-2.22106E-1,7.38708E-1
-1.09985E-1,7.96264E-1
-0.47241E-1,8.02032E-1
0.71441E-1,8.31848E-1
1.53198E-1,7.42553E-1
1.36657E-1,7.44506E-1
2.28241E-1,7.87902E-1
2.99804E-1,7.65350E-1
4.07684E-1,7.88696E-1
5.34881E-1,6.80175E-1
5.33599E-1,6.19903E-1
6.25610E-1,6.08337E-1
6.83319E-1,5.00427E-1
7.29736E-1,4.63348E-1
8.12957E-1,3.15338E-1
7.27386E-1,2.01385E-1
7.11242E-1,2.08221E-1
7.28057E-1,1.56494E-1
7.28393E-1,1.45507E-1
8.04290E-1,0.82702E-1
7.61108E-1,-0.28717E-1
7.44201E-1,-0.11657E-1
8.22753E-1,-0.55908E-1
8.54248E-1,-1.41326E-1
9.23278E-1,-2.68951E-1
8.26965E-1,-4.77478E-1
6.95648E-1,-4.75677E-1
7.07183E-1,-5.18371E-1
6.33911E-1,-6.02783E-1
6.05712E-1,-6.39648E-1
5.26489E-1,-7.60131E-1
3.88519E-1,-7.36999E-1
4.00970E-1,-7.31231E-1
3.36120E-1,-8.18634E-1
2.68890E-1,-8.28643E-1
2.07366E-1,-9.26818E-1
0.05249E-1,-9.34417E-1
-0.55969E-1,-8.41278E-1
-1.04644E-1,-8.38867E-1
-1.63543E-1,-7.94342E-1
-1.82342E-1,-8.09631E-1
-2.96966E-1,-8.14331E-1
-3.50219E-1,-7.41516E-1
-3.83087E-1,-7.38189E-1
-4.50683E-1,-7.02758E-1
-4.85961E-1,-7.06573E-1
-6.30218E-1,-7.02484E-1
-7.15820E-1,-5.51727E-1
-7.11181E-1,-4.80896E-1
-7.50244E-1,-4.03503E-1
-7.17926E-1,-3.45245E-1
-7.70690E-1,-3.53027E-1
-8.38104E-1,-2.45117E-1
-8.10150E-1,-1.79473E-1
-8.46160E-1,-1.43188E-1
-8.58825E-1,-0.67657E-1
-9.03533E-1,-0.20629E-1
-9.47631E-1,1.31408E-1
-8.67218E-1,2.45300E-1
-8.40026E-1,3.00689E-1
-7.72796E-1,3.87939E-1
-7.16308E-1,3.92395E-1
-7.17529E-1,4.49066E-1
-6.54235E-1,5.02136E-1
-6.45568E-1,5.23773E-1
-6.14440E-1,6.04034E-1
-5.59173E-1,6.21887E-1
-5.74005E-1,6.85424E-1
-4.92919E-1,7.93701E-1
-4.07836E-1,8.32061E-1
-3.12133E-1,8.99231E-1
-1.89636E-1,8.73748E-1
-1.79229E-1,8.69262E-1
-0.88073E-1,9.33349E-1
0.07537E-1,8.92364E-1
0.47699E-1,9.11438E-1
1.59729E-1,9.10614E-1
1.93389E-1,8.79852E-1
2.76763E-1,9.40948E-1
4.32556E-1,8.89343E-1
4.85107E-1,8.17962E-1
5.77850E-1,7.74902E-1
6.26098E-1,6.70440E-1
6.49505E-1,6.42211E-1
7.23968E-1,5.72876E-1
7.20031E-1,5.04638E-1
7.69836E-1,4.96521E-1
8.36914E-1,4.10919E-1
8.46557E-1,3.58764E-1
9.27093E-1,3.08105E-1
9.52880E-1,1.89300E-1
9.76104E-1,1.28601E-1
1.02697E0,-0.06408E-1
9.68139E-1,-1.37115E-1
9.36920E-1,-1.97052E-1
9.09240E-1,-2.93975E-1
8.57849E-1,-3.50647E-1
8.41247E-1,-4.27520E-1
7.60528E-1,-5.12359E-1
7.07275E-1,-5.24047E-1
6.89819E-1,-5.87280E-1
6.30737E-1,-6.44287E-1
5.94726E-1,-6.99066E-1
5.09216E-1,-7.78289E-1
4.12933E-1,-7.92663E-1
3.51470E-1,-8.21014E-1
2.51586E-1,-8.39538E-1
1.95983E-1,-8.17260E-1
1.41632E-1,-8.47808E-1
0.47027E-1,-8.32489E-1
0.03234E-1,-8.07769E-1
-0.67138E-1,-8.03466E-1
-1.09741E-1,-7.65655E-1
-1.36749E-1,-7.86529E-1
-2.20550E-1,-7.88696E-1
-2.78198E-1,-7.60772E-1
-3.55957E-1,-7.37213E-1
-4.06311E-1,-6.60644E-1
-4.16137E-1,-6.46270E-1
-4.97894E-1,-6.32782E-1
-5.35125E-1,-5.64086E-1
-5.64422E-1,-5.41046E-1
-6.10199E-1,-4.68872E-1
-5.88897E-1,-4.28833E-1
-6.44683E-1,-4.33441E-1
-7.06024E-1,-3.59344E-1
-7.20489E-1,-3.14331E-1
-7.69714E-1,-2.54272E-1
-7.53906E-1,-1.74865E-1
-7.67730E-1,-1.5625E-1
-8.10943E-1,-0.61615E-1
-7.77313E-1,0.10040E-1
-7.98950E-1,0.54046E-1
-7.71331E-1,1.48101E-1
-7.25402E-1,1.50939E-1
-7.58850E-1,1.86492E-1
-7.31597E-1,2.63488E-1
-7.33612E-1,2.96630E-1
-7.31414E-1,4.02465E-1
-6.62811E-1,4.51995E-1
-6.63208E-1,4.77844E-1
-6.19445E-1,5.56304E-1
-5.75531E-1,5.81329E-1
-5.47851E-1,6.67572E-1
-4.34417E-1,7.11669E-1
-4.11163E-1,6.99218E-1
-3.79699E-1,7.71270E-1
-3.04779E-1,7.83508E-1
-2.86651E-1,8.29040E-1
-1.67297E-1,8.9328E-1
-0.87310E-1,8.64257E-1
-0.32928E-1,9.06829E-1
0.81848E-1,9.00756E-1
1.24694E-1,8.79730E-1
2.20092E-1,9.02862E-1
3.11096E-1,8.35815E-1
3.51623E-1,8.04931E-1
4.30175E-1,7.70263E-1
4.61151E-1,7.18780E-1
5.13366E-1,7.31353E-1
6.11633E-1,6.69647E-1
6.39770E-1,6.10778E-1
7.03613E-1,5.67230E-1
7.37396E-1,4.82635E-1
7.56927E-1,4.49249E-1
8.34106E-1,3.79669E-1
8.40942E-1,2.90283E-1
8.59649E-1,2.42218E-1
8.84948E-1,1.59851E-1
8.72741E-1,0.91491E-1
8.99536E-1,0.34484E-1
8.93432E-1,-0.68878E-1
8.64898E-1,-1.23321E-1
8.74389E-1,-1.94671E-1
8.41552E-1,-2.70446E-1
8.19366E-1,-3.12255E-1
8.00140E-1,-3.91601E-1
7.46978E-1,-4.49218E-1
7.25280E-1,-4.88922E-1
7.03826E-1,-5.52337E-1
6.52984E-1,-6.28143E-1
6.07696E-1,-6.83624E-1
5.23284E-1,-7.42828E-1
4.53704E-1,-7.47222E-1
4.13513E-1,-7.81311E-1
3.48663E-1,-8.29528E-1
2.85797E-1,-8.48999E-1
1.99707E-1,-8.88488E-1
END
BEGIN
-7.52075E-1,1.29272E-1
-7.70752E-1,2.00012E-1
-6.85363E-1,2.98004E-1
-6.58111E-1,2.63092E-1
-7.30804E-1,3.52294E-1
-6.52069E-1,4.67804E-1
-6.26037E-1,5.10162E-1
-5.43701E-1,6.19201E-1
-4.56024E-1,5.91857E-1
-5.00061E-1,6.35681E-1
-4.11804E-1,7.65747E-1
-3.12561E-1,7.84332E-1
-2.06726E-1,8.36608E-1
-0.89782E-1,7.82318E-1
-1.03088E-1,7.72277E-1
-0.12634E-1,8.58062E-1
0.97442E-1,8.28674E-1
1.83471E-1,8.41308E-1
3.16314E-1,7.50824E-1
2.86285E-1,6.65069E-1
3.12805E-1,7.21893E-1
4.22454E-1,6.87469E-1
4.64508E-1,6.64825E-1
5.85144E-1,6.16760E-1
5.89996E-1,4.96490E-1
5.84198E-1,5.11291E-1
6.86065E-1,4.78851E-1
7.26013E-1,4.08935E-1
8.15185E-1,3.40759E-1
8.17901E-1,1.78100E-1
7.55615E-1,1.50299E-1
8.08868E-1,1.28875E-1
8.33557E-1,0.56427E-1
8.98498E-1,-0.16967E-1
8.7677E-1,-2.10815E-1
7.41607E-1,-2.45208E-1
7.58209E-1,-2.32116E-1
7.73437E-1,-3.12805E-1
7.89672E-1,-3.85131E-1
7.56378E-1,-5.66131E-1
5.69580E-1,-6.07330E-1
5.41564E-1,-5.51178E-1
5.44067E-1,-6.01379E-1
5.24963E-1,-6.47613E-1
5.02227E-1,-7.84820E-1
3.01452E-1,-8.57757E-1
2.28698E-1,-7.70172E-1
2.23754E-1,-7.93640E-1
1.66656E-1,-8.16436E-1
1.37939E-1,-8.84796E-1
-0.52825E-1,-9.57061E-1
-1.79534E-1,-8.30291E-1
-1.78344E-1,-7.92541E-1
-2.30499E-1,-7.8479E-1
-2.45147E-1,-7.89581E-1
-3.70086E-1,-8.52600E-1
-5.22460E-1,-7.26196E-1
-5.07843E-1,-6.34857E-1
-5.43945E-1,-6.14349E-1
-5.58868E-1,-5.80505E-1
-6.30920E-1,-6.19445E-1
-7.84576E-1,-5.10345E-1
-7.63061E-1,-3.67889E-1
-7.53997E-1,-3.29498E-1
-7.57904E-1,-2.73040E-1
-7.76825E-1,-2.85095E-1
-9.13757E-1,-2.22778E-1
-9.11956E-1,-0.39581E-1
-8.54888E-1,0.09857E-1
-8.54675E-1,0.66558E-1
-8.41156E-1,0.98602E-1
-9.19189E-1,1.54510E-1
-9.16717E-1,3.46435E-1
-8.01788E-1,4.26208E-1
-7.61077E-1,4.63775E-1
-7.06848E-1,5.08453E-1
-7.05017E-1,5.37445E-1
-6.89819E-1,6.59423E-1
-5.70587E-1,7.42981E-1
-4.84191E-1,7.60101E-1
-4.09027E-1,7.69531E-1
-3.87817E-1,7.69836E-1
-3.61114E-1,8.56964E-1
-2.28179E-1,9.18029E-1
-1.39312E-1,8.97766E-1
-0.52124E-1,9.06219E-1
0.22644E-1,8.57025E-1
0.30304E-1,8.65020E-1
1.17004E-1,9.23889E-1
2.33032E-1,9.02496E-1
3.12713E-1,8.76068E-1
3.94928E-1,8.14025E-1
4.09454E-1,7.72613E-1
4.72076E-1,7.91168E-1
5.88104E-1,7.60376E-1
6.79931E-1,6.90460E-1
7.50701E-1,5.84564E-1
7.32482E-1,4.93713E-1
7.50549E-1,4.93469E-1
8.43139E-1,4.40002E-1
8.96484E-1,3.30871E-1
9.29595E-1,2.21344E-1
8.96514E-1,1.07177E-1
8.73870E-1,0.96008E-1
9.31213E-1,0.37170E-1
9.32006E-1,-0.71594E-1
9.29718E-1,-1.57318E-1
8.87634E-1,-2.86315E-1
8.03253E-1,-3.20678E-1
8.16070E-1,-3.49090E-1
8.06823E-1,-4.44000E-1
7.63061E-1,-5.29388E-1
6.80358E-1,-6.25579E-1
5.59814E-1,-6.33850E-1
5.46630E-1,-6.24298E-1
5.24414E-1,-6.93512E-1
4.61669E-1,-7.50244E-1
3.76861E-1,-8.11309E-1
2.49939E-1,-8.02795E-1
2.18658E-1,-7.5354E-1
2.0401E-1,-7.87811E-1
1.44470E-1,-8.27179E-1
0.60791E-1,-8.69415E-1
-0.70770E-1,-8.47229E-1
-1.12823E-1,-7.64404E-1
-1.21337E-1,-7.72003E-1
-1.80938E-1,-7.81951E-1
-2.46398E-1,-7.97973E-1
-3.71673E-1,-7.73895E-1
-4.17724E-1,-6.52832E-1
-3.89709E-1,-6.26129E-1
-4.33532E-1,-6.40014E-1
-5.00824E-1,-6.27868E-1
-5.99029E-1,-5.93902E-1
-6.47186E-1,-4.79766E-1
-6.14990E-1,-4.30969E-1
-6.42517E-1,-4.22363E-1
-6.81213E-1,-3.78692E-1
-7.35595E-1,-3.44635E-1
-7.99774E-1,-2.41363E-1
-7.63763E-1,-1.52984E-1
-7.54638E-1,-1.35040E-1
-7.71453E-1,-0.93627E-1
-7.93182E-1,-0.55389E-1
-8.43383E-1,0.33355E-1
-8.08837E-1,1.41449E-1
-7.79327E-1,1.73522E-1
-7.77526E-1,2.20550E-1
-7.68737E-1,2.60192E-1
-7.98492E-1,3.36059E-1
-7.46887E-1,4.7995E-1
-6.40350E-1,5.11505E-1
-6.21032E-1,5.24169E-1
-5.96710E-1,5.64209E-1
-5.87127E-1,6.0672E-1
-5.44708E-1,7.14569E-1
-4.15710E-1,7.63122E-1
-3.52325E-1,7.60589E-1
-2.99926E-1,7.87139E-1
-2.54241E-1,7.99591E-1
-2.07702E-1,8.51257E-1
-0.88043E-1,8.73809E-1
-0.06652E-1,8.33282E-1
0.45471E-1,8.21899E-1
0.92529E-1,8.16955E-1
1.38275E-1,8.29681E-1
2.18414E-1,8.40545E-1
2.97302E-1,7.99957E-1
3.53668E-1,7.59399E-1
3.98010E-1,7.23541E-1
4.45251E-1,7.10113E-1
5.15533E-1,7.01995E-1
5.94085E-1,6.46026E-1
6.31988E-1,5.80261E-1
6.58691E-1,5.25207E-1
6.97601E-1,4.83551E-1
7.42858E-1,4.37408E-1
8.01422E-1,3.77960E-1
8.29467E-1,3.00109E-1
8.37738E-1,2.34039E-1
8.54522E-1,1.80542E-1
8.69995E-1,1.04003E-1
8.87390E-1,0.37506E-1
8.97277E-1,-0.49865E-1
8.84765E-1,-1.22985E-1
8.75457E-1,-1.83807E-1
8.57910E-1,-2.65777E-1
8.20434E-1,-3.27453E-1
8.01239E-1,-3.98712E-1
7.61108E-1,-4.68048E-1
7.33917E-1,-5.18188E-1
7.07305E-1,-5.85723E-1
6.35498E-1,-6.44531E-1
5.79925E-1,-6.82739E-1
5.15808E-1,-7.32971E-1
4.64935E-1,-7.69714E-1
4.18304E-1,-8.28796E-1
3.25683E-1,-8.74420E-1
2.50061E-1,-8.63494E-1
1.84204E-1,-8.76007E-1
1.09191E-1,-8.68103E-1
END
BEGIN
-5.51116E-1,-1.41632E-1
-5.73364E-1,-0.79406E-1
-5.84655E-1,-0.16143E-1
-5.90789E-1,0.34973E-1
-5.89294E-1,1.05255E-1
-5.71594E-1,1.71936E-1
-5.50842E-1,2.45788E-1
-5.23925E-1,3.05603E-1
-4.98016E-1,3.66684E-1
-4.58236E-1,4.17343E-1
-4.20349E-1,4.59182E-1
-3.67614E-1,5.03295E-1
-3.13873E-1,5.37445E-1
-2.54058E-1,5.80413E-1
-1.94610E-1,5.99670E-1
-1.37115E-1,6.17340E-1
-0.72204E-1,6.29058E-1
-0.06164E-1,6.28570E-1
0.59539E-1,6.32690E-1
1.28997E-1,6.11908E-1
1.81488E-1,5.92315E-1
2.37365E-1,5.69122E-1
2.92541E-1,5.35919E-1
3.48281E-1,4.89349E-1
3.98819E-1,4.34707E-1
4.41055E-1,3.87496E-1
4.78210E-1,3.32244E-1
5.09307E-1,2.74414E-1
5.24902E-1,2.00225E-1
5.37536E-1,1.43310E-1
5.53009E-1,0.71563E-1
5.51086E-1,0.05767E-1
5.46234E-1,-0.42388E-1
5.31402E-1,-0.92254E-1
5.18646E-1,-1.29150E-1
4.89852E-1,-2.00012E-1
4.44809E-1,-2.43835E-1
4.15542E-1,-2.81433E-1
3.88671E-1,-3.21609E-1
3.42804E-1,-3.50677E-1
2.93609E-1,-3.80050E-1
2.37228E-1,-3.94912E-1
1.83914E-1,-4.13238E-1
1.40380E-1,-4.29306E-1
0.89096E-1,-4.42123E-1
0.53405E-1,-4.44610E-1
-0.03006E-1,-4.3396E-1
-0.52200E-1,-4.18136E-1
-0.99105E-1,-4.01046E-1
-1.43936E-1,-3.95034E-1
-1.86416E-1,-3.63327E-1
-2.18673E-1,-3.42468E-1
-2.57324E-1,-3.14926E-1
-2.95761E-1,-2.80059E-1
-3.24111E-1,-2.48855E-1
-3.44482E-1,-2.17117E-1
-3.61022E-1,-1.94427E-1
-3.77578E-1,-1.51290E-1
-3.88595E-1,-0.98526E-1
-3.89236E-1,-0.48767E-1
-4.00329E-1,-0.15594E-1
-3.97644E-1,0.24261E-1
-3.93264E-1,0.58517E-1
-3.87725E-1,1.07635E-1
-3.68148E-1,1.62567E-1
-3.48388E-1,2.02026E-1
-3.32824E-1,2.30026E-1
-3.32626E-1,2.57690E-1
-2.99499E-1,2.91351E-1
-2.54135E-1,3.11523E-1
-2.08190E-1,3.24279E-1
-1.70181E-1,3.48663E-1
-1.34719E-1,3.69003E-1
-0.88607E-1,3.89022E-1
-0.39032E-1,3.96667E-1
0.10940E-1,3.97293E-1
0.68069E-1,3.89663E-1
0.98556E-1,3.7117E-1
1.36642E-1,3.85620E-1
1.87377E-1,3.76541E-1
2.30041E-1,3.50601E-1
2.54867E-1,3.07052E-1
2.63687E-1,2.76840E-1
3.01208E-1,2.62161E-1
3.37371E-1,2.15423E-1
3.59161E-1,1.75781E-1
3.83575E-1,1.24130E-1
3.85421E-1,0.72265E-1
3.75610E-1,0.43899E-1
3.97049E-1,0.08331E-1
3.93432E-1,-0.36865E-1
3.92578E-1,-0.77880E-1
3.63601E-1,-1.22894E-1
3.34167E-1,-1.50909E-1
3.28842E-1,-1.84982E-1
3.03680E-1,-2.34069E-1
2.81524E-1,-2.66830E-1
2.40631E-1,-3.08075E-1
1.85211E-1,-3.25271E-1
1.60476E-1,-3.27911E-1
1.37069E-1,-3.69110E-1
1.09787E-1,-3.91464E-1
0.79361E-1,-4.21936E-1
0.37048E-1,-4.07196E-1
0.19943E-1,-3.89663E-1
-0.16235E-1,-4.01886E-1
-0.64987E-1,-3.96423E-1
-1.04064E-1,-3.98437E-1
-1.50116E-1,-3.83651E-1
-1.72973E-1,-3.60153E-1
-1.93954E-1,-3.49136E-1
-2.32055E-1,-3.30215E-1
-2.56164E-1,-3.11996E-1
-2.94586E-1,-2.99484E-1
-3.16696E-1,-2.71102E-1
-3.27148E-1,-2.50259E-1
-3.43780E-1,-2.30041E-1
-3.57757E-1,-2.03887E-1
-3.78265E-1,-1.77322E-1
-3.87664E-1,-1.42730E-1
-4.01992E-1,-1.12319E-1
-4.12155E-1,-0.81390E-1
-4.25476E-1,-0.51116E-1
-4.37469E-1,-0.27023E-1
-4.54025E-1,0.01678E-1
-4.69162E-1,0.33599E-1
-4.62097E-1,0.73623E-1
-4.54177E-1,0.93582E-1
-4.58587E-1,1.16317E-1
-4.64843E-1,1.56539E-1
-4.62432E-1,1.88385E-1
-4.50805E-1,2.35336E-1
-4.25827E-1,2.57217E-1
-4.18823E-1,2.81875E-1
-4.13040E-1,3.24035E-1
-3.92272E-1,3.61679E-1
-3.80523E-1,4.03701E-1
-3.42117E-1,4.34066E-1
-3.22860E-1,4.36828E-1
-3.15795E-1,4.62234E-1
-2.83752E-1,4.96261E-1
-2.57904E-1,5.13519E-1
-2.15820E-1,5.41076E-1
-1.72119E-1,5.35583E-1
-1.43676E-1,5.47546E-1
-0.98388E-1,5.70953E-1
-0.49438E-1,5.82794E-1
0.04669E-1,6.02691E-1
0.68115E-1,5.82244E-1
0.90179E-1,5.62591E-1
1.19018E-1,5.737E-1
1.84875E-1,5.81512E-1
2.26898E-1,5.73913E-1
2.82318E-1,5.54229E-1
2.95867E-1,5.06622E-1
3.09799E-1,4.89059E-1
3.68789E-1,4.73144E-1
4.24560E-1,4.25857E-1
4.73907E-1,3.90960E-1
4.99969E-1,3.29330E-1
4.95895E-1,3.01193E-1
5.32226E-1,2.80120E-1
5.72631E-1,2.06329E-1
5.86914E-1,1.65405E-1
6.21521E-1,1.08581E-1
5.92041E-1,0.64849E-1
5.84838E-1,0.55999E-1
5.92834E-1,-0.00335E-1
5.62744E-1,-0.54901E-1
5.57983E-1,-1.07757E-1
5.19989E-1,-1.73309E-1
4.82528E-1,-1.94641E-1
4.64523E-1,-2.29003E-1
4.19464E-1,-2.75177E-1
3.96423E-1,-3.13858E-1
3.48114E-1,-3.82217E-1
2.92968E-1,-3.84964E-1
2.77099E-1,-3.88336E-1
2.3526E-1,-4.03991E-1
1.90261E-1,-4.01428E-1
1.36871E-1,-4.32724E-1
0.59585E-1,-4.29153E-1
0.33874E-1,-4.16656E-1
-0.03173E-1,-4.14520E-1
-0.36102E-1,-3.82858E-1
-0.70632E-1,-3.84689E-1
-1.61377E-1,-3.72131E-1
-1.9133E-1,-3.39828E-1
-2.11441E-1,-3.46237E-1
-2.21435E-1,-3.11538E-1
-2.03323E-1,-2.89520E-1
-2.50259E-1,-2.76077E-1
-3.00506E-1,-2.06405E-1
-3.09845E-1,-1.75445E-1
-3.17855E-1,-1.46530E-1
-2.85049E-1,-1.29592E-1
-2.99896E-1,-1.16134E-1
-3.42437E-1,-0.28976E-1
-3.36975E-1,0.30227E-1
-3.54141E-1,0.55343E-1
-3.19412E-1,0.58395E-1
END
