CITIFILE A.01.01
#NA VERSION HP8510C.08.10
NAME DATA
#NA REGISTER 1
VAR FREQ MAG 201
DATA S[1,1] RI
DATA S[2,1] RI
DATA S[1,2] RI
DATA S[2,2] RI
SEG_LIST_BEGIN
SEG 8000000000 12000000000 201
SEG_LIST_END
COMMENT       YEAR MONTH DAY HOUR MINUTE SECONDS
CONSTANT TIME 2013   09   26  19    12    38.0
BEGIN
-5.23101E-1,-2.02941E-1
-5.41290E-1,-1.48254E-1
-5.53863E-1,-0.83435E-1
-5.63049E-1,-0.32440E-1
-5.68176E-1,0.30090E-1
-5.54290E-1,0.81665E-1
-5.42511E-1,1.36261E-1
-5.22949E-1,1.875E-1
-5.06500E-1,2.48809E-1
-4.76745E-1,3.02581E-1
-4.45220E-1,3.41445E-1
-4.06601E-1,3.81286E-1
-3.66531E-1,4.14794E-1
-3.22357E-1,4.60678E-1
-2.67883E-1,4.91210E-1
-2.18994E-1,5.15533E-1
-1.66381E-1,5.33203E-1
-1.15203E-1,5.39703E-1
-0.65612E-1,5.57495E-1
0.03601E-1,5.54046E-1
0.59356E-1,5.48004E-1
1.13250E-1,5.37719E-1
1.61895E-1,5.21972E-1
2.07672E-1,5.00335E-1
2.51327E-1,4.73831E-1
2.93304E-1,4.49081E-1
3.35403E-1,4.16778E-1
3.76251E-1,3.83606E-1
4.09194E-1,3.37112E-1
4.32571E-1,3.07479E-1
4.64553E-1,2.63031E-1
4.84222E-1,2.08740E-1
5.00671E-1,1.61590E-1
5.12451E-1,1.05590E-1
5.20904E-1,0.67993E-1
5.27282E-1,0.03387E-1
5.09735E-1,-0.43396E-1
5.02777E-1,-0.84930E-1
5.03265E-1,-1.39343E-1
4.75662E-1,-1.93450E-1
4.52179E-1,-2.34558E-1
4.23049E-1,-2.63000E-1
3.9534E-1,-2.98065E-1
3.68179E-1,-3.35479E-1
3.24783E-1,-3.80447E-1
2.93594E-1,-4.00573E-1
2.52990E-1,-4.17755E-1
2.16278E-1,-4.29519E-1
1.75201E-1,-4.40094E-1
1.32492E-1,-4.69955E-1
0.71502E-1,-4.70428E-1
0.42968E-1,-4.68658E-1
0.14617E-1,-4.69741E-1
-0.24353E-1,-4.63256E-1
-0.69122E-1,-4.53506E-1
-1.24801E-1,-4.44076E-1
-1.60308E-1,-4.35318E-1
-1.90322E-1,-4.19784E-1
-2.15301E-1,-3.97781E-1
-2.36022E-1,-3.63952E-1
-2.79083E-1,-3.45687E-1
-3.15078E-1,-3.02520E-1
-3.25714E-1,-2.84011E-1
-3.38623E-1,-2.70736E-1
-3.50326E-1,-2.41012E-1
-3.62243E-1,-2.05810E-1
-3.85131E-1,-1.55441E-1
-4.00146E-1,-1.27731E-1
-4.07180E-1,-1.01532E-1
-4.00100E-1,-0.76507E-1
-3.83407E-1,-0.50567E-1
-3.90243E-1,-0.05188E-1
-3.79653E-1,0.37094E-1
-3.78143E-1,0.52627E-1
-3.77502E-1,0.60134E-1
-3.65982E-1,0.74447E-1
-3.48342E-1,1.08703E-1
-3.22631E-1,1.43829E-1
-3.29879E-1,1.74026E-1
-3.33648E-1,1.98257E-1
-3.24523E-1,2.13775E-1
-2.83233E-1,2.23068E-1
-2.44369E-1,2.39471E-1
-2.23465E-1,2.73452E-1
-2.09808E-1,3.09753E-1
-2.02743E-1,3.21212E-1
-1.86843E-1,3.17413E-1
-1.52969E-1,3.14224E-1
-1.08718E-1,3.19198E-1
-0.71044E-1,3.52005E-1
-0.37918E-1,3.74496E-1
-0.23162E-1,3.79913E-1
-0.04898E-1,3.59344E-1
0.28747E-1,3.37890E-1
0.73959E-1,3.33404E-1
1.30798E-1,3.37417E-1
1.56341E-1,3.37509E-1
1.69830E-1,3.35540E-1
1.93466E-1,3.08486E-1
2.17269E-1,2.70721E-1
2.70660E-1,2.46490E-1
3.19717E-1,2.18460E-1
3.56002E-1,1.95632E-1
3.59558E-1,1.54129E-1
3.54599E-1,1.06552E-1
3.66348E-1,0.52307E-1
3.89846E-1,-0.10040E-1
3.97506E-1,-0.61187E-1
3.85345E-1,-0.90789E-1
3.63388E-1,-1.22100E-1
3.35876E-1,-1.67099E-1
3.16574E-1,-2.31140E-1
3.33190E-1,-2.83935E-1
2.59353E-1,-3.01040E-1
2.42874E-1,-3.38348E-1
1.92245E-1,-3.53546E-1
1.29791E-1,-3.82309E-1
0.68740E-1,-4.20562E-1
0.27175E-1,-4.41192E-1
0.10604E-1,-4.431E-1
-0.26062E-1,-4.38324E-1
-0.86929E-1,-4.18701E-1
-1.66137E-1,-4.07196E-1
-2.24166E-1,-4.03976E-1
-2.60528E-1,-4.12475E-1
-2.85018E-1,-3.99520E-1
-3.18038E-1,-3.58398E-1
-3.68972E-1,-2.89642E-1
-4.21905E-1,-2.41943E-1
-4.71389E-1,-2.17407E-1
-4.85336E-1,-2.08129E-1
-4.92462E-1,-1.81152E-1
-4.98550E-1,-1.06796E-1
-5.00152E-1,-0.17517E-1
-5.27526E-1,0.37933E-1
-5.55267E-1,0.71228E-1
-5.54046E-1,0.87646E-1
-5.33233E-1,1.32507E-1
-4.83825E-1,2.08389E-1
-4.59243E-1,2.80120E-1
-4.59213E-1,3.47366E-1
-4.51293E-1,3.66897E-1
-4.33731E-1,3.76113E-1
-3.69705E-1,4.11880E-1
-2.87826E-1,4.56787E-1
-2.44262E-1,5.07995E-1
-2.25524E-1,5.40435E-1
-2.18261E-1,5.35461E-1
-1.86676E-1,5.35858E-1
-0.81359E-1,5.37506E-1
-0.00061E-1,5.37506E-1
0.56152E-1,5.79834E-1
0.72906E-1,5.90423E-1
0.75744E-1,5.82305E-1
1.36871E-1,5.40771E-1
2.16720E-1,4.71725E-1
2.87460E-1,4.55566E-1
3.42407E-1,4.56680E-1
3.51303E-1,4.56024E-1
3.59252E-1,4.28970E-1
3.87023E-1,3.44451E-1
4.25598E-1,2.75177E-1
4.93392E-1,2.31521E-1
5.29571E-1,2.14447E-1
5.35461E-1,1.94000E-1
5.04364E-1,1.35986E-1
4.85977E-1,0.50872E-1
4.89898E-1,-0.41854E-1
5.02441E-1,-0.96832E-1
5.08911E-1,-1.18011E-1
4.75982E-1,-1.20208E-1
4.33700E-1,-1.52816E-1
3.75396E-1,-2.18460E-1
3.45489E-1,-2.80410E-1
3.51593E-1,-3.22830E-1
3.43338E-1,-3.30535E-1
3.19564E-1,-3.21853E-1
2.43927E-1,-3.42834E-1
1.61254E-1,-3.67538E-1
1.28112E-1,-4.06692E-1
1.13021E-1,-4.3573E-1
1.16348E-1,-4.16275E-1
0.81359E-1,-4.03686E-1
0.02288E-1,-3.71337E-1
-0.59036E-1,-3.73092E-1
-1.03836E-1,-4.09744E-1
-1.07620E-1,-4.16961E-1
-0.95275E-1,-4.05654E-1
-1.33926E-1,-3.56369E-1
-1.96060E-1,-2.97897E-1
-2.68722E-1,-2.88284E-1
-3.08013E-1,-2.90420E-1
-2.80761E-1,-3.05313E-1
-2.75421E-1,-2.82211E-1
-2.76565E-1,-1.92413E-1
-3.19061E-1,-1.29089E-1
-3.85604E-1,-0.92804E-1
-3.90625E-1,-1.14868E-1
-3.75259E-1,-1.57043E-1
-3.38714E-1,-1.22985E-1
-3.1987E-1,-0.35659E-1
END
BEGIN
-8.75946E-1,1.22222E-1
-7.89703E-1,2.08526E-1
-7.94799E-1,2.42462E-1
-7.76031E-1,3.73077E-1
-7.05474E-1,4.37774E-1
-6.56189E-1,5.36865E-1
-5.17700E-1,5.76232E-1
-4.78729E-1,5.36102E-1
-4.76013E-1,5.89721E-1
-4.18640E-1,6.28601E-1
-3.87542E-1,6.84631E-1
-2.67974E-1,7.24700E-1
-2.28271E-1,6.73156E-1
-2.41241E-1,7.35290E-1
-1.32171E-1,7.96478E-1
-0.68634E-1,8.03619E-1
0.49774E-1,8.37036E-1
1.34521E-1,7.50213E-1
1.18103E-1,7.5E-1
2.09106E-1,7.95440E-1
2.81707E-1,7.74566E-1
3.86810E-1,8.00170E-1
5.17639E-1,6.96716E-1
5.18158E-1,6.35009E-1
6.09527E-1,6.2677E-1
6.71936E-1,5.20172E-1
7.17987E-1,4.84039E-1
8.07312E-1,3.38867E-1
7.26104E-1,2.20275E-1
7.07366E-1,2.25982E-1
7.25219E-1,1.73919E-1
7.24914E-1,1.62780E-1
8.02642E-1,1.03179E-1
7.63031E-1,-0.10467E-1
7.43682E-1,0.06286E-1
8.22845E-1,-0.35400E-1
8.56414E-1,-1.18866E-1
9.29473E-1,-2.43591E-1
8.40332E-1,-4.55322E-1
7.06939E-1,-4.58435E-1
7.19177E-1,-4.99786E-1
6.49444E-1,-5.85510E-1
6.23291E-1,-6.21917E-1
5.46325E-1,-7.45605E-1
4.07745E-1,-7.26379E-1
4.20043E-1,-7.18383E-1
3.57910E-1,-8.07983E-1
2.91290E-1,-8.19122E-1
2.34405E-1,-9.19250E-1
0.31494E-1,-9.33288E-1
-0.32989E-1,-8.41186E-1
-0.80627E-1,-8.38775E-1
-1.40136E-1,-7.96447E-1
-1.57592E-1,-8.11615E-1
-2.72277E-1,-8.21472E-1
-3.27270E-1,-7.48626E-1
-3.60626E-1,-7.46429E-1
-4.28131E-1,-7.13867E-1
-4.61731E-1,-7.19055E-1
-6.06018E-1,-7.21069E-1
-6.97570E-1,-5.71685E-1
-6.93512E-1,-5.02716E-1
-7.36053E-1,-4.26116E-1
-7.05139E-1,-3.66241E-1
-7.56713E-1,-3.77807E-1
-8.27850E-1,-2.72216E-1
-8.02307E-1,-2.05078E-1
-8.39843E-1,-1.70105E-1
-8.54126E-1,-0.94421E-1
-8.99078E-1,-0.50476E-1
-9.51019E-1,0.98297E-1
-8.75244E-1,2.16186E-1
-8.48724E-1,2.72277E-1
-7.86071E-1,3.62121E-1
-7.27844E-1,3.68591E-1
-7.31597E-1,4.23858E-1
-6.69830E-1,4.80835E-1
-6.61163E-1,5.02105E-1
-6.33728E-1,5.82855E-1
-5.78369E-1,6.02020E-1
-5.9552E-1,6.62658E-1
-5.21026E-1,7.74871E-1
-4.37225E-1,8.16070E-1
-3.45031E-1,8.87847E-1
-2.20153E-1,8.68530E-1
-2.08343E-1,8.61908E-1
-1.21124E-1,9.29260E-1
-0.23284E-1,8.92120E-1
0.14679E-1,9.13360E-1
1.27044E-1,9.16626E-1
1.63574E-1,8.85040E-1
2.40905E-1,9.50378E-1
3.99688E-1,9.07226E-1
4.56634E-1,8.36700E-1
5.51178E-1,7.98767E-1
6.05407E-1,6.94091E-1
6.27716E-1,6.64459E-1
7.05596E-1,5.97717E-1
7.03826E-1,5.29907E-1
7.52166E-1,5.22522E-1
8.22814E-1,4.40826E-1
8.33313E-1,3.88153E-1
9.14703E-1,3.41308E-1
9.46899E-1,2.24060E-1
9.71038E-1,1.63970E-1
1.02838E0,0.31372E-1
9.74823E-1,-1.03881E-1
9.45007E-1,-1.64611E-1
9.22302E-1,-2.62756E-1
8.70971E-1,-3.20648E-1
8.57086E-1,-3.99383E-1
7.80090E-1,-4.85931E-1
7.26104E-1,-5.05401E-1
7.16064E-1,-5.63903E-1
6.54357E-1,-6.21826E-1
6.20849E-1,-6.77734E-1
5.37811E-1,-7.60437E-1
4.41436E-1,-7.77374E-1
3.81286E-1,-8.08044E-1
2.82806E-1,-8.30627E-1
2.26074E-1,-8.10485E-1
1.74804E-1,-8.43017E-1
0.77392E-1,-8.31634E-1
0.33508E-1,-8.08349E-1
-0.36468E-1,-8.07556E-1
-0.82122E-1,-7.71148E-1
-1.05835E-1,-7.92327E-1
-1.89788E-1,-7.98553E-1
-2.49298E-1,-7.72674E-1
-3.27636E-1,-7.53112E-1
-3.82751E-1,-6.78100E-1
-3.91876E-1,-6.64032E-1
-4.74090E-1,-6.55242E-1
-5.15411E-1,-5.86975E-1
-5.45837E-1,-5.65063E-1
-5.94940E-1,-4.95575E-1
-5.76202E-1,-4.51263E-1
-6.30065E-1,-4.60662E-1
-6.95709E-1,-3.87451E-1
-7.11334E-1,-3.42346E-1
-7.63610E-1,-2.85461E-1
-7.51647E-1,-2.03643E-1
-7.64129E-1,-1.85394E-1
-8.12866E-1,-0.92926E-1
-7.82501E-1,-0.17028E-1
-8.04718E-1,0.24688E-1
-7.82135E-1,1.20971E-1
-7.34405E-1,1.25976E-1
-7.68035E-1,1.60217E-1
-7.44659E-1,2.38342E-1
-7.45513E-1,2.71331E-1
-7.49145E-1,3.77044E-1
-6.81579E-1,4.30114E-1
-6.82281E-1,4.55230E-1
-6.42272E-1,5.35919E-1
-5.97595E-1,5.61737E-1
-5.75103E-1,6.48834E-1
-4.63256E-1,7.00225E-1
-4.35852E-1,6.86828E-1
-4.09240E-1,7.60223E-1
-3.34075E-1,7.75268E-1
-3.18237E-1,8.19274E-1
-2.04132E-1,8.90106E-1
-1.19171E-1,8.64440E-1
-0.66864E-1,9.0802E-1
0.47424E-1,9.07531E-1
0.93566E-1,8.87023E-1
1.87255E-1,9.14703E-1
2.82287E-1,8.50952E-1
3.24493E-1,8.20098E-1
4.04022E-1,7.87780E-1
4.36523E-1,7.36816E-1
4.86297E-1,7.52349E-1
5.88195E-1,6.95770E-1
6.19049E-1,6.36291E-1
6.84112E-1,5.95397E-1
7.20977E-1,5.11718E-1
7.41241E-1,4.78851E-1
8.22662E-1,4.13848E-1
8.32977E-1,3.22876E-1
8.53424E-1,2.74688E-1
8.80615E-1,1.93847E-1
8.72222E-1,1.26037E-1
9.01794E-1,0.70068E-1
9.01062E-1,-0.34912E-1
8.73016E-1,-0.91033E-1
8.85376E-1,-1.62078E-1
8.55011E-1,-2.39105E-1
8.34137E-1,-2.82623E-1
8.20373E-1,-3.63586E-1
7.66784E-1,-4.23492E-1
7.45056E-1,-4.64904E-1
7.25616E-1,-5.27862E-1
6.80145E-1,-6.05163E-1
6.38244E-1,-6.62811E-1
5.54840E-1,-7.28302E-1
4.83856E-1,-7.34619E-1
4.43634E-1,-7.69592E-1
3.81805E-1,-8.20159E-1
3.19213E-1,-8.41735E-1
2.3526E-1,-8.87146E-1
END
BEGIN
-7.58148E-1,1.11755E-1
-7.78930E-1,1.79412E-1
-6.97143E-1,2.83538E-1
-6.64703E-1,2.48748E-1
-7.40936E-1,3.32824E-1
-6.66687E-1,4.51599E-1
-6.41540E-1,4.94079E-1
-5.63964E-1,6.07116E-1
-4.71893E-1,5.83648E-1
-5.17364E-1,6.21521E-1
-4.36554E-1,7.56225E-1
-3.35357E-1,7.78808E-1
-2.32238E-1,8.35571E-1
-1.10076E-1,7.86102E-1
-1.2146E-1,7.72918E-1
-0.36407E-1,8.61206E-1
0.77026E-1,8.37005E-1
1.61804E-1,8.50738E-1
3.01330E-1,7.66387E-1
2.75573E-1,6.74072E-1
2.9776E-1,7.29309E-1
4.08630E-1,6.99157E-1
4.49981E-1,6.75964E-1
5.71411E-1,6.33850E-1
5.82153E-1,5.10925E-1
5.73608E-1,5.23498E-1
6.73980E-1,4.95849E-1
7.16247E-1,4.25933E-1
8.06732E-1,3.62701E-1
8.16803E-1,1.99493E-1
7.54547E-1,1.67114E-1
8.06732E-1,1.47674E-1
8.32275E-1,0.76477E-1
8.97796E-1,0.06256E-1
8.85314E-1,-1.87133E-1
7.50030E-1,-2.29614E-1
7.63183E-1,-2.15728E-1
7.80365E-1,-2.94189E-1
7.97454E-1,-3.64807E-1
7.72430E-1,-5.44921E-1
5.85601E-1,-5.95153E-1
5.52215E-1,-5.39062E-1
5.56701E-1,-5.87127E-1
5.38208E-1,-6.32324E-1
5.22522E-1,-7.66845E-1
3.25531E-1,-8.50341E-1
2.45910E-1,-7.63702E-1
2.43011E-1,-7.85553E-1
1.87744E-1,-8.09234E-1
1.63543E-1,-8.76495E-1
-0.23437E-1,-9.59045E-1
-1.58874E-1,-8.35968E-1
-1.57287E-1,-7.94921E-1
-2.08740E-1,-7.88604E-1
-2.22015E-1,-7.92877E-1
-3.40698E-1,-8.62304E-1
-5.02594E-1,-7.42981E-1
-4.90661E-1,-6.46881E-1
-5.25634E-1,-6.26922E-1
-5.40374E-1,-5.92437E-1
-6.07482E-1,-6.36535E-1
-7.6828E-1,-5.37414E-1
-7.54150E-1,-3.89282E-1
-7.43866E-1,-3.49517E-1
-7.47741E-1,-2.92327E-1
-7.63214E-1,-3.07586E-1
-9.04296E-1,-2.55950E-1
-9.14276E-1,-0.67443E-1
-8.54431E-1,-0.14343E-1
-8.54614E-1,0.41564E-1
-8.39325E-1,0.72357E-1
-9.21691E-1,1.20575E-1
-9.32922E-1,3.15918E-1
-8.15826E-1,4.02862E-1
-7.75268E-1,4.39697E-1
-7.21679E-1,4.86145E-1
-7.20611E-1,5.11718E-1
-7.15179E-1,6.34429E-1
-5.98144E-1,7.27356E-1
-5.09674E-1,7.46337E-1
-4.32312E-1,7.58483E-1
-4.10461E-1,7.56286E-1
-3.91113E-1,8.43536E-1
-2.59918E-1,9.12994E-1
-1.68151E-1,8.95599E-1
-0.80963E-1,9.07440E-1
-0.01892E-1,8.59130E-1
0.03509E-1,8.64135E-1
0.84228E-1,9.27154E-1
2.02758E-1,9.12384E-1
2.83783E-1,8.88702E-1
3.69567E-1,8.30322E-1
3.87237E-1,7.85949E-1
4.46167E-1,8.06304E-1
5.63385E-1,7.81341E-1
6.57806E-1,7.14630E-1
7.33062E-1,6.12304E-1
7.2052E-1,5.18493E-1
7.36022E-1,5.17028E-1
8.29559E-1,4.68689E-1
8.87146E-1,3.61450E-1
9.25079E-1,2.53204E-1
8.97247E-1,1.37298E-1
8.73199E-1,1.22741E-1
9.31915E-1,0.66070E-1
9.36096E-1,-0.42419E-1
9.35363E-1,-1.27319E-1
8.99444E-1,-2.57110E-1
8.15612E-1,-2.96966E-1
8.27636E-1,-3.24218E-1
8.21685E-1,-4.17266E-1
7.81005E-1,-5.03356E-1
6.98761E-1,4.79187E-1
7.67608E-1,4.14764E-1
5.65979E-1,-6.07849E-1
5.47302E-1,-6.75750E-1
4.87091E-1,-7.34954E-1
4.04754E-1,-7.99285E-1
2.76825E-1,-7.95593E-1
2.41912E-1,-7.46032E-1
2.30224E-1,-7.79327E-1
1.73522E-1,-8.21075E-1
0.92804E-1,-8.67218E-1
-0.41046E-1,-8.52661E-1
-0.88195E-1,-7.69744E-1
-0.93566E-1,-7.74902E-1
-1.52587E-1,-7.88452E-1
-2.15423E-1,-8.08258E-1
-3.44177E-1,-7.91931E-1
-3.98712E-1,-6.70288E-1
-3.68530E-1,-6.39495E-1
-4.10522E-1,-6.56341E-1
-4.76806E-1,-6.48407E-1
-5.77728E-1,-6.19842E-1
-6.33911E-1,-5.06744E-1
-6.02966E-1,-4.54071E-1
-6.29394E-1,-4.46777E-1
-6.69128E-1,-4.04754E-1
-7.25524E-1,-3.74694E-1
-7.97149E-1,-2.74078E-1
-7.65258E-1,-1.80358E-1
-7.54303E-1,-1.60766E-1
-7.71118E-1,-1.19873E-1
-7.92877E-1,-0.83435E-1
-8.47991E-1,0.01464E-1
-8.20404E-1,1.13464E-1
-7.90069E-1,1.48284E-1
-7.88543E-1,1.95251E-1
-7.80181E-1,2.33367E-1
-8.14300E-1,3.06610E-1
-7.71423E-1,4.54376E-1
-6.63360E-1,4.93774E-1
-6.42547E-1,5.07537E-1
-6.17858E-1,5.47302E-1
-6.10290E-1,5.87982E-1
-5.74768E-1,6.97082E-1
-4.46838E-1,7.54180E-1
-3.80889E-1,7.54180E-1
-3.28674E-1,7.83203E-1
-2.82287E-1,7.96569E-1
-2.38861E-1,8.48266E-1
-1.20117E-1,8.76281E-1
-0.35034E-1,8.40576E-1
0.18127E-1,8.29498E-1
0.66680E-1,8.25073E-1
1.12304E-1,8.37524E-1
1.91986E-1,8.52203E-1
2.73651E-1,8.14697E-1
3.32031E-1,7.75512E-1
3.77563E-1,7.39166E-1
4.24926E-1,7.26745E-1
4.95361E-1,7.21618E-1
5.76019E-1,6.67694E-1
6.15936E-1,6.02905E-1
6.44561E-1,5.47882E-1
6.83990E-1,5.06469E-1
7.28790E-1,4.62493E-1
7.91717E-1,4.05334E-1
8.21838E-1,3.27423E-1
8.32641E-1,2.63000E-1
8.50494E-1,2.09747E-1
8.68499E-1,1.33667E-1
8.89282E-1,0.67077E-1
9.01397E-1,-0.19775E-1
8.90808E-1,-0.92681E-1
8.83331E-1,-1.53778E-1
8.69842E-1,-2.35626E-1
8.34472E-1,-2.98614E-1
8.17901E-1,-3.71337E-1
7.80548E-1,-4.41772E-1
7.55889E-1,-4.94293E-1
7.30865E-1,-5.62530E-1
6.61377E-1,-6.23474E-1
6.08276E-1,-6.63421E-1
5.45318E-1,-7.16735E-1
4.96582E-1,-7.55218E-1
4.51904E-1,-8.16803E-1
3.60778E-1,-8.67736E-1
2.83813E-1,-8.59863E-1
2.17163E-1,-8.74328E-1
1.41052E-1,-8.70178E-1
END
BEGIN
-5.45166E-1,-1.47766E-1
-5.67779E-1,-0.87036E-1
-5.79101E-1,-0.25116E-1
-5.85357E-1,0.25878E-1
-5.85632E-1,0.94909E-1
-5.69274E-1,1.60949E-1
-5.50994E-1,2.33917E-1
-5.25268E-1,2.92022E-1
-5.01068E-1,3.52294E-1
-4.62814E-1,4.02969E-1
-4.25094E-1,4.45800E-1
-3.74252E-1,4.90509E-1
-3.21380E-1,5.25390E-1
-2.63702E-1,5.68756E-1
-2.04284E-1,5.89325E-1
-1.46728E-1,6.08306E-1
-0.81024E-1,6.22009E-1
-0.15197E-1,6.23687E-1
0.49438E-1,6.29272E-1
1.19079E-1,6.10076E-1
1.71997E-1,5.91339E-1
2.28759E-1,5.68969E-1
2.85125E-1,5.37506E-1
3.41079E-1,4.93454E-1
3.91098E-1,4.41879E-1
4.32815E-1,3.96041E-1
4.70840E-1,3.40621E-1
5.03051E-1,2.84057E-1
5.20813E-1,2.10418E-1
5.34637E-1,1.55395E-1
5.51513E-1,0.85845E-1
5.50628E-1,0.19256E-1
5.46173E-1,-0.30151E-1
5.31890E-1,-0.81604E-1
5.20538E-1,-1.19934E-1
4.94827E-1,-1.91879E-1
4.49966E-1,-2.37869E-1
4.21554E-1,-2.75878E-1
3.94409E-1,-3.16940E-1
3.48220E-1,-3.4935E-1
3.00293E-1,-3.80538E-1
2.44628E-1,-3.97049E-1
1.91101E-1,-4.15969E-1
1.47155E-1,-4.32312E-1
0.94711E-1,-4.46777E-1
0.57128E-1,-4.50256E-1
-0.00030E-1,-4.41314E-1
-0.50079E-1,-4.26406E-1
-0.97534E-1,-4.08859E-1
-1.41754E-1,-4.01931E-1
-1.86325E-1,-3.70239E-1
-2.19635E-1,-3.49624E-1
-2.59368E-1,-3.22586E-1
-2.98217E-1,-2.88116E-1
-3.26538E-1,-2.55722E-1
-3.46756E-1,-2.22030E-1
-3.63723E-1,-1.98165E-1
-3.82324E-1,-1.54510E-1
-3.94577E-1,-1.02478E-1
-3.94897E-1,-0.52459E-1
-4.04800E-1,-0.18142E-1
-3.99704E-1,0.22369E-1
-3.95416E-1,0.55954E-1
-3.91311E-1,1.05224E-1
-3.72955E-1,1.60980E-1
-3.5289E-1,2.00546E-1
-3.35632E-1,2.28576E-1
-3.34716E-1,2.55645E-1
-3.02627E-1,2.90023E-1
-2.58270E-1,3.12072E-1
-2.12539E-1,3.25546E-1
-1.76254E-1,3.49319E-1
-1.42395E-1,3.68866E-1
-0.97625E-1,3.89068E-1
-0.48675E-1,3.97796E-1
0.00671E-1,3.99032E-1
0.57067E-1,3.92913E-1
0.88028E-1,3.74084E-1
1.24038E-1,3.89022E-1
1.74743E-1,3.80798E-1
2.18917E-1,3.56811E-1
2.45880E-1,3.13522E-1
2.55462E-1,2.83447E-1
2.91076E-1,2.71804E-1
3.28079E-1,2.26364E-1
3.51104E-1,1.87927E-1
3.78097E-1,1.37008E-1
3.81835E-1,0.84655E-1
3.71826E-1,0.56991E-1
3.94958E-1,0.24124E-1
3.93035E-1,-0.20950E-1
3.93722E-1,-0.61416E-1
3.67431E-1,-1.07315E-1
3.40881E-1,-1.36352E-1
3.38790E-1,-1.68655E-1
3.16635E-1,-2.18444E-1
2.95654E-1,-2.50915E-1
2.56485E-1,-2.94403E-1
2.01202E-1,-3.14605E-1
1.76727E-1,-3.17916E-1
1.56097E-1,-3.60214E-1
1.29501E-1,-3.83926E-1
0.99853E-1,-4.16488E-1
0.54412E-1,-4.04357E-1
0.36010E-1,-3.88107E-1
0.00808E-1,-4.03732E-1
-0.49209E-1,-4.01657E-1
-0.88333E-1,-4.0625E-1
-1.36322E-1,-3.92807E-1
-1.61071E-1,-3.68789E-1
-1.83609E-1,-3.58352E-1
-2.23571E-1,-3.41308E-1
-0.94894E-1,-3.23394E-1
-1.85791E-1,-4.57000E-1
-3.13018E-1,-2.82684E-1
-3.24707E-1,-2.60849E-1
-3.43582E-1,-2.40707E-1
-3.59497E-1,-2.14416E-1
-3.80508E-1,-1.88140E-1
-3.90075E-1,-1.52755E-1
-4.03442E-1,-1.22039E-1
-4.13864E-1,-0.90499E-1
-4.27673E-1,-0.59249E-1
-4.39590E-1,-0.33950E-1
-4.55505E-1,-0.06012E-1
-4.70169E-1,0.24444E-1
-4.62554E-1,0.64697E-1
-4.53979E-1,0.86242E-1
-4.57931E-1,1.09726E-1
-4.65408E-1,1.49124E-1
-4.63180E-1,1.79565E-1
-4.52621E-1,2.24227E-1
-4.25781E-1,2.46353E-1
-4.17831E-1,2.69912E-1
-4.11804E-1,3.11019E-1
-3.93539E-1,3.48968E-1
-3.83773E-1,3.90014E-1
-3.46603E-1,4.21279E-1
-3.26141E-1,4.23187E-1
-3.17749E-1,4.48013E-1
-2.88330E-1,4.82132E-1
-2.6297E-1,5.00610E-1
-2.24792E-1,5.29327E-1
-1.83044E-1,5.24353E-1
-1.56433E-1,5.35461E-1
-1.13433E-1,5.58319E-1
-0.66253E-1,5.71868E-1
-0.13824E-1,5.94207E-1
0.49438E-1,5.77362E-1
0.70282E-1,5.57098E-1
0.97747E-1,5.67077E-1
1.61132E-1,5.78216E-1
2.04834E-1,5.72204E-1
2.60925E-1,5.56640E-1
2.76397E-1,5.10681E-1
2.88848E-1,4.94079E-1
3.44421E-1,4.82467E-1
4.00894E-1,4.37347E-1
4.51858E-1,4.04647E-1
4.82009E-1,3.44528E-1
4.78225E-1,3.17627E-1
5.12939E-1,2.99408E-1
5.56152E-1,2.28973E-1
5.72174E-1,1.86706E-1
6.10076E-1,1.29791E-1
5.84869E-1,0.81878E-1
5.79132E-1,0.72357E-1
5.89599E-1,0.17608E-1
5.61584E-1,-0.38391E-1
5.5896E-1,-0.92193E-1
5.23376E-1,-1.61773E-1
4.86419E-1,-1.85470E-1
4.69360E-1,-2.19696E-1
4.26849E-1,-2.66052E-1
4.03747E-1,-3.04565E-1
3.56781E-1,-3.75930E-1
2.98111E-1,-3.81576E-1
2.81356E-1,-3.86032E-1
2.40295E-1,-4.02557E-1
1.95953E-1,-4.00039E-1
1.43249E-1,-4.31778E-1
0.63064E-1,-4.30084E-1
0.33966E-1,-4.17175E-1
-0.03799E-1,-4.15985E-1
-0.36315E-1,-3.84124E-1
-0.68679E-1,-3.85482E-1
-1.60125E-1,-3.73886E-1
-1.93222E-1,-3.38317E-1
-2.14553E-1,-3.42620E-1
-2.26013E-1,-3.07174E-1
-2.07870E-1,-2.84286E-1
-2.52258E-1,-2.71331E-1
-3.02963E-1,-2.00790E-1
-3.11889E-1,-1.67327E-1
-3.20571E-1,-1.37161E-1
-2.86880E-1,-1.19888E-1
-2.99636E-1,-1.10641E-1
-3.42620E-1,-0.27130E-1
-3.35861E-1,0.34576E-1
-3.50845E-1,0.60714E-1
-3.13903E-1,0.65353E-1
END
