CITIFILE A.01.01
#NA VERSION HP8510C.08.10
NAME DATA
#NA REGISTER 1
VAR FREQ MAG 201
DATA S[1,1] RI
DATA S[2,1] RI
DATA S[1,2] RI
DATA S[2,2] RI
SEG_LIST_BEGIN
SEG 8000000000 12000000000 201
SEG_LIST_END
COMMENT       YEAR MONTH DAY HOUR MINUTE SECONDS
CONSTANT TIME 2013   09   26  19    16    19.0
BEGIN
-5.22949E-1,-1.89849E-1
-5.40649E-1,-1.33941E-1
-5.52856E-1,-0.70404E-1
-5.61584E-1,-0.19073E-1
-5.64880E-1,0.43212E-1
-5.50628E-1,0.95214E-1
-5.37048E-1,1.50207E-1
-5.16784E-1,2.0047E-1
-4.99420E-1,2.61764E-1
-4.68994E-1,3.14712E-1
-4.36340E-1,3.52676E-1
-3.95446E-1,3.91891E-1
-3.55163E-1,4.24392E-1
-3.0896E-1,4.70138E-1
-2.55172E-1,4.99557E-1
-2.06726E-1,5.22888E-1
-1.52954E-1,5.38299E-1
-1.01135E-1,5.43853E-1
-0.50048E-1,5.60882E-1
0.18005E-1,5.56457E-1
0.71624E-1,5.49072E-1
1.25762E-1,5.38299E-1
1.74316E-1,5.21881E-1
2.20733E-1,4.98992E-1
2.64434E-1,4.71191E-1
3.0513E-1,4.47235E-1
3.46603E-1,4.14291E-1
3.86032E-1,3.79730E-1
4.18853E-1,3.31939E-1
4.41894E-1,3.00994E-1
4.72473E-1,2.55615E-1
4.90203E-1,2.02270E-1
5.05310E-1,1.55120E-1
5.15655E-1,0.99273E-1
5.23529E-1,0.61126E-1
5.28106E-1,-0.03875E-1
5.10223E-1,-0.49987E-1
5.03051E-1,-0.89355E-1
5.02258E-1,-1.43402E-1
4.73846E-1,-1.97372E-1
4.49478E-1,-2.38998E-1
4.19738E-1,-2.67272E-1
3.92181E-1,-3.00949E-1
3.64578E-1,-3.36746E-1
3.21151E-1,-3.80035E-1
2.89718E-1,-4.00207E-1
2.47985E-1,-4.18121E-1
2.10189E-1,-4.29321E-1
1.70440E-1,-4.38247E-1
1.27197E-1,-4.67971E-1
0.66299E-1,-4.66903E-1
0.37353E-1,-4.64584E-1
0.07751E-1,-4.64889E-1
-0.31036E-1,-4.56970E-1
-0.75592E-1,-4.46411E-1
-1.29989E-1,-4.35699E-1
-1.65939E-1,-4.26498E-1
-1.95678E-1,-4.10034E-1
-2.20123E-1,-3.87039E-1
-2.40325E-1,-3.53820E-1
-2.82516E-1,-3.34274E-1
-3.17230E-1,-2.91244E-1
-3.28338E-1,-2.72079E-1
-3.41674E-1,-2.58422E-1
-3.52478E-1,-2.26425E-1
-3.62976E-1,-1.91574E-1
-3.83987E-1,-1.41403E-1
-3.98605E-1,-1.14257E-1
-4.04937E-1,-0.87936E-1
-3.98101E-1,-0.62377E-1
-3.80706E-1,-0.36880E-1
-3.85849E-1,0.08178E-1
-3.74725E-1,0.50003E-1
-3.73611E-1,0.65963E-1
-3.72787E-1,0.75042E-1
-3.59588E-1,0.90362E-1
-3.39416E-1,1.24740E-1
-3.13507E-1,1.57440E-1
-3.19412E-1,1.87011E-1
-3.22265E-1,2.11120E-1
-3.11431E-1,2.27233E-1
-2.69699E-1,2.35290E-1
-2.31414E-1,2.50183E-1
-2.09701E-1,2.82379E-1
-1.96136E-1,3.17199E-1
-1.88858E-1,3.29513E-1
-1.70364E-1,3.25576E-1
-1.36291E-1,3.20510E-1
-0.92117E-1,3.22998E-1
-0.55038E-1,3.53363E-1
-0.22872E-1,3.75137E-1
-0.08255E-1,3.80188E-1
0.10009E-1,3.59451E-1
0.43106E-1,3.37051E-1
0.86502E-1,3.31741E-1
1.42715E-1,3.34152E-1
1.67175E-1,3.33969E-1
1.81854E-1,3.31741E-1
2.05246E-1,3.02749E-1
2.27294E-1,2.64480E-1
2.77694E-1,2.39135E-1
3.23669E-1,2.11731E-1
3.59039E-1,1.88217E-1
3.62518E-1,1.4711E-1
3.56811E-1,1.00601E-1
3.66607E-1,0.47195E-1
3.88549E-1,-0.13412E-1
3.95553E-1,-0.63354E-1
3.83651E-1,-0.93597E-1
3.62228E-1,-1.24771E-1
3.33114E-1,-1.70517E-1
3.12408E-1,-2.3349E-1
2.88650E-1,-2.86682E-1
2.70019E-1,-3.21365E-1
2.36999E-1,-3.37295E-1
1.86203E-1,-3.52874E-1
1.23489E-1,-3.79913E-1
0.62210E-1,-4.15695E-1
0.20965E-1,-4.35028E-1
0.04074E-1,-4.37027E-1
-0.32928E-1,-4.32647E-1
-0.95901E-1,-4.11544E-1
-1.73599E-1,-3.97522E-1
-2.31201E-1,-3.92776E-1
-2.66693E-1,-3.98757E-1
-3.78448E-1,-1.40747E-1
-6.12762E-1,-0.31555E-1
-3.72192E-1,-2.72201E-1
-4.23858E-1,-2.23327E-1
-4.70977E-1,-1.96380E-1
-4.83612E-1,-1.86599E-1
-4.90417E-1,-1.57852E-1
-4.93621E-1,-0.83343E-1
-4.91363E-1,0.02365E-1
-5.17242E-1,0.55236E-1
-5.44128E-1,0.89569E-1
-5.42541E-1,1.07482E-1
-5.21942E-1,1.52862E-1
-4.70901E-1,2.26928E-1
-4.45205E-1,2.97744E-1
-4.42077E-1,3.62381E-1
-4.33639E-1,3.80050E-1
-4.15847E-1,3.89572E-1
-3.49700E-1,4.25201E-1
-2.69165E-1,4.67742E-1
-2.24151E-1,5.17791E-1
-2.03704E-1,5.48095E-1
-1.97082E-1,5.42205E-1
-1.63391E-1,5.42114E-1
-0.60302E-1,5.40283E-1
0.19775E-1,5.40435E-1
0.77453E-1,5.79742E-1
0.93719E-1,5.88623E-1
0.96557E-1,5.79834E-1
1.56494E-1,5.36651E-1
2.34573E-1,4.66918E-1
3.05114E-1,4.49935E-1
3.58688E-1,4.48837E-1
3.67034E-1,4.47570E-1
3.74252E-1,4.18289E-1
3.99169E-1,3.34106E-1
4.35318E-1,2.64541E-1
5.01586E-1,2.20031E-1
5.34820E-1,2.0224E-1
5.39703E-1,1.81488E-1
5.06256E-1,1.24603E-1
4.85641E-1,0.41946E-1
4.88235E-1,-0.49575E-1
5.00152E-1,-1.03332E-1
5.05798E-1,-1.24725E-1
4.72213E-1,-1.27533E-1
4.28649E-1,-1.58615E-1
3.69796E-1,-2.23190E-1
3.39050E-1,-2.82486E-1
3.43765E-1,-3.24035E-1
3.33496E-1,-3.31604E-1
3.09112E-1,-3.21395E-1
2.33749E-1,-3.39386E-1
1.52481E-1,-3.62106E-1
1.20727E-1,-4.00146E-1
1.05438E-1,-4.27795E-1
1.08047E-1,-4.08477E-1
0.73455E-1,-3.95187E-1
-0.05401E-1,-3.60626E-1
-0.64422E-1,-3.61175E-1
-1.08840E-1,-3.96987E-1
-1.13388E-1,-4.03350E-1
-1.00906E-1,-3.90777E-1
-1.38275E-1,-3.40057E-1
-1.97418E-1,-2.80609E-1
-2.67272E-1,-2.71087E-1
-3.05923E-1,-2.73147E-1
-2.78732E-1,-2.87750E-1
-2.73681E-1,-2.64511E-1
-2.73086E-1,-1.74804E-1
-3.14239E-1,-1.11404E-1
-3.79226E-1,-0.75531E-1
-3.85208E-1,-0.97381E-1
-3.68667E-1,-1.38015E-1
-3.32580E-1,-1.02203E-1
-3.10363E-1,-0.15487E-1
END
BEGIN
-8.70697E-1,1.30737E-1
-7.83996E-1,2.15637E-1
-7.86956E-1,2.48596E-1
-7.66998E-1,3.79119E-1
-6.95526E-1,4.42535E-1
-6.47644E-1,5.39245E-1
-5.08758E-1,5.77911E-1
-4.69726E-1,5.36468E-1
-4.67254E-1,5.89691E-1
-4.09088E-1,6.27136E-1
-3.77777E-1,6.81976E-1
-2.59124E-1,7.21160E-1
-2.18994E-1,6.68792E-1
-2.33734E-1,7.29980E-1
-1.24572E-1,7.90405E-1
-0.62133E-1,7.96722E-1
0.55145E-1,8.29315E-1
1.39373E-1,7.41851E-1
1.21582E-1,7.41882E-1
2.11792E-1,7.87017E-1
2.83386E-1,7.66052E-1
3.88275E-1,7.91595E-1
5.1828E-1,6.87072E-1
5.16143E-1,6.26220E-1
6.07605E-1,6.18347E-1
6.69036E-1,5.12115E-1
7.14172E-1,4.76104E-1
8.02154E-1,3.33435E-1
7.20703E-1,2.14630E-1
7.0224E-1,2.21771E-1
7.20916E-1,1.70257E-1
7.20336E-1,1.59210E-1
7.97912E-1,1.00219E-1
7.59063E-1,-0.1297E-1
7.39410E-1,0.03143E-1
8.18359E-1,-0.37323E-1
8.51654E-1,-1.21521E-1
9.24804E-1,-2.45575E-1
8.35907E-1,-4.57000E-1
7.02575E-1,-4.60022E-1
7.14569E-1,-5.00427E-1
6.44134E-1,-5.86608E-1
6.17309E-1,-6.22894E-1
5.41290E-1,-7.44964E-1
4.01825E-1,-7.26501E-1
4.11743E-1,-7.17926E-1
3.51745E-1,-8.06396E-1
2.85888E-1,-8.17504E-1
2.27600E-1,-9.16717E-1
0.26763E-1,-9.30755E-1
-0.38513E-1,-8.38592E-1
-0.85296E-1,-8.36639E-1
-1.45416E-1,-7.93609E-1
-1.62994E-1,-8.08685E-1
-2.76367E-1,-8.17596E-1
-3.33831E-1,-7.44506E-1
-3.65448E-1,-7.41546E-1
-4.33166E-1,-7.07763E-1
-4.66308E-1,-7.12036E-1
-6.09100E-1,-7.13317E-1
-6.99981E-1,-5.65338E-1
-6.96533E-1,-4.94598E-1
-7.37426E-1,-4.17846E-1
-7.05993E-1,-3.58184E-1
-7.56347E-1,-3.67767E-1
-8.27392E-1,-2.63336E-1
-8.01849E-1,-1.96075E-1
-8.36578E-1,-1.60156E-1
-8.50341E-1,-0.84930E-1
-8.94683E-1,-0.41626E-1
-9.44610E-1,1.06231E-1
-8.68713E-1,2.23144E-1
-8.41461E-1,2.79266E-1
-7.77832E-1,3.67950E-1
-7.19360E-1,3.73535E-1
-7.22503E-1,4.28039E-1
-6.60156E-1,4.84497E-1
-6.50177E-1,5.04730E-1
-6.23901E-1,5.83801E-1
-5.67413E-1,6.03179E-1
-5.84381E-1,6.63085E-1
-5.10437E-1,7.72827E-1
-4.25323E-1,8.14636E-1
-3.34198E-1,8.84765E-1
-2.09899E-1,8.63739E-1
-1.99218E-1,8.56170E-1
-1.13922E-1,9.22454E-1
-0.16021E-1,8.85406E-1
0.21881E-1,9.06311E-1
1.33789E-1,9.09301E-1
1.69952E-1,8.76617E-1
2.45758E-1,9.41406E-1
4.02984E-1,8.98071E-1
4.59411E-1,8.28094E-1
5.54534E-1,7.88757E-1
6.06048E-1,6.84051E-1
6.28021E-1,6.55578E-1
7.03949E-1,5.89386E-1
7.02789E-1,5.21331E-1
7.51251E-1,5.13763E-1
8.19519E-1,4.33013E-1
8.30566E-1,3.80340E-1
9.11254E-1,3.32672E-1
9.42108E-1,2.15118E-1
9.65637E-1,1.54418E-1
1.02148E0,0.23193E-1
9.68872E-1,-1.10076E-1
9.38262E-1,-1.70166E-1
9.14215E-1,-2.67822E-1
8.63861E-1,-3.24737E-1
8.49578E-1,-4.02984E-1
7.72949E-1,-4.89288E-1
7.17926E-1,-5.03662E-1
7.02179E-1,-5.67077E-1
6.44989E-1,-6.24542E-1
6.10229E-1,-6.79931E-1
5.28259E-1,-7.60833E-1
4.32800E-1,-7.77587E-1
3.71398E-1,-8.07586E-1
2.72399E-1,-8.29986E-1
2.16888E-1,-8.09295E-1
1.63696E-1,-8.40301E-1
0.69183E-1,-8.28399E-1
0.23468E-1,-8.04840E-1
-0.47271E-1,-8.02856E-1
-1.05102E-1,-7.84942E-1
-1.37268E-1,-7.63458E-1
-1.99279E-1,-7.89886E-1
-2.56988E-1,-7.63946E-1
-3.33923E-1,-7.44201E-1
-3.8974E-1,-6.68365E-1
-3.99078E-1,-6.52771E-1
-4.78881E-1,-6.41418E-1
-5.18219E-1,-5.72601E-1
-5.45349E-1,-5.49591E-1
-5.92681E-1,-4.82940E-1
-5.74462E-1,-4.41467E-1
-6.28082E-1,-4.47570E-1
-6.90765E-1,-3.76281E-1
-7.05810E-1,-3.3078E-1
-7.57019E-1,-2.74810E-1
-7.44812E-1,-1.95251E-1
-7.57720E-1,-1.76879E-1
-8.03710E-1,-0.84381E-1
-7.71972E-1,-0.112E-1
-7.94128E-1,0.31219E-1
-7.70538E-1,1.24847E-1
-7.24548E-1,1.29821E-1
-7.57995E-1,1.63787E-1
-7.33245E-1,2.40448E-1
-7.34527E-1,2.72460E-1
-7.37701E-1,3.75976E-1
-6.71814E-1,4.28558E-1
-6.72973E-1,4.53460E-1
-6.32568E-1,5.32806E-1
-5.89447E-1,5.58380E-1
-5.66131E-1,6.43737E-1
-4.55230E-1,6.93512E-1
-4.29779E-1,6.81579E-1
-4.02832E-1,7.53936E-1
-3.28247E-1,7.69226E-1
-3.13385E-1,8.12957E-1
-2.00103E-1,8.82843E-1
-1.18225E-1,8.57177E-1
-0.65002E-1,9.01733E-1
0.49713E-1,9.01275E-1
0.94940E-1,8.81835E-1
1.89636E-1,9.08477E-1
2.83630E-1,8.44482E-1
3.25866E-1,8.13934E-1
4.04876E-1,7.82165E-1
4.38171E-1,7.31689E-1
4.88220E-1,7.45788E-1
5.89141E-1,6.89697E-1
6.19537E-1,6.29638E-1
6.84661E-1,5.88470E-1
7.21374E-1,5.06256E-1
7.42462E-1,4.72320E-1
8.21991E-1,4.05029E-1
8.32763E-1,3.15704E-1
8.52294E-1,2.66906E-1
8.78356E-1,1.86248E-1
8.70147E-1,1.16516E-1
8.98468E-1,0.61340E-1
8.96148E-1,-0.42419E-1
8.68957E-1,-0.98175E-1
8.79364E-1,-1.69372E-1
8.49548E-1,-2.45025E-1
8.27423E-1,-2.89581E-1
8.11615E-1,-3.69873E-1
7.58606E-1,-4.29718E-1
7.36633E-1,-4.70336E-1
7.15759E-1,-5.33081E-1
6.68670E-1,-6.09619E-1
6.24054E-1,-6.66320E-1
5.41412E-1,-7.28088E-1
4.71160E-1,-7.34008E-1
4.30633E-1,-7.67639E-1
3.70086E-1,-8.16497E-1
3.08044E-1,-8.38348E-1
2.22320E-1,-8.81195E-1
END
BEGIN
-7.51617E-1,1.16943E-1
-7.72033E-1,1.86370E-1
-6.88568E-1,2.86956E-1
-6.58294E-1,2.52899E-1
-7.32513E-1,3.38562E-1
-6.56494E-1,4.53857E-1
-6.32110E-1,4.96215E-1
-5.52917E-1,6.07055E-1
-4.63562E-1,5.81390E-1
-5.08270E-1,6.22345E-1
-4.24713E-1,7.54211E-1
-3.25592E-1,7.74322E-1
-2.21893E-1,8.28918E-1
-1.03759E-1,7.78167E-1
-1.16088E-1,7.66479E-1
-0.29205E-1,8.53851E-1
0.82885E-1,8.27087E-1
1.66870E-1,8.40820E-1
3.02825E-1,7.54516E-1
2.74719E-1,6.66015E-1
2.98431E-1,7.21374E-1
4.08111E-1,6.90124E-1
4.48974E-1,6.68029E-1
5.68756E-1,6.23870E-1
5.77453E-1,5.03631E-1
5.69397E-1,5.18219E-1
6.71112E-1,4.89807E-1
7.12707E-1,4.20501E-1
8.02093E-1,3.56262E-1
8.10913E-1,1.94671E-1
7.48931E-1,1.64856E-1
8.02185E-1,1.45690E-1
8.27423E-1,0.73516E-1
8.9328E-1,0.02990E-1
8.78448E-1,-1.90704E-1
7.44689E-1,-2.30163E-1
7.59216E-1,-2.17376E-1
7.76428E-1,-2.96691E-1
7.92938E-1,-3.67492E-1
7.65625E-1,-5.46600E-1
5.79315E-1,-5.94726E-1
5.48034E-1,-5.39428E-1
5.51910E-1,-5.88806E-1
5.32928E-1,-6.33606E-1
5.14495E-1,-7.68432E-1
3.17840E-1,-8.48480E-1
2.40722E-1,-7.61627E-1
2.37670E-1,-7.84088E-1
1.81518E-1,-8.07647E-1
1.55365E-1,-8.76037E-1
-0.31890E-1,-9.54071E-1
-1.62872E-1,-8.30200E-1
-1.62078E-1,-7.90893E-1
-2.14172E-1,-7.84668E-1
-2.28546E-1,-7.89917E-1
-3.50006E-1,-8.55102E-1
-5.06866E-1,-7.34008E-1
-4.93438E-1,-6.39984E-1
-5.28778E-1,-6.20239E-1
-5.4422E-1,-5.86364E-1
-6.13311E-1,-6.27716E-1
-7.69348E-1,-5.24200E-1
-7.51464E-1,-3.79486E-1
-7.41821E-1,-3.41064E-1
-7.46521E-1,-2.85553E-1
-7.64892E-1,-2.99255E-1
-9.03198E-1,-2.41455E-1
-9.06311E-1,-0.56640E-1
-8.48358E-1,-0.06073E-1
-8.48205E-1,0.49194E-1
-8.34320E-1,0.79711E-1
-9.15618E-1,1.31805E-1
-9.1922E-1,3.25836E-1
-8.02917E-1,4.06433E-1
-7.63977E-1,4.42413E-1
-7.11822E-1,4.86877E-1
-7.13409E-1,5.14373E-1
-7.03155E-1,6.38549E-1
-5.84045E-1,7.26013E-1
-4.97497E-1,7.42889E-1
-4.22546E-1,7.53875E-1
-4.03472E-1,7.53753E-1
-3.80065E-1,8.43505E-1
-2.47222E-1,9.07531E-1
-1.58569E-1,8.88305E-1
-0.72326E-1,8.98742E-1
0.02746E-1,8.50128E-1
0.06866E-1,8.59527E-1
0.92559E-1,9.21722E-1
2.09411E-1,9.04205E-1
2.89367E-1,8.79547E-1
3.72558E-1,8.20037E-1
3.88916E-1,7.78564E-1
4.50958E-1,7.99163E-1
5.67596E-1,7.70996E-1
6.60064E-1,7.03247E-1
7.32971E-1,5.99700E-1
7.1698E-1,5.08728E-1
7.34741E-1,5.10192E-1
8.28460E-1,4.59198E-1
8.84460E-1,3.51928E-1
9.21325E-1,2.44537E-1
8.92120E-1,1.30035E-1
8.68988E-1,1.16363E-1
9.26208E-1,0.58685E-1
9.30023E-1,-0.49408E-1
9.29351E-1,-1.34307E-1
8.91723E-1,-2.63031E-1
8.08288E-1,-3.01879E-1
8.20373E-1,-3.28521E-1
8.13690E-1,-4.22515E-1
7.72766E-1,-5.08697E-1
6.94061E-1,-6.06994E-1
5.73486E-1,-6.19995E-1
5.58105E-1,-6.10809E-1
5.38116E-1,-6.78894E-1
4.76989E-1,-7.36663E-1
3.93554E-1,-8.00079E-1
2.67486E-1,-7.94036E-1
2.33306E-1,-7.45239E-1
2.19970E-1,-7.78808E-1
1.62658E-1,-8.19061E-1
0.81146E-1,-8.63616E-1
-0.50659E-1,-8.45825E-1
-0.95184E-1,-7.64648E-1
-1.09710E-1,-8.00933E-1
-1.7099E-1,-8.15948E-1
-2.26715E-1,-8.00903E-1
-3.52752E-1,-7.79174E-1
-4.02252E-1,-6.59332E-1
-3.74237E-1,-6.31195E-1
-4.17999E-1,-6.46240E-1
-4.84832E-1,-6.34185E-1
-5.81390E-1,-6.01623E-1
-6.30706E-1,-4.90234E-1
-6.00647E-1,-4.42504E-1
-6.28173E-1,-4.35546E-1
-6.67785E-1,-3.92761E-1
-7.22442E-1,-3.60229E-1
-7.89917E-1,-2.59368E-1
-7.56500E-1,-1.70379E-1
-7.46673E-1,-1.52191E-1
-7.63946E-1,-1.10656E-1
-7.85705E-1,-0.73394E-1
-8.36059E-1,0.11840E-1
-8.05816E-1,1.20025E-1
-7.76886E-1,1.53076E-1
-7.76733E-1,1.98608E-1
-7.69744E-1,2.37152E-1
-8.01666E-1,3.10272E-1
-7.55920E-1,4.55261E-1
-6.49169E-1,4.90387E-1
-6.30737E-1,5.03021E-1
-6.07635E-1,5.43396E-1
-5.99762E-1,5.86303E-1
-5.62530E-1,6.93084E-1
-4.36187E-1,7.47070E-1
-3.72436E-1,7.46063E-1
-3.21594E-1,7.72735E-1
-2.76886E-1,7.88116E-1
-2.32666E-1,8.40576E-1
-1.15814E-1,8.67950E-1
-0.32775E-1,8.32428E-1
0.19317E-1,8.21380E-1
0.67474E-1,8.18725E-1
1.13006E-1,8.31634E-1
1.93573E-1,8.46069E-1
2.75390E-1,8.08166E-1
3.33068E-1,7.68951E-1
3.78936E-1,7.33306E-1
4.26025E-1,7.20581E-1
4.96002E-1,7.15240E-1
5.76538E-1,6.61712E-1
6.16668E-1,5.96801E-1
6.45355E-1,5.42511E-1
6.84570E-1,5.01586E-1
7.30163E-1,4.56604E-1
7.90649E-1,3.99047E-1
8.22143E-1,3.20953E-1
8.32153E-1,2.55310E-1
8.49700E-1,2.01446E-1
8.66882E-1,1.25488E-1
8.86138E-1,0.58624E-1
8.98223E-1,-0.28442E-1
8.86810E-1,-1.01806E-1
8.77746E-1,-1.62048E-1
8.64135E-1,-2.44049E-1
8.28552E-1,-3.07128E-1
8.11004E-1,-3.79150E-1
7.72552E-1,-4.50317E-1
7.45056E-1,-5.01525E-1
7.19574E-1,-5.67840E-1
6.49627E-1,-6.29364E-1
5.94818E-1,-6.67968E-1
5.31677E-1,-7.20550E-1
4.81292E-1,-7.58239E-1
4.35943E-1,-8.16467E-1
3.45214E-1,-8.64776E-1
2.69195E-1,-8.56353E-1
2.02819E-1,-8.69354E-1
1.27655E-1,-8.65417E-1
END
BEGIN
-5.44494E-1,-1.51031E-1
-5.67749E-1,-0.90606E-1
-5.79437E-1,-0.27954E-1
-5.85815E-1,0.23834E-1
-5.87005E-1,0.9375E-1
-5.71868E-1,1.58966E-1
-5.54779E-1,2.31506E-1
-5.28808E-1,2.90069E-1
-5.04028E-1,3.50219E-1
-4.65179E-1,4.02221E-1
-4.27413E-1,4.46044E-1
-3.77258E-1,4.92034E-1
-3.25317E-1,5.27221E-1
-2.67639E-1,5.70068E-1
-2.07244E-1,5.91095E-1
-1.48315E-1,6.10290E-1
-0.81970E-1,6.25030E-1
-0.15899E-1,6.27105E-1
0.48309E-1,6.33056E-1
1.18713E-1,6.13372E-1
1.71997E-1,5.94238E-1
2.30438E-1,5.71807E-1
2.87292E-1,5.40893E-1
3.43627E-1,4.97695E-1
3.94165E-1,4.46029E-1
4.35592E-1,3.99948E-1
4.7258E-1,3.44543E-1
5.05310E-1,2.86834E-1
5.23529E-1,2.13867E-1
5.37719E-1,1.59820E-1
5.53741E-1,0.90057E-1
5.51879E-1,0.23590E-1
5.45867E-1,-0.27069E-1
5.31616E-1,-0.79803E-1
5.20813E-1,-1.18957E-1
4.95681E-1,-1.90307E-1
4.50897E-1,-2.35565E-1
4.21035E-1,-2.73345E-1
3.93890E-1,-3.14712E-1
3.47518E-1,-3.46817E-1
3.00491E-1,-3.77899E-1
2.46337E-1,-3.94348E-1
1.931E-1,-4.12017E-1
1.49139E-1,-4.26452E-1
0.96115E-1,-4.39559E-1
0.59845E-1,-4.44000E-1
0.02838E-1,-4.36843E-1
-0.45333E-1,-4.23248E-1
-0.91583E-1,-4.05761E-1
-1.35376E-1,-3.98803E-1
-1.79016E-1,-3.67111E-1
-2.12356E-1,-3.47885E-1
-2.51434E-1,-3.22555E-1
-2.89215E-1,-2.88604E-1
-3.16192E-1,-2.57141E-1
-3.36532E-1,-2.23663E-1
-3.54354E-1,-1.99615E-1
-3.73947E-1,-1.56616E-1
-3.87695E-1,-1.05529E-1
-3.88748E-1,-0.57235E-1
-3.98819E-1,-0.25085E-1
-3.95111E-1,0.14434E-1
-3.92532E-1,0.48767E-1
-3.88855E-1,0.97717E-1
-3.72390E-1,1.53411E-1
-3.54003E-1,1.92138E-1
-3.37448E-1,2.19635E-1
-3.36319E-1,2.4823E-1
-3.04107E-1,2.84561E-1
-2.60131E-1,3.0896E-1
-2.16537E-1,3.23745E-1
-1.82510E-1,3.48480E-1
-1.49459E-1,3.68804E-1
-1.05011E-1,3.89434E-1
-0.55221E-1,3.99353E-1
-0.05737E-1,4.02038E-1
0.49881E-1,3.97094E-1
0.80871E-1,3.80157E-1
1.17401E-1,3.94241E-1
1.69754E-1,3.85070E-1
2.15911E-1,3.60580E-1
2.44415E-1,3.18985E-1
2.56835E-1,2.90741E-1
2.93350E-1,2.78640E-1
3.30627E-1,2.33856E-1
3.53637E-1,1.92581E-1
3.79898E-1,1.40441E-1
3.84948E-1,0.88989E-1
3.76846E-1,0.61767E-1
4.00009E-1,0.29388E-1
3.96942E-1,-0.16403E-1
3.96789E-1,-0.59387E-1
3.69857E-1,-1.06735E-1
3.44772E-1,-1.37710E-1
3.43765E-1,-1.70959E-1
3.21746E-1,-2.19009E-1
3.00064E-1,-2.5E-1
2.60009E-1,-2.91961E-1
2.03247E-1,-3.12774E-1
1.78588E-1,-3.17688E-1
1.57821E-1,-3.59909E-1
1.31851E-1,-3.82019E-1
1.00677E-1,-4.12124E-1
0.53863E-1,-3.98284E-1
0.32867E-1,-3.82598E-1
-0.02746E-1,-3.98834E-1
-0.50903E-1,-3.98132E-1
-0.88134E-1,-4.02252E-1
-1.34262E-1,-3.87100E-1
-1.57821E-1,-3.61328E-1
-1.80465E-1,-3.50647E-1
-2.2052E-1,-3.34457E-1
-2.45513E-1,-3.18542E-1
-2.82775E-1,-3.07724E-1
-3.04184E-1,-2.78045E-1
-3.14773E-1,-2.55264E-1
-3.34152E-1,-2.34649E-1
-3.51059E-1,-2.10510E-1
-3.73199E-1,-1.87377E-1
-3.81713E-1,-1.54830E-1
-3.93447E-1,-1.26358E-1
-4.02511E-1,-0.95474E-1
-4.16946E-1,-0.64712E-1
-4.31198E-1,-0.40527E-1
-4.49142E-1,-0.14282E-1
-4.61242E-1,0.15487E-1
-4.56131E-1,0.49819E-1
-4.46228E-1,0.74173E-1
-4.51232E-1,0.98297E-1
-4.61837E-1,1.39450E-1
-4.62142E-1,1.70242E-1
-4.54177E-1,2.13928E-1
-4.28710E-1,2.33032E-1
-4.21630E-1,2.55798E-1
-4.17953E-1,2.99850E-1
-3.99002E-1,3.42163E-1
-3.90762E-1,3.84811E-1
-3.55148E-1,4.15878E-1
-3.35266E-1,4.16412E-1
-3.26492E-1,4.4104E-1
-2.93701E-1,4.77050E-1
-2.67089E-1,4.98352E-1
-2.28302E-1,5.30212E-1
-1.88262E-1,5.26794E-1
-1.64337E-1,5.37963E-1
-1.20819E-1,5.60791E-1
-0.71991E-1,5.73486E-1
-0.18341E-1,5.96649E-1
0.45349E-1,5.81756E-1
0.64666E-1,5.63720E-1
0.90972E-1,5.73486E-1
1.54541E-1,5.80932E-1
1.99188E-1,5.73730E-1
2.59063E-1,5.58166E-1
2.77099E-1,5.12908E-1
2.89459E-1,4.98703E-1
3.44039E-1,4.87609E-1
3.98056E-1,4.42138E-1
4.48547E-1,4.08676E-1
4.80423E-1,3.47824E-1
4.78607E-1,3.20541E-1
5.14221E-1,3.04107E-1
5.55023E-1,2.35199E-1
5.66864E-1,1.92932E-1
6.03515E-1,1.34796E-1
5.78094E-1,0.83099E-1
5.73791E-1,0.71380E-1
5.86761E-1,0.16723E-1
5.59326E-1,-0.36865E-1
5.55786E-1,-0.88653E-1
5.18981E-1,-1.56951E-1
4.81445E-1,-1.81167E-1
4.66156E-1,-2.15271E-1
4.25857E-1,-2.60208E-1
4.04678E-1,-2.95272E-1
3.57513E-1,-3.63098E-1
2.97317E-1,-3.67660E-1
2.79739E-1,-3.72299E-1
2.39608E-1,-3.91311E-1
1.98165E-1,-3.90487E-1
1.48376E-1,-4.22561E-1
0.70373E-1,-4.19448E-1
0.42419E-1,-4.05166E-1
0.05340E-1,-4.04388E-1
-0.26351E-1,-3.75869E-1
-0.56213E-1,-3.79745E-1
-1.44073E-1,-3.69476E-1
-1.74758E-1,-3.33831E-1
-1.95755E-1,-3.36349E-1
-2.08633E-1,-3.01193E-1
-1.91940E-1,-2.80258E-1
-2.37533E-1,-2.71835E-1
-2.88391E-1,-2.05749E-1
-2.97866E-1,-1.73461E-1
-3.06381E-1,-1.44592E-1
-2.75436E-1,-1.27822E-1
-2.91229E-1,-1.19857E-1
-3.36517E-1,-0.38940E-1
-3.30368E-1,0.19241E-1
-3.44940E-1,0.44281E-1
-3.08319E-1,0.49514E-1
END
