CITIFILE A.01.01
#NA VERSION HP8510C.08.10
NAME DATA
#NA REGISTER 1
VAR FREQ MAG 201
DATA S[1,1] RI
DATA S[2,1] RI
DATA S[1,2] RI
DATA S[2,2] RI
SEG_LIST_BEGIN
SEG 8000000000 12000000000 201
SEG_LIST_END
COMMENT       YEAR MONTH DAY HOUR MINUTE SECONDS
CONSTANT TIME 2013   09   26  18    26    28.0
BEGIN
-8.31108E-2,0.18158E-2
-7.97042E-2,1.59492E-2
-7.50999E-2,3.27034E-2
-6.97441E-2,4.68826E-2
-6.45637E-2,6.03714E-2
-5.27725E-2,6.77490E-2
-4.14047E-2,7.24220E-2
-2.61001E-2,7.49092E-2
-1.66969E-2,7.69615E-2
-0.69999E-2,8.14743E-2
0.31051E-2,8.04939E-2
1.35955E-2,7.96737E-2
2.54058E-2,7.39173E-2
3.48587E-2,7.00340E-2
4.27246E-2,6.62078E-2
4.96864E-2,6.30569E-2
5.62381E-2,5.78250E-2
6.36787E-2,4.85305E-2
6.83059E-2,3.83300E-2
7.50389E-2,2.76336E-2
7.97195E-2,2.15225E-2
8.37364E-2,1.49726E-2
8.65783E-2,0.63934E-2
8.70857E-2,-0.96893E-2
8.07876E-2,-2.79922E-2
7.51266E-2,-3.89442E-2
7.03620E-2,-4.95948E-2
6.29692E-2,-5.44776E-2
5.42621E-2,-6.16626E-2
3.73382E-2,-6.56700E-2
2.26974E-2,-6.76994E-2
1.13563E-2,-6.95457E-2
0.54779E-2,-6.64176E-2
0.56800E-2,-6.37435E-2
0.29487E-2,-6.16931E-2
-0.63648E-2,-6.17466E-2
-1.67827E-2,-5.80101E-2
-2.20928E-2,-5.59520E-2
-2.17342E-2,-5.88932E-2
-2.61421E-2,-6.43959E-2
-3.64322E-2,-6.18953E-2
-4.51431E-2,-5.10025E-2
-5.22575E-2,-4.34608E-2
-5.51433E-2,-3.67946E-2
-5.59120E-2,-3.89061E-2
-6.08577E-2,-3.61633E-2
-6.43577E-2,-2.55088E-2
-6.81648E-2,-1.53808E-2
-7.30629E-2,-0.37841E-2
-7.28874E-2,-0.01831E-2
-7.58476E-2,0.37155E-2
-7.12814E-2,1.42326E-2
-6.27059E-2,2.56958E-2
-5.75847E-2,4.05597E-2
-5.18016E-2,4.87480E-2
-5.08136E-2,4.59194E-2
-4.98447E-2,4.31575E-2
-4.23889E-2,4.46586E-2
-3.33652E-2,5.62667E-2
-1.99928E-2,7.21015E-2
-1.791E-2,7.52449E-2
-1.80969E-2,7.96089E-2
-0.70953E-2,7.55653E-2
0.77667E-2,6.85424E-2
3.08418E-2,7.38067E-2
5.00793E-2,7.34214E-2
5.39817E-2,7.26356E-2
5.22956E-2,6.96449E-2
5.70259E-2,5.86929E-2
7.25898E-2,4.99534E-2
9.64584E-2,3.94096E-2
1.11400E-1,3.97644E-2
1.25633E-1,0.37925E-1
1.32278E-1,0.18859E-1
1.35726E-1,-0.04676E-1
1.50192E-1,-0.3302E-1
1.62925E-1,-0.60760E-1
1.63688E-1,-0.84083E-1
1.54907E-1,-0.99632E-1
1.35810E-1,-1.20986E-1
1.27723E-1,-1.44355E-1
1.18698E-1,-1.78680E-1
1.09848E-1,-1.93649E-1
1.02539E-1,-2.06085E-1
0.71792E-1,-2.18009E-1
0.43930E-1,-2.28523E-1
0.19439E-1,-2.57980E-1
-0.03891E-1,-2.75360E-1
-0.25253E-1,-2.85385E-1
-0.53375E-1,-2.82882E-1
-0.91537E-1,-2.68051E-1
-1.24145E-1,-2.65686E-1
-1.67144E-1,-2.66861E-1
-1.83425E-1,-2.63977E-1
-1.96258E-1,-2.60147E-1
-2.24044E-1,-2.40646E-1
-2.53570E-1,-2.08633E-1
-2.92251E-1,-1.87271E-1
-3.24798E-1,-1.74835E-1
-3.46923E-1,-1.53640E-1
-3.58459E-1,-1.26144E-1
-3.61557E-1,-0.74996E-1
-3.66027E-1,-0.34286E-1
-3.83712E-1,0.14236E-1
-3.80966E-1,0.42007E-1
-3.80020E-1,0.53299E-1
-3.68057E-1,0.82031E-1
-3.47381E-1,1.18454E-1
-3.34320E-1,1.61636E-1
-3.22006E-1,1.92367E-1
-3.19107E-1,2.08831E-1
-3.09356E-1,2.28515E-1
-2.71484E-1,2.54180E-1
-2.32040E-1,2.72140E-1
-1.97509E-1,2.99926E-1
-1.73965E-1,3.13262E-1
-1.62063E-1,3.17459E-1
-1.36856E-1,3.19580E-1
-0.97839E-1,3.15734E-1
-0.52307E-1,3.13308E-1
-0.26077E-1,3.14315E-1
-0.13504E-1,3.21701E-1
0.01022E-1,3.21502E-1
0.32028E-1,2.99148E-1
0.65582E-1,2.70202E-1
1.00769E-1,2.51861E-1
1.23741E-1,2.44827E-1
1.31469E-1,2.40364E-1
1.27510E-1,2.17399E-1
1.27822E-1,1.82403E-1
1.40602E-1,1.38504E-1
1.55113E-1,1.17256E-1
1.71257E-1,1.15409E-1
1.70173E-1,1.16432E-1
1.48849E-1,1.03836E-1
1.32194E-1,0.70915E-1
1.21666E-1,3.03993E-2
1.29257E-1,0.09811E-1
1.40823E-1,0.06523E-1
1.28814E-1,0.18249E-1
1.03714E-1,2.84805E-2
6.97250E-2,1.51825E-2
5.12027E-2,0.24585E-2
6.31523E-2,-1.03416E-2
7.61299E-2,-0.89225E-2
8.23936E-2,0.82931E-2
7.11517E-2,1.34239E-2
4.72927E-2,0.78029E-2
4.02545E-2,-1.08070E-2
4.04834E-2,-3.04985E-2
4.65259E-2,-2.33707E-2
5.06725E-2,-1.11389E-2
2.92549E-2,0.02279E-2
1.11179E-2,5.23281E-3
2.33459E-3,-8.92496E-3
1.03011E-2,-1.29852E-2
3.14884E-2,-1.31530E-2
2.96793E-2,-0.46129E-2
1.59263E-2,1.32103E-2
0.09346E-3,1.00603E-2
-1.18093E-2,3.58772E-3
5.20134E-3,-2.19869E-3
1.85136E-2,-0.16937E-2
2.31676E-2,2.51274E-2
2.57587E-2,4.31098E-2
1.44748E-2,4.27513E-2
2.31275E-2,2.94952E-2
4.47979E-2,-0.20923E-2
6.51016E-2,-1.4328E-2
8.27179E-2,-1.22909E-2
6.74209E-2,-1.05018E-2
4.73499E-2,-0.78144E-2
3.76129E-2,-4.02603E-2
2.81372E-2,-7.23877E-2
4.32014E-2,-8.1604E-2
5.00450E-2,-8.11386E-2
4.07962E-2,-5.47294E-2
2.96134E-2,-5.84144E-2
-0.86212E-2,-8.67538E-2
-2.48222E-2,-1.08654E-1
-0.23445E-1,-1.32438E-1
-2.57492E-2,-1.13807E-1
-1.82151E-2,-9.02099E-2
-5.43136E-2,-8.56437E-2
-9.89227E-2,-7.44056E-2
-1.12270E-1,-8.83331E-2
-1.17355E-1,-9.41658E-2
-8.74214E-2,-7.78045E-2
-8.21762E-2,-6.98585E-2
-1.16771E-1,-4.14657E-2
-1.43058E-1,-0.32920E-1
-1.74339E-1,-0.41534E-1
-1.61315E-1,-0.31898E-1
-1.39656E-1,-0.35720E-1
-1.52404E-1,-0.02563E-1
-1.63993E-1,0.45181E-1
-1.92413E-1,0.56510E-1
-1.97517E-1,0.67947E-1
-1.61644E-1,0.47256E-1
-1.46713E-1,0.49217E-1
-1.31919E-1,0.97732E-1
END
BEGIN
-8.21411E-1,-5.6073E-1
-8.76617E-1,-4.84039E-1
-9.14733E-1,-3.89526E-1
-9.48638E-1,-3.06030E-1
-9.76074E-1,-2.14904E-1
-9.91546E-1,-1.27319E-1
-1.01428E0,-0.32775E-1
-1.01232E0,0.80078E-1
-9.90936E-1,1.75964E-1
-9.71405E-1,2.68737E-1
-9.36279E-1,3.53790E-1
-9.09149E-1,4.37774E-1
-8.62701E-1,5.37262E-1
-7.91931E-1,6.09222E-1
-7.36419E-1,6.71417E-1
-6.68731E-1,7.38403E-1
-6.04156E-1,7.89611E-1
-5.36041E-1,8.55224E-1
-4.36950E-1,9.02648E-1
-3.53637E-1,9.26239E-1
-2.67669E-1,9.54742E-1
-1.82586E-1,9.62768E-1
-1.08734E-1,9.82696E-1
-0.06866E-1,9.94476E-1
0.78613E-1,9.79614E-1
1.60308E-1,9.75097E-1
2.50457E-1,9.52362E-1
3.20251E-1,9.30481E-1
4.10369E-1,9.17541E-1
5.04791E-1,8.68957E-1
5.78002E-1,8.17596E-1
6.54663E-1,7.58026E-1
7.12585E-1,6.89758E-1
7.71392E-1,6.29516E-1
8.30169E-1,5.50842E-1
8.67309E-1,4.69299E-1
9.01702E-1,3.91326E-1
9.22882E-1,3.10546E-1
9.45526E-1,2.42614E-1
9.72991E-1,1.55578E-1
9.77172E-1,0.65338E-1
9.81567E-1,-0.15960E-1
9.75189E-1,-1.06170E-1
9.59686E-1,-1.82708E-1
9.52331E-1,-2.67700E-1
9.16809E-1,-3.56994E-1
8.80554E-1,-4.28039E-1
8.40759E-1,-5.06835E-1
7.84912E-1,-5.69824E-1
7.47558E-1,-6.24603E-1
6.98638E-1,-6.99707E-1
6.31378E-1,-7.59735E-1
5.67504E-1,-8.17352E-1
4.84497E-1,-8.68286E-1
4.08966E-1,-8.97003E-1
3.37799E-1,-9.35882E-1
2.46124E-1,-9.61456E-1
1.64642E-1,-9.78057E-1
0.69366E-1,-9.88311E-1
-0.09979E-1,-9.73236E-1
-0.74005E-1,-9.74426E-1
-1.61804E-1,-9.74304E-1
-2.38159E-1,-9.60327E-1
-3.27789E-1,-9.49462E-1
-4.26422E-1,-9.06982E-1
-4.89685E-1,-8.56903E-1
-5.64331E-1,-8.26141E-1
-6.41967E-1,-7.67028E-1
-7.03033E-1,-7.07489E-1
-7.68737E-1,-6.32202E-1
-7.98492E-1,-5.48553E-1
-8.28674E-1,-4.95941E-1
-8.73626E-1,-4.25323E-1
-8.95019E-1,-3.59985E-1
-9.35638E-1,-2.96356E-1
-9.61914E-1,-2.03521E-1
-9.66583E-1,-1.34613E-1
-9.99481E-1,-0.53100E-1
-9.94812E-1,0.47851E-1
-9.88952E-1,1.19567E-1
-9.95788E-1,2.24914E-1
-9.45678E-1,3.28247E-1
-9.05822E-1,4.02221E-1
-8.45825E-1,4.8349E-1
-7.92297E-1,5.1297E-1
-7.81738E-1,5.77972E-1
-7.08221E-1,6.62506E-1
-6.45446E-1,6.85424E-1
-6.10015E-1,7.49328E-1
-5.30059E-1,7.94799E-1
-4.90966E-1,8.34350E-1
-4.04937E-1,9.19158E-1
-2.76611E-1,9.22149E-1
-2.14386E-1,9.12719E-1
-1.30371E-1,9.17694E-1
-0.76812E-1,8.94989E-1
-0.22125E-1,9.15954E-1
0.62805E-1,8.99017E-1
0.90972E-1,8.82751E-1
1.56097E-1,9.14428E-1
2.42065E-1,9.00939E-1
3.05206E-1,9.00421E-1
4.12170E-1,8.90960E-1
4.95483E-1,8.30017E-1
5.68298E-1,7.95562E-1
6.60003E-1,7.06207E-1
6.72424E-1,6.22894E-1
7.09075E-1,5.83221E-1
7.47619E-1,5.15045E-1
7.69500E-1,4.66583E-1
8.05542E-1,4.02221E-1
8.08898E-1,3.44085E-1
8.46008E-1,3.14758E-1
8.97583E-1,2.39929E-1
9.16107E-1,1.59545E-1
9.31884E-1,0.75958E-1
9.13757E-1,-0.07782E-1
9.06707E-1,-0.59082E-1
9.02526E-1,-1.38305E-1
8.76678E-1,-1.94854E-1
8.76983E-1,-2.50488E-1
8.61389E-1,-3.25225E-1
8.39233E-1,-3.77777E-1
8.24585E-1,-4.51324E-1
7.83935E-1,-5.20477E-1
7.58789E-1,-5.82977E-1
7.14843E-1,-6.66931E-1
6.49993E-1,-7.34222E-1
5.82428E-1,-7.87384E-1
5.04364E-1,-8.22082E-1
4.53918E-1,-8.51715E-1
3.85131E-1,-9.08416E-1
2.97302E-1,-9.37377E-1
2.27508E-1,-9.62554E-1
1.37237E-1,-9.81201E-1
0.65429E-1,-9.80499E-1
-0.14709E-1,-1.00091E0
-1.17034E-1,-9.91485E-1
-1.98883E-1,-9.66186E-1
-2.76397E-1,-9.45159E-1
-3.45336E-1,-9.11560E-1
-4.06127E-1,-8.88732E-1
-4.83795E-1,-8.54980E-1
-5.49163E-1,-8.08654E-1
-6.15020E-1,-7.6651E-1
-6.76818E-1,-7.09045E-1
-7.25128E-1,-6.57226E-1
-7.89489E-1,-6.03759E-1
-8.34289E-1,-5.26184E-1
-8.72802E-1,-4.52697E-1
-8.97491E-1,-3.72497E-1
-9.15435E-1,-3.08136E-1
-9.39544E-1,-2.41027E-1
-9.56115E-1,-1.67419E-1
-9.66461E-1,-0.89508E-1
-9.66033E-1,-0.11230E-1
-9.63378E-1,0.6073E-1
-9.61273E-1,1.39129E-1
-9.44305E-1,2.15271E-1
-9.25293E-1,2.85736E-1
-8.99078E-1,3.56689E-1
-8.70941E-1,4.17511E-1
-8.50219E-1,4.94964E-1
-8.03375E-1,5.67443E-1
-7.66021E-1,6.30371E-1
-7.08404E-1,7.03247E-1
-6.48071E-1,7.47711E-1
-5.98632E-1,8.07983E-1
-5.12390E-1,8.57543E-1
-4.39361E-1,8.90777E-1
-3.56414E-1,9.22210E-1
-2.85644E-1,9.24865E-1
-2.35717E-1,9.44763E-1
-1.55883E-1,9.79675E-1
-0.73425E-1,9.88372E-1
0.14801E-1,9.99633E-1
1.04034E-1,9.76257E-1
1.58630E-1,9.63928E-1
2.43530E-1,9.75341E-1
3.35968E-1,9.36767E-1
4.07440E-1,9.04022E-1
4.86267E-1,8.50738E-1
5.23834E-1,8.02551E-1
5.79315E-1,7.79357E-1
6.49444E-1,7.34649E-1
7.03643E-1,6.83868E-1
7.69470E-1,6.24603E-1
8.06427E-1,5.47882E-1
8.44299E-1,4.93133E-1
8.94195E-1,4.22058E-1
9.17694E-1,3.42132E-1
9.40887E-1,2.72766E-1
9.50378E-1,1.88720E-1
9.55352E-1,1.26617E-1
9.67865E-1,0.49255E-1
9.64294E-1,-0.28839E-1
9.62768E-1,-1.00585E-1
9.52972E-1,-1.74865E-1
9.36065E-1,-2.37976E-1
9.25781E-1,-3.14880E-1
8.94622E-1,-3.96209E-1
END
BEGIN
-8.34838E-1,-5.46752E-1
-8.84857E-1,-4.72869E-1
-9.16107E-1,-3.75701E-1
-9.44427E-1,-3.05297E-1
-9.89257E-1,-2.09838E-1
-9.97528E-1,-1.06842E-1
-1.00701E0,-0.15441E-1
-9.97497E-1,0.88958E-1
-9.81231E-1,1.66229E-1
-9.79461E-1,2.60131E-1
-9.42596E-1,3.65203E-1
-9.00207E-1,4.47387E-1
-8.47045E-1,5.32897E-1
-7.88726E-1,5.93689E-1
-7.47406E-1,6.66076E-1
-6.75140E-1,7.43988E-1
-5.98999E-1,7.95532E-1
-5.20172E-1,8.50433E-1
-4.33837E-1,8.76495E-1
-3.75335E-1,9.08264E-1
-2.88787E-1,9.60205E-1
-1.91650E-1,9.76257E-1
-1.05804E-1,9.94812E-1
-0.06439E-1,9.93133E-1
0.65429E-1,9.81048E-1
1.53167E-1,9.93621E-1
2.56103E-1,9.71008E-1
3.42041E-1,9.43237E-1
4.33898E-1,9.00238E-1
4.97131E-1,8.48999E-1
5.68237E-1,8.19824E-1
6.53747E-1,7.63671E-1
7.20153E-1,6.98303E-1
7.84851E-1,6.24450E-1
8.22845E-1,5.43792E-1
8.59375E-1,4.86663E-1
9.14154E-1,4.11712E-1
9.49340E-1,3.20892E-1
9.75494E-1,2.30194E-1
9.81231E-1,1.31195E-1
9.76104E-1,0.62316E-1
9.94781E-1,-0.12786E-1
9.94903E-1,-1.09924E-1
9.82788E-1,-2.01141E-1
9.51416E-1,-2.98950E-1
9.09210E-1,-3.69476E-1
8.85681E-1,-4.36706E-1
8.50280E-1,-5.20019E-1
8.02246E-1,-5.94268E-1
7.40966E-1,-6.70410E-1
6.66320E-1,-7.20794E-1
6.12854E-1,-7.62817E-1
5.53161E-1,-8.23577E-1
4.79675E-1,-8.71887E-1
3.99688E-1,-9.17724E-1
3.07464E-1,-9.41711E-1
2.33245E-1,-9.54711E-1
1.57623E-1,-9.77050E-1
0.71167E-1,-9.92187E-1
-0.15808E-1,-1.00207E0
-1.15661E-1,-9.94262E-1
-1.93023E-1,-9.62951E-1
-2.62176E-1,-9.52758E-1
-3.47808E-1,-9.32373E-1
-4.30877E-1,-9.06494E-1
-5.26214E-1,-8.62396E-1
-5.88836E-1,-7.91076E-1
-6.35894E-1,-7.50305E-1
-7.07458E-1,-7.03491E-1
-7.71392E-1,-6.37634E-1
-8.36883E-1,-5.64392E-1
-8.73992E-1,-4.62524E-1
-8.76861E-1,-3.97979E-1
-9.19799E-1,-3.46344E-1
-9.56329E-1,-2.60223E-1
-9.8526E-1,-1.76879E-1
-9.98138E-1,-0.60272E-1
-9.56237E-1,0.16784E-1
-9.65240E-1,0.59783E-1
-9.78179E-1,1.46423E-1
-9.75311E-1,2.34375E-1
-9.48211E-1,3.55102E-1
-8.60778E-1,4.25872E-1
-8.37799E-1,4.53094E-1
-8.18267E-1,5.37567E-1
-7.70721E-1,5.98968E-1
-7.43682E-1,6.93634E-1
-6.21093E-1,7.87414E-1
-5.21453E-1,7.72186E-1
-4.90081E-1,7.99194E-1
-4.25506E-1,8.37249E-1
-3.78448E-1,8.83178E-1
-2.64709E-1,9.45159E-1
-1.49139E-1,9.07074E-1
-1.14288E-1,8.83148E-1
-0.62225E-1,8.88671E-1
-0.24231E-1,9.05334E-1
0.78460E-1,9.61059E-1
2.17346E-1,8.95996E-1
2.34314E-1,8.27423E-1
2.71942E-1,8.27087E-1
3.18878E-1,8.13720E-1
3.86261E-1,8.34930E-1
5.11261E-1,7.82226E-1
5.39032E-1,6.94793E-1
5.72570E-1,6.72912E-1
6.17279E-1,6.21490E-1
6.44195E-1,6.08367E-1
7.48046E-1,5.79528E-1
7.98034E-1,4.59777E-1
7.91168E-1,3.98345E-1
8.10943E-1,3.48022E-1
8.23852E-1,3.13873E-1
8.97522E-1,2.79449E-1
9.52697E-1,1.54205E-1
9.25903E-1,0.63140E-1
9.20959E-1,0.05157E-1
9.09423E-1,-0.49163E-1
9.37072E-1,-0.90515E-1
9.71374E-1,-2.09106E-1
9.22058E-1,-3.25866E-1
8.69873E-1,-3.89617E-1
8.24951E-1,-4.39849E-1
8.06396E-1,-4.71740E-1
8.08685E-1,-5.56213E-1
7.42828E-1,-6.61285E-1
6.60003E-1,-7.14202E-1
5.90637E-1,-7.52227E-1
5.44677E-1,-7.70996E-1
5.22613E-1,-8.28155E-1
4.39788E-1,-9.11621E-1
3.29772E-1,-9.43634E-1
2.38494E-1,-9.487E-1
1.70745E-1,-9.49127E-1
1.17065E-1,-9.67102E-1
0.33477E-1,-9.98626E-1
-0.66101E-1,-9.93164E-1
-1.53778E-1,-9.74182E-1
-2.30224E-1,-9.43023E-1
-2.92480E-1,-9.23614E-1
-3.64807E-1,-9.12872E-1
-4.47723E-1,-8.81195E-1
-5.19775E-1,-8.37249E-1
-5.88378E-1,-7.82775E-1
-6.42547E-1,-7.27813E-1
-6.96960E-1,-6.77734E-1
-7.55188E-1,-6.22161E-1
-8.01940E-1,-5.57251E-1
-8.40942E-1,-4.87213E-1
-8.65661E-1,-4.17053E-1
-8.98040E-1,-3.51318E-1
-9.23553E-1,-2.79266E-1
-9.44885E-1,-2.05444E-1
-9.58313E-1,-1.33544E-1
-9.60968E-1,-0.56823E-1
-9.65332E-1,0.15564E-1
-9.59930E-1,0.99090E-1
-9.49371E-1,1.74408E-1
-9.35150E-1,2.49115E-1
-9.14367E-1,3.19885E-1
-8.91265E-1,3.88366E-1
-8.56170E-1,4.66156E-1
-8.10852E-1,5.33783E-1
-7.63549E-1,5.98083E-1
-7.17956E-1,6.54937E-1
-6.68060E-1,7.13073E-1
-6.13189E-1,7.65777E-1
-5.45501E-1,8.11615E-1
-4.71710E-1,8.48754E-1
-3.99871E-1,8.71337E-1
-3.45306E-1,9.03656E-1
-2.73345E-1,9.41284E-1
-1.89636E-1,9.61334E-1
-1.12243E-1,9.67926E-1
-0.31890E-1,9.63073E-1
0.27954E-1,9.59960E-1
1.08154E-1,9.73388E-1
1.95587E-1,9.65484E-1
2.72247E-1,9.43634E-1
3.45214E-1,9.12597E-1
4.01519E-1,8.75366E-1
4.70245E-1,8.58093E-1
5.49285E-1,8.18145E-1
6.13830E-1,7.69134E-1
6.75750E-1,7.19055E-1
7.25372E-1,6.58203E-1
7.68920E-1,6.09893E-1
8.26934E-1,5.44067E-1
8.67553E-1,4.70794E-1
9.08386E-1,4.01977E-1
9.37103E-1,3.26080E-1
9.54650E-1,2.58270E-1
9.81109E-1,1.83563E-1
9.86541E-1,0.93719E-1
9.86999E-1,0.17639E-1
9.90783E-1,-0.61004E-1
9.88983E-1,-1.40380E-1
9.81658E-1,-2.16278E-1
9.53064E-1,-3.00720E-1
9.16351E-1,-3.71582E-1
8.78631E-1,-4.42657E-1
END
BEGIN
5.89199E-2,-0.16822E-2
6.14643E-2,-0.91438E-2
5.89580E-2,-2.23636E-2
5.93090E-2,-3.27663E-2
6.21128E-2,-4.85248E-2
5.55706E-2,-5.66997E-2
4.88147E-2,-6.10294E-2
3.12156E-2,-6.46247E-2
1.52816E-2,-6.63757E-2
0.06904E-2,-7.5634E-2
-1.67236E-2,-8.13102E-2
-2.88162E-2,-8.28437E-2
-4.25910E-2,-7.77664E-2
-5.23567E-2,-6.76231E-2
-6.51741E-2,-5.94635E-2
-8.01506E-2,-5.04417E-2
-9.26628E-2,-4.13742E-2
-1.03435E-1,-3.22113E-2
-1.06769E-1,-1.89247E-2
-1.09344E-1,-0.72135E-2
-1.14021E-1,0.52032E-2
-1.17107E-1,1.91726E-2
-1.18011E-1,2.98118E-2
-1.16996E-1,3.84826E-2
-1.11236E-1,4.55398E-2
-1.01291E-1,4.94842E-2
-9.26475E-2,5.49087E-2
-8.15010E-2,5.91392E-2
-7.23762E-2,6.31599E-2
-5.65948E-2,6.58493E-2
-4.24995E-2,6.25495E-2
-3.28407E-2,6.37245E-2
-2.27546E-2,6.56204E-2
-1.85623E-2,6.73484E-2
-1.38092E-2,6.84547E-2
-1.14746E-2,6.34269E-2
-1.06811E-2,5.64231E-2
-0.75893E-2,5.40161E-2
-0.83808E-2,5.42964E-2
-1.14402E-2,6.25572E-2
-1.39770E-2,6.41403E-2
-2.31475E-2,5.67989E-2
-3.16581E-2,5.23643E-2
-3.26194E-2,4.75215E-2
-2.97470E-2,5.45158E-2
-2.02007E-2,6.24790E-2
-2.12173E-2,6.89086E-2
-3.04374E-2,8.03909E-2
-3.61824E-2,8.67958E-2
-4.15267E-2,9.43298E-2
-2.98004E-2,1.02024E-1
-2.30827E-2,1.00029E-1
-2.45285E-2,1.09291E-1
-2.01911E-2,1.18709E-1
-1.86004E-2,1.22989E-1
-0.04577E-1,1.29135E-1
1.10626E-2,1.22867E-1
2.01911E-2,1.22005E-1
0.35148E-1,1.27693E-1
0.46684E-1,1.28120E-1
0.62065E-1,1.36344E-1
0.85075E-1,1.26876E-1
9.27124E-2,1.20307E-1
1.03279E-1,1.25038E-1
1.11202E-1,1.21707E-1
1.15089E-1,1.19018E-1
1.29310E-1,0.9832E-1
1.27929E-1,0.71807E-1
1.35490E-1,0.58586E-1
1.49467E-1,0.42419E-1
1.57203E-1,0.30723E-1
1.73049E-1,0.18554E-1
1.73500E-1,-0.09796E-1
1.67793E-1,-0.24581E-1
1.75987E-1,-0.3685E-1
1.83258E-1,-0.50422E-1
1.95350E-1,-0.61859E-1
1.90742E-1,-0.85693E-1
1.74865E-1,-0.87509E-1
1.67495E-1,-0.92704E-1
1.58721E-1,-1.05415E-1
1.46537E-1,-1.28326E-1
1.28089E-1,-1.52984E-1
1.12968E-1,-1.65008E-1
1.06727E-1,-1.77398E-1
0.96748E-1,-1.89773E-1
0.84632E-1,-1.96273E-1
0.72525E-1,-2.06375E-1
0.43968E-1,-2.23548E-1
0.27656E-1,-2.25143E-1
0.13015E-1,-2.35054E-1
-0.02067E-1,-2.33161E-1
-0.21270E-1,-2.33482E-1
-0.46333E-1,-2.34680E-1
-0.74150E-1,-2.32582E-1
-1.03378E-1,-2.40272E-1
-1.30729E-1,-2.36450E-1
-1.44271E-1,-2.36579E-1
-1.67686E-1,-2.48352E-1
-2.03460E-1,-2.34329E-1
-2.16400E-1,-2.22686E-1
-2.30972E-1,-2.07702E-1
-2.28317E-1,-1.96365E-1
-2.48558E-1,-1.88728E-1
-2.70996E-1,-1.55410E-1
-2.80487E-1,-1.32095E-1
-3.02169E-1,-1.13037E-1
-3.13156E-1,-0.86547E-1
-3.19213E-1,-0.64712E-1
-3.31329E-1,-0.36346E-1
-3.39096E-1,0.00518E-1
-3.49044E-1,0.33035E-1
-3.47259E-1,0.65170E-1
-3.38562E-1,0.72097E-1
-3.39981E-1,0.87371E-1
-3.26690E-1,1.20086E-1
-3.07891E-1,1.51748E-1
-2.88131E-1,1.88522E-1
-2.67776E-1,2.13317E-1
-2.51876E-1,2.32025E-1
-2.41912E-1,2.50030E-1
-2.20535E-1,2.72628E-1
-1.93466E-1,2.95684E-1
-1.57623E-1,3.04534E-1
-1.42410E-1,3.02917E-1
-1.33819E-1,3.12683E-1
-1.09924E-1,3.25439E-1
-0.79025E-1,3.28765E-1
-0.41549E-1,3.19885E-1
-0.16250E-1,3.00155E-1
-0.01220E-1,2.87719E-1
0.24459E-1,2.91229E-1
0.58654E-1,2.82501E-1
0.89767E-1,2.68798E-1
1.02371E-1,2.43652E-1
1.00379E-1,2.28813E-1
1.07254E-1,2.19177E-1
1.19102E-1,1.94511E-1
1.28097E-1,1.68655E-1
1.32713E-1,1.36215E-1
1.21635E-1,1.10042E-1
1.08371E-1,9.30252E-2
9.73053E-2,7.21054E-2
8.96720E-2,5.35888E-2
9.12399E-2,2.62222E-2
7.72438E-2,0.37193E-2
6.59980E-2,-0.06942E-2
5.43479E-2,-0.41351E-2
3.97281E-2,-0.09632E-2
3.25336E-2,-0.53634E-2
9.82141E-3,-9.23967E-3
-1.15494E-2,3.78704E-3
-2.56519E-2,1.83715E-2
-4.30259E-2,3.37200E-2
-4.92057E-2,4.1605E-2
-6.18305E-2,3.35903E-2
-7.85522E-2,4.12292E-2
-7.90557E-2,5.79834E-2
-7.76138E-2,7.70797E-2
-6.80770E-2,9.78050E-2
-6.22482E-2,9.90715E-2
-6.81648E-2,1.06266E-1
-5.82771E-2,1.24858E-1
-0.41168E-1,1.42227E-1
-0.19409E-1,1.71463E-1
0.01251E-1,1.82556E-1
-0.05966E-1,1.94099E-1
-0.06210E-1,2.14538E-1
0.03402E-1,2.17239E-1
0.18821E-1,2.19825E-1
0.43853E-1,2.13211E-1
0.52154E-1,2.02110E-1
0.53482E-1,2.07092E-1
0.65017E-1,2.06443E-1
0.77972E-1,2.00676E-1
1.06918E-1,1.83113E-1
1.23626E-1,1.59896E-1
1.31782E-1,1.57791E-1
1.47949E-1,1.62986E-1
1.51863E-1,1.59294E-1
1.59103E-1,1.48231E-1
1.59118E-1,1.24824E-1
1.57913E-1,1.11518E-1
1.64772E-1,1.05827E-1
1.61178E-1,1.03942E-1
1.64222E-1,1.03988E-1
1.57943E-1,0.71235E-1
1.43455E-1,0.44433E-1
1.51252E-1,0.24253E-1
1.60522E-1,0.10055E-1
1.73858E-1,0.21926E-1
1.86805E-1,0.17227E-1
1.70440E-1,0.04524E-1
1.57974E-1,-0.11436E-1
1.53762E-1,-0.28686E-1
1.63368E-1,-0.22583E-1
1.92222E-1,-0.21110E-1
1.79702E-1,-0.33073E-1
1.45202E-1,-0.33470E-1
1.15417E-1,-4.72259E-2
1.04141E-1,-5.75027E-2
END
