CITIFILE A.01.01
#NA VERSION HP8510C.08.10
NAME DATA
#NA REGISTER 4
VAR FREQ MAG 201
DATA S[1,1] RI
DATA S[2,1] RI
DATA S[1,2] RI
DATA S[2,2] RI
SEG_LIST_BEGIN
SEG 8000000000 12000000000 201
SEG_LIST_END
COMMENT       YEAR MONTH DAY HOUR MINUTE SECONDS
CONSTANT TIME 2013   12   09  21    27    11.0
BEGIN
-5.27221E-1,-2.38006E-1
-5.47729E-1,-1.83288E-1
-5.66864E-1,-1.18225E-1
-5.74310E-1,-0.61615E-1
-5.82611E-1,0.03082E-1
-5.75836E-1,0.63995E-1
-5.65765E-1,1.23260E-1
-5.52063E-1,1.73858E-1
-5.35186E-1,2.37335E-1
-5.05279E-1,2.92877E-1
-4.76318E-1,3.40728E-1
-4.34463E-1,3.86383E-1
-3.96911E-1,4.23782E-1
-3.49380E-1,4.74487E-1
-2.96356E-1,5.02899E-1
-2.46673E-1,5.31524E-1
-1.85638E-1,5.51147E-1
-1.33056E-1,5.60180E-1
-0.76843E-1,5.79620E-1
-0.09246E-1,5.73913E-1
0.46295E-1,5.72357E-1
1.05835E-1,5.60943E-1
1.54602E-1,5.42877E-1
2.05871E-1,5.20599E-1
2.50534E-1,4.90814E-1
2.92938E-1,4.70260E-1
3.39813E-1,4.36462E-1
3.78494E-1,4.02282E-1
4.14367E-1,3.56460E-1
4.39987E-1,3.21960E-1
4.74960E-1,2.77557E-1
4.97467E-1,2.19833E-1
5.13855E-1,1.70227E-1
5.24536E-1,1.12579E-1
5.30792E-1,0.69122E-1
5.33050E-1,0.03326E-1
5.17517E-1,-0.45929E-1
5.08697E-1,-0.89691E-1
5.04882E-1,-1.43585E-1
4.71511E-1,-1.95861E-1
4.47311E-1,-2.36999E-1
4.20410E-1,-2.71667E-1
3.86642E-1,-3.10745E-1
3.53729E-1,-3.42849E-1
3.07891E-1,-3.73291E-1
2.81463E-1,-3.88763E-1
2.41210E-1,-4.12139E-1
2.02789E-1,-4.30114E-1
1.66061E-1,-4.42627E-1
1.2323E-1,-4.67910E-1
0.70007E-1,-4.59732E-1
0.41854E-1,-4.64828E-1
0.01556E-1,-4.71359E-1
-0.42388E-1,-4.68292E-1
-0.84869E-1,-4.61563E-1
-1.29745E-1,-4.47128E-1
-1.62246E-1,-4.41162E-1
-2.05719E-1,-4.23431E-1
-2.39883E-1,-3.97598E-1
-2.66754E-1,-3.67675E-1
-2.99682E-1,-3.47671E-1
-3.18557E-1,-3.18267E-1
-3.44787E-1,-3.00659E-1
-3.72879E-1,-2.77496E-1
-3.95263E-1,-2.41989E-1
-4.11193E-1,-2.09930E-1
-4.28909E-1,-1.71676E-1
-4.52560E-1,-1.42456E-1
-4.63821E-1,-0.98510E-1
-4.65194E-1,-0.60958E-1
-4.59350E-1,-0.29296E-1
-4.71298E-1,0.07629E-1
-4.70657E-1,0.53649E-1
-4.62616E-1,0.91201E-1
-4.58358E-1,1.21429E-1
-4.49890E-1,1.56936E-1
-4.35714E-1,1.96579E-1
-4.16870E-1,2.33581E-1
-4.06341E-1,2.77908E-1
-3.81759E-1,3.17321E-1
-3.51409E-1,3.53942E-1
-3.09097E-1,3.75686E-1
-2.77679E-1,4.00939E-1
-2.35122E-1,4.37454E-1
-1.88919E-1,4.56283E-1
-1.48468E-1,4.70596E-1
-1.01379E-1,4.75219E-1
-0.57769E-1,4.76791E-1
-0.06042E-1,4.78179E-1
0.48660E-1,4.7789E-1
0.96420E-1,4.69467E-1
1.39831E-1,4.54910E-1
1.76559E-1,4.25491E-1
2.19467E-1,4.02771E-1
2.65686E-1,3.70773E-1
3.07312E-1,3.2901E-1
3.30429E-1,2.88681E-1
3.45871E-1,2.49130E-1
3.57757E-1,2.04086E-1
3.58261E-1,1.61514E-1
3.67584E-1,1.2883E-1
3.79669E-1,1.00112E-1
3.98407E-1,0.67367E-1
4.02999E-1,0.23757E-1
4.01794E-1,-0.23284E-1
3.98849E-1,-0.76950E-1
3.87207E-1,-1.31256E-1
3.68560E-1,-1.76712E-1
3.44207E-1,-2.11990E-1
3.19290E-1,-2.47360E-1
2.83554E-1,-2.83355E-1
2.45849E-1,-3.17459E-1
2.11959E-1,-3.42330E-1
1.85058E-1,-3.72436E-1
1.43905E-1,-3.94226E-1
0.93826E-1,-4.08218E-1
0.38497E-1,-4.16214E-1
-0.12466E-1,-4.20654E-1
-0.50857E-1,-4.23706E-1
-0.81069E-1,-4.24163E-1
-1.22360E-1,-4.26208E-1
-1.75247E-1,-4.09393E-1
-2.26516E-1,-3.87481E-1
-2.65182E-1,-3.70468E-1
-3.03527E-1,-3.62854E-1
-3.44207E-1,-3.44741E-1
-3.84231E-1,-3.07144E-1
-4.16153E-1,-2.56469E-1
-4.44000E-1,-2.14553E-1
-4.75662E-1,-1.81045E-1
-4.91668E-1,-1.51580E-1
-5.10711E-1,-1.12762E-1
-5.16082E-1,-0.60546E-1
-5.19714E-1,-0.06866E-1
-5.31646E-1,0.38238E-1
-5.41534E-1,0.80902E-1
-5.45349E-1,1.20941E-1
-5.33935E-1,1.69464E-1
-5.07324E-1,2.17620E-1
-4.90661E-1,2.66525E-1
-4.76989E-1,3.16558E-1
-4.57855E-1,3.49609E-1
-4.32373E-1,3.80111E-1
-3.96041E-1,4.09027E-1
-3.55575E-1,4.48547E-1
-3.17459E-1,4.87213E-1
-2.87414E-1,5.16937E-1
-2.60070E-1,5.39398E-1
-2.18780E-1,5.54718E-1
-1.61651E-1,5.68786E-1
-1.07086E-1,5.78887E-1
-0.56976E-1,6.03302E-1
-0.14465E-1,6.14440E-1
0.24658E-1,6.13647E-1
0.75225E-1,6.02203E-1
1.34246E-1,5.81726E-1
1.90155E-1,5.73547E-1
2.49694E-1,5.64117E-1
2.90985E-1,5.42846E-1
3.24249E-1,5.18066E-1
3.65387E-1,4.74685E-1
4.06158E-1,4.36080E-1
4.62616E-1,3.99093E-1
5.07324E-1,3.52996E-1
5.30304E-1,3.06884E-1
5.46630E-1,2.55065E-1
5.59783E-1,1.85668E-1
5.75622E-1,1.15966E-1
5.85479E-1,0.41839E-1
5.72357E-1,-0.13244E-1
5.55542E-1,-0.57525E-1
5.27832E-1,-1.12701E-1
4.97848E-1,-1.62674E-1
4.77066E-1,-2.21344E-1
4.51202E-1,-2.71347E-1
4.21798E-1,-3.09371E-1
3.80249E-1,-3.39401E-1
3.23776E-1,-3.65142E-1
2.70111E-1,-3.98254E-1
2.15927E-1,-4.29580E-1
1.69860E-1,-4.47052E-1
1.25106E-1,-4.47082E-1
0.79544E-1,-4.35195E-1
0.31036E-1,-4.23095E-1
-0.21133E-1,-4.22088E-1
-0.68725E-1,-4.23599E-1
-1.07437E-1,-4.17724E-1
-1.37481E-1,-3.95629E-1
-1.68975E-1,-3.65142E-1
-2.10784E-1,-3.31359E-1
-2.5354E-1,-3.02932E-1
-2.86834E-1,-2.77175E-1
-2.99514E-1,-2.46048E-1
-2.94677E-1,-2.12707E-1
-2.96417E-1,-1.74011E-1
-3.11554E-1,-1.37069E-1
-3.30612E-1,-1.04522E-1
-3.36837E-1,-0.91995E-1
-3.29040E-1,-0.81939E-1
-3.20220E-1,-0.66467E-1
-3.19595E-1,-0.29052E-1
END
BEGIN
-8.73046E-1,0.61767E-1
-7.87475E-1,1.49902E-1
-8.03283E-1,1.82189E-1
-7.89794E-1,3.20892E-1
-7.25250E-1,3.87298E-1
-6.83319E-1,4.94567E-1
-5.46173E-1,5.35491E-1
-5.15258E-1,4.96368E-1
-5.20843E-1,5.57861E-1
-4.65789E-1,6.03607E-1
-4.40460E-1,6.70715E-1
-3.16131E-1,7.22198E-1
-2.77557E-1,6.75293E-1
-2.90893E-1,7.54272E-1
-1.68487E-1,8.20831E-1
-1.01501E-1,8.30474E-1
0.27404E-1,8.68255E-1
1.16180E-1,7.83691E-1
1.07238E-1,7.90252E-1
2.12005E-1,8.35845E-1
2.90588E-1,8.08593E-1
4.04876E-1,8.30108E-1
5.37719E-1,7.19696E-1
5.44738E-1,6.53961E-1
6.43096E-1,6.33483E-1
7.01812E-1,5.16113E-1
7.46032E-1,4.7229E-1
8.22448E-1,3.25439E-1
7.40448E-1,2.11761E-1
7.27050E-1,2.14233E-1
7.44751E-1,1.55578E-1
7.42919E-1,1.38885E-1
8.15033E-1,0.74798E-1
7.74169E-1,-0.34240E-1
7.61901E-1,-0.23864E-1
8.35144E-1,-0.82885E-1
8.52905E-1,-1.74652E-1
9.02801E-1,-3.05938E-1
7.91168E-1,-4.95849E-1
6.68731E-1,-4.84893E-1
6.75079E-1,-5.30456E-1
5.93292E-1,-6.04827E-1
5.62744E-1,-6.29486E-1
4.84771E-1,-7.29705E-1
3.71917E-1,-7.0047E-1
3.87268E-1,-7.09472E-1
3.16680E-1,-7.98034E-1
2.47741E-1,-8.02948E-1
1.85089E-1,-8.95233E-1
-0.09491E-1,-8.85376E-1
-0.53222E-1,-7.93396E-1
-0.93872E-1,-7.96508E-1
-1.47766E-1,-7.53936E-1
-1.60949E-1,-7.70721E-1
-2.70904E-1,-7.80792E-1
-3.18206E-1,-7.12463E-1
-3.48724E-1,-7.17681E-1
-4.18975E-1,-6.91162E-1
-4.54284E-1,-6.95800E-1
-6.03637E-1,-6.96350E-1
-6.86584E-1,-5.37017E-1
-6.74316E-1,-4.78668E-1
-7.17437E-1,-4.04388E-1
-6.82891E-1,-3.50250E-1
-7.36358E-1,-3.70697E-1
-8.15307E-1,-2.63519E-1
-7.84606E-1,-1.96502E-1
-8.29772E-1,-1.70593E-1
-8.55621E-1,-0.87677E-1
-9.01092E-1,-0.41473E-1
-9.60174E-1,1.18347E-1
-8.70178E-1,2.48901E-1
-8.36914E-1,3.02307E-1
-7.68707E-1,3.99932E-1
-6.98425E-1,4.03625E-1
-6.99981E-1,4.50134E-1
-6.38458E-1,5.06286E-1
-6.21337E-1,5.19409E-1
-5.99578E-1,6.00067E-1
-5.35247E-1,6.25701E-1
-5.45318E-1,6.76666E-1
-4.77264E-1,7.89123E-1
-3.85070E-1,8.32824E-1
-2.83081E-1,8.98468E-1
-1.42913E-1,8.68133E-1
-1.26373E-1,8.41491E-1
-0.48858E-1,8.98193E-1
0.55786E-1,8.56658E-1
0.87616E-1,8.53637E-1
1.85852E-1,8.47930E-1
2.16766E-1,8.07495E-1
2.75909E-1,8.56292E-1
4.21234E-1,8.26080E-1
4.84497E-1,7.44415E-1
5.61248E-1,6.95220E-1
6.00158E-1,5.90850E-1
6.04522E-1,5.52734E-1
6.57592E-1,4.95910E-1
6.41265E-1,4.31335E-1
6.65374E-1,4.33044E-1
7.18475E-1,3.79699E-1
7.32482E-1,3.41552E-1
8.00384E-1,3.12683E-1
8.45703E-1,2.23297E-1
8.74694E-1,1.65466E-1
9.34875E-1,0.54962E-1
8.99322E-1,-0.75286E-1
8.67828E-1,-1.31561E-1
8.56811E-1,-2.15820E-1
8.14910E-1,-2.78381E-1
8.02642E-1,-3.45184E-1
7.41455E-1,-4.26483E-1
6.92077E-1,-4.45068E-1
6.83868E-1,-4.96124E-1
6.40808E-1,-5.63232E-1
6.05377E-1,-6.18621E-1
5.40130E-1,-6.98181E-1
4.48028E-1,-7.27996E-1
3.91754E-1,-7.55127E-1
3.04260E-1,-7.84820E-1
2.39318E-1,-7.69744E-1
1.95800E-1,-7.92755E-1
1.13159E-1,-7.97180E-1
0.64880E-1,-7.83233E-1
0.05035E-1,-7.87414E-1
-0.46936E-1,-7.64709E-1
-0.76690E-1,-7.72491E-1
-1.43432E-1,-7.88818E-1
-2.14111E-1,-7.80120E-1
-2.93151E-1,-7.67517E-1
-3.64471E-1,-7.06909E-1
-3.85131E-1,-6.75567E-1
-4.47235E-1,-6.64215E-1
-5.02349E-1,-6.13311E-1
-5.43701E-1,-5.81176E-1
-5.97045E-1,-5.22857E-1
-5.99853E-1,-4.69482E-1
-6.35498E-1,-4.61425E-1
-6.97265E-1,-4.10980E-1
-7.28057E-1,-3.54003E-1
-7.75817E-1,-2.96875E-1
-7.87780E-1,-2.10144E-1
-7.95623E-1,-1.63604E-1
-8.29895E-1,-0.85998E-1
-8.10607E-1,-0.04791E-1
-8.15490E-1,0.48645E-1
-8.00872E-1,1.42150E-1
-7.49603E-1,1.78710E-1
-7.51373E-1,2.12219E-1
-7.35778E-1,2.69439E-1
-7.33429E-1,3.08624E-1
-7.34985E-1,3.95416E-1
-6.73278E-1,4.68902E-1
-6.37756E-1,5.04150E-1
-5.97930E-1,5.59478E-1
-5.57037E-1,5.92865E-1
-5.24231E-1,6.60186E-1
-4.29748E-1,7.08862E-1
-3.79241E-1,7.02575E-1
-3.42254E-1,7.41668E-1
-2.85369E-1,7.58819E-1
-2.51586E-1,7.92724E-1
-1.71600E-1,8.43841E-1
-0.86456E-1,8.41033E-1
-0.30517E-1,8.57757E-1
0.58837E-1,8.61877E-1
1.17767E-1,8.43933E-1
1.93023E-1,8.53241E-1
2.81616E-1,8.15368E-1
3.30627E-1,7.79510E-1
3.92822E-1,7.47619E-1
4.28619E-1,7.06512E-1
4.74456E-1,6.98455E-1
5.50323E-1,6.62963E-1
5.98144E-1,6.10656E-1
6.50177E-1,5.68023E-1
6.91955E-1,5.05584E-1
7.23815E-1,4.62738E-1
7.77313E-1,4.08569E-1
8.07922E-1,3.34228E-1
8.31176E-1,2.73681E-1
8.60229E-1,2.03308E-1
8.73046E-1,1.31561E-1
8.87390E-1,0.63354E-1
8.91601E-1,-0.16571E-1
8.82568E-1,-0.87127E-1
8.77258E-1,-1.54296E-1
8.66882E-1,-2.30102E-1
8.41033E-1,-3.00506E-1
8.13842E-1,-3.64013E-1
7.83416E-1,-4.28405E-1
7.48504E-1,-4.79309E-1
7.33703E-1,-5.37719E-1
6.91070E-1,-6.32110E-1
6.18438E-1,-6.91925E-1
5.52124E-1,-7.43225E-1
4.73388E-1,-7.77038E-1
4.21508E-1,-7.93945E-1
3.67523E-1,-8.50708E-1
2.69775E-1,-8.79150E-1
1.92596E-1,-8.85131E-1
END
BEGIN
-7.79296E-1,0.66436E-1
-8.06243E-1,1.40594E-1
-7.27417E-1,2.58331E-1
-6.89819E-1,2.30316E-1
-7.68219E-1,3.15429E-1
-6.93420E-1,4.42779E-1
-6.64428E-1,4.90142E-1
-5.85784E-1,6.07421E-1
-4.88067E-1,5.89538E-1
-5.28442E-1,6.2677E-1
-4.45648E-1,7.62298E-1
-3.39599E-1,7.84362E-1
-2.36328E-1,8.37829E-1
-1.11877E-1,7.90344E-1
-1.17462E-1,7.76489E-1
-0.29937E-1,8.60900E-1
0.84594E-1,8.31848E-1
1.67572E-1,8.39202E-1
3.00323E-1,7.54180E-1
2.75421E-1,6.66412E-1
2.99957E-1,7.18353E-1
4.08660E-1,6.85607E-1
4.48333E-1,6.56799E-1
5.60577E-1,6.12396E-1
5.69091E-1,4.97558E-1
5.61645E-1,5.10620E-1
6.60888E-1,4.82605E-1
7.00164E-1,4.11346E-1
7.83844E-1,3.48907E-1
7.88482E-1,1.92504E-1
7.26257E-1,1.69677E-1
7.83294E-1,1.55578E-1
8.13842E-1,0.83129E-1
8.79211E-1,0.12786E-1
8.62121E-1,-1.78314E-1
7.29217E-1,-2.10052E-1
7.52777E-1,-1.93908E-1
7.77832E-1,-2.74627E-1
7.96081E-1,-3.50952E-1
7.65838E-1,-5.33264E-1
5.74462E-1,-5.76873E-1
5.48767E-1,-5.13336E-1
5.61676E-1,-5.64910E-1
5.45410E-1,-6.13739E-1
5.34271E-1,-7.52960E-1
3.34991E-1,-8.4375E-1
2.53387E-1,-7.53234E-1
2.56591E-1,-7.78991E-1
1.98089E-1,-8.09387E-1
1.71783E-1,-8.82141E-1
-0.25512E-1,-9.70428E-1
-1.68640E-1,-8.34442E-1
-1.56005E-1,-7.88116E-1
-2.0755E-1,-7.87780E-1
-2.22442E-1,-7.93151E-1
-3.47503E-1,-8.69171E-1
-5.21575E-1,-7.37823E-1
-4.99969E-1,-6.30432E-1
-5.27526E-1,-6.14593E-1
-5.43853E-1,-5.79834E-1
-6.11145E-1,-6.23046E-1
-7.79235E-1,-5.24078E-1
-7.58575E-1,-3.58917E-1
-7.36816E-1,-3.24737E-1
-7.40020E-1,-2.72277E-1
-7.51403E-1,-2.87200E-1
-8.97918E-1,-2.36541E-1
-9.00573E-1,-0.33630E-1
-8.26477E-1,0.11444E-1
-8.27941E-1,0.57647E-1
-8.13781E-1,0.87463E-1
-8.98010E-1,1.33972E-1
-9.00573E-1,3.40087E-1
-7.68524E-1,4.13208E-1
-7.31109E-1,4.37652E-1
-6.81121E-1,4.81628E-1
-6.82464E-1,5.03112E-1
-6.73797E-1,6.30645E-1
-5.39978E-1,7.10571E-1
-4.61853E-1,7.09747E-1
-3.97918E-1,7.20459E-1
-3.83422E-1,7.21466E-1
-3.60473E-1,8.15216E-1
-2.17193E-1,8.67187E-1
-1.40594E-1,8.36822E-1
-0.63812E-1,8.43048E-1
-0.06683E-1,7.97393E-1
-0.05249E-1,8.21075E-1
0.92468E-1,8.84857E-1
2.04284E-1,8.49945E-1
2.70446E-1,8.22235E-1
3.36242E-1,7.68829E-1
3.48907E-1,7.49054E-1
4.27917E-1,7.74627E-1
5.47912E-1,7.24456E-1
6.18713E-1,6.47033E-1
6.64032E-1,5.47515E-1
6.39892E-1,4.90753E-1
6.81091E-1,4.98626E-1
7.67028E-1,4.31976E-1
7.96844E-1,3.40789E-1
8.25164E-1,2.60253E-1
8.09265E-1,1.77337E-1
8.13720E-1,1.67297E-1
8.80432E-1,1.03546E-1
8.86169E-1,-0.03021E-1
8.89892E-1,-0.82733E-1
8.56750E-1,-2.01385E-1
7.90313E-1,-2.34314E-1
8.13690E-1,-2.6474E-1
8.13262E-1,-3.67584E-1
7.71698E-1,-4.54711E-1
7.02179E-1,-5.50720E-1
5.88012E-1,-5.68847E-1
5.74615E-1,-5.60699E-1
5.61248E-1,-6.33300E-1
4.98199E-1,-7.01843E-1
4.16442E-1,-7.65167E-1
2.89093E-1,-7.67272E-1
2.50610E-1,-7.14019E-1
2.48504E-1,-7.38647E-1
1.95495E-1,-7.87841E-1
1.16943E-1,-8.32641E-1
-0.13244E-1,-8.32733E-1
-0.74981E-1,-7.52288E-1
-0.74005E-1,-7.41455E-1
-1.17767E-1,-7.61566E-1
-1.83319E-1,-7.79876E-1
-3.00201E-1,-7.69622E-1
-3.69995E-1,-6.59851E-1
-3.48571E-1,-6.14959E-1
-3.70483E-1,-6.30127E-1
-4.29382E-1,-6.31530E-1
-5.16296E-1,-6.08917E-1
-5.77148E-1,-5.14434E-1
-5.64544E-1,-4.53155E-1
-5.80261E-1,-4.37927E-1
-6.14990E-1,-4.11071E-1
-6.65557E-1,-3.85833E-1
-7.30529E-1,-3.12164E-1
-7.21832E-1,-2.24731E-1
-7.14416E-1,-1.91772E-1
-7.26959E-1,-1.55761E-1
-7.52563E-1,-1.21826E-1
-7.99713E-1,-0.54138E-1
-7.94677E-1,0.41564E-1
-7.75573E-1,0.87005E-1
-7.74841E-1,1.32812E-1
-7.76886E-1,1.75170E-1
-8.03100E-1,2.44873E-1
-7.7948E-1,3.65387E-1
-7.02697E-1,4.21234E-1
-6.77825E-1,4.48394E-1
-6.58752E-1,4.92279E-1
-6.5271E-1,5.50720E-1
-6.13281E-1,6.49993E-1
-5.12481E-1,7.10327E-1
-4.46350E-1,7.29919E-1
-3.91174E-1,7.62054E-1
-3.44604E-1,7.96020E-1
-2.81433E-1,8.56262E-1
-1.71508E-1,8.80279E-1
-0.94055E-1,8.63067E-1
-0.33050E-1,8.56170E-1
0.16326E-1,8.52203E-1
0.77270E-1,8.77685E-1
1.75964E-1,8.81652E-1
2.56591E-1,8.45581E-1
3.22479E-1,8.11523E-1
3.67157E-1,7.70935E-1
4.13787E-1,7.61108E-1
4.97924E-1,7.40295E-1
5.71929E-1,6.76971E-1
6.17950E-1,6.13494E-1
6.49017E-1,5.54748E-1
6.77490E-1,5.21087E-1
7.33703E-1,4.79827E-1
7.84393E-1,4.09271E-1
8.10089E-1,3.33007E-1
8.26538E-1,2.65228E-1
8.40667E-1,2.05108E-1
8.61450E-1,1.41723E-1
8.79425E-1,0.71380E-1
8.83819E-1,-0.04943E-1
8.79425E-1,-0.75744E-1
8.72528E-1,-1.48895E-1
8.48785E-1,-2.23632E-1
8.22418E-1,-2.82318E-1
8.03436E-1,-3.45764E-1
7.74871E-1,-4.05426E-1
7.57690E-1,-4.66888E-1
7.17102E-1,-5.50262E-1
6.45172E-1,-6.04248E-1
5.95550E-1,-6.39312E-1
5.43731E-1,-6.80694E-1
5.08850E-1,-7.20123E-1
4.54711E-1,-7.98919E-1
3.42834E-1,-8.34747E-1
2.69744E-1,-8.22631E-1
2.13958E-1,-8.25683E-1
1.68090E-1,-8.25134E-1
END
BEGIN
-5.77575E-1,-1.4505E-1
-5.89386E-1,-0.81573E-1
-5.95275E-1,-0.13732E-1
-5.94909E-1,0.45349E-1
-5.86303E-1,1.19110E-1
-5.60791E-1,1.83929E-1
-5.35583E-1,2.47161E-1
-5.07537E-1,3.01055E-1
-4.76104E-1,3.61648E-1
-4.29916E-1,4.12139E-1
-3.83880E-1,4.51980E-1
-3.29605E-1,4.87152E-1
-2.79693E-1,5.16204E-1
-2.14263E-1,5.53863E-1
-1.50604E-1,5.65246E-1
-0.89019E-1,5.77758E-1
-0.24169E-1,5.78887E-1
0.34851E-1,5.76721E-1
0.98144E-1,5.76812E-1
1.61132E-1,5.48675E-1
2.12310E-1,5.23437E-1
2.62725E-1,4.90646E-1
3.09112E-1,4.58023E-1
3.59268E-1,4.12689E-1
3.98483E-1,3.61373E-1
4.36019E-1,3.17947E-1
4.65881E-1,2.58911E-1
4.91088E-1,2.05062E-1
5.09002E-1,1.35406E-1
5.19287E-1,0.81237E-1
5.29937E-1,0.17120E-1
5.24169E-1,-0.46478E-1
5.13641E-1,-0.92010E-1
4.98703E-1,-1.42944E-1
4.83993E-1,-1.82586E-1
4.54483E-1,-2.43194E-1
4.15832E-1,-2.80471E-1
3.90777E-1,-3.14544E-1
3.64944E-1,-3.62915E-1
3.125E-1,-3.98193E-1
2.66311E-1,-4.26406E-1
2.18383E-1,-4.46517E-1
1.63833E-1,-4.65286E-1
1.14471E-1,-4.81887E-1
0.51925E-1,-4.88433E-1
0.14373E-1,-4.89013E-1
-0.36758E-1,-4.86297E-1
-0.85479E-1,-4.77081E-1
-1.33377E-1,-4.64462E-1
-1.93985E-1,-4.57077E-1
-2.45529E-1,-4.15039E-1
-2.81387E-1,-3.95599E-1
-3.23883E-1,-3.72283E-1
-3.62609E-1,-3.39706E-1
-3.94775E-1,-3.03924E-1
-4.21554E-1,-2.59124E-1
-4.43908E-1,-2.25296E-1
-4.66507E-1,-1.76986E-1
-4.82269E-1,-1.25976E-1
-4.88525E-1,-0.72143E-1
-5.03692E-1,-0.21057E-1
-4.93850E-1,0.40832E-1
-4.83810E-1,0.86029E-1
-4.80865E-1,1.36627E-1
-4.65301E-1,1.96044E-1
-4.43557E-1,2.41912E-1
-4.18945E-1,2.85995E-1
-4.01382E-1,3.23730E-1
-3.64334E-1,3.60122E-1
-3.18695E-1,3.90853E-1
-2.67562E-1,4.09103E-1
-2.21160E-1,4.44549E-1
-1.58081E-1,4.64798E-1
-1.07254E-1,4.71618E-1
-0.58898E-1,4.86114E-1
-0.00152E-1,4.90356E-1
0.61142E-1,4.86679E-1
1.14440E-1,4.69406E-1
1.62750E-1,4.65042E-1
2.12097E-1,4.52590E-1
2.64679E-1,4.25979E-1
2.99133E-1,3.82141E-1
3.29666E-1,3.47396E-1
3.69644E-1,3.07983E-1
3.99185E-1,2.62725E-1
4.31655E-1,2.16705E-1
4.54666E-1,1.61651E-1
4.71618E-1,1.15219E-1
4.74823E-1,0.63949E-1
4.82208E-1,0.19973E-1
4.78347E-1,-0.29876E-1
4.68063E-1,-0.80535E-1
4.46411E-1,-1.24511E-1
4.30923E-1,-1.69281E-1
4.13101E-1,-2.13089E-1
3.84979E-1,-2.59704E-1
3.51974E-1,-2.97576E-1
3.14529E-1,-3.38287E-1
2.66998E-1,-3.80081E-1
2.22747E-1,-3.96743E-1
1.92718E-1,-4.19876E-1
1.62338E-1,-4.32708E-1
1.34017E-1,-4.47082E-1
0.96160E-1,-4.46029E-1
0.68115E-1,-4.41268E-1
0.37597E-1,-4.51660E-1
-0.04104E-1,-4.55444E-1
-0.42480E-1,-4.54315E-1
-0.81848E-1,-4.46411E-1
-1.13647E-1,-4.37210E-1
-1.45416E-1,-4.29229E-1
-1.82907E-1,-4.17968E-1
-2.12631E-1,-4.01977E-1
-2.46063E-1,-3.95095E-1
-2.76489E-1,-3.77899E-1
-3.00689E-1,-3.62838E-1
-3.25500E-1,-3.47702E-1
-3.49044E-1,-3.24890E-1
-3.73443E-1,-2.99102E-1
-3.93569E-1,-2.69241E-1
-4.22287E-1,-2.42797E-1
-4.50943E-1,-2.10311E-1
-4.76974E-1,-1.77658E-1
-4.95391E-1,-1.46423E-1
-5.13092E-1,-1.12457E-1
-5.28961E-1,-0.75073E-1
-5.37078E-1,-0.31189E-1
-5.40985E-1,0.05401E-1
-5.48126E-1,0.40344E-1
-5.50933E-1,0.86792E-1
-5.41107E-1,1.21948E-1
-5.35186E-1,1.68212E-1
-5.18402E-1,2.12402E-1
-5.06103E-1,2.54547E-1
-4.92782E-1,3.00048E-1
-4.71893E-1,3.40286E-1
-4.56512E-1,3.80203E-1
-4.27047E-1,4.18624E-1
-3.98773E-1,4.42138E-1
-3.74923E-1,4.72122E-1
-3.37707E-1,5.01831E-1
-3.013E-1,5.20813E-1
-2.60925E-1,5.45074E-1
-2.16552E-1,5.58166E-1
-1.75354E-1,5.77056E-1
-1.25366E-1,5.90484E-1
-0.74768E-1,5.96771E-1
-0.20263E-1,6.07849E-1
0.44586E-1,6.06262E-1
0.97198E-1,5.98907E-1
1.42883E-1,5.90850E-1
1.90033E-1,5.84991E-1
2.30499E-1,5.69335E-1
2.77435E-1,5.44769E-1
3.17688E-1,5.10711E-1
3.59237E-1,4.73312E-1
4.01931E-1,4.38308E-1
4.44152E-1,3.95645E-1
4.79126E-1,3.51715E-1
5.07202E-1,2.98034E-1
5.24200E-1,2.45636E-1
5.40100E-1,1.98852E-1
5.61950E-1,1.49505E-1
5.71991E-1,1.05590E-1
5.81207E-1,0.60180E-1
5.72631E-1,0.14923E-1
5.61218E-1,-0.27130E-1
5.47821E-1,-0.74585E-1
5.26031E-1,-1.24816E-1
5.04119E-1,-1.69433E-1
4.75509E-1,-2.20947E-1
4.40292E-1,-2.64358E-1
4.05670E-1,-2.98584E-1
3.73168E-1,-3.33557E-1
3.44177E-1,-3.64379E-1
3.04184E-1,-4.01565E-1
2.53891E-1,-4.18243E-1
2.14050E-1,-4.28253E-1
1.76101E-1,-4.41268E-1
1.36840E-1,-4.49386E-1
0.91934E-1,-4.61059E-1
0.33340E-1,-4.54650E-1
-0.11734E-1,-4.40048E-1
-0.59722E-1,-4.32281E-1
-1.03439E-1,-4.20440E-1
-1.44561E-1,-4.16534E-1
-1.94824E-1,-4.01977E-1
-2.24182E-1,-3.73748E-1
-2.50335E-1,-3.53881E-1
-2.74871E-1,-3.24417E-1
-2.91091E-1,-2.99697E-1
-3.20480E-1,-2.76474E-1
-3.47183E-1,-2.31109E-1
-3.54232E-1,-1.91207E-1
-3.62396E-1,-1.54541E-1
-3.64379E-1,-1.20468E-1
-3.76495E-1,-0.83206E-1
-3.86840E-1,-0.36712E-1
-3.81240E-1,0.06515E-1
-3.77990E-1,0.33081E-1
-3.71353E-1,0.57266E-1
END
