CITIFILE A.01.01
#NA VERSION HP8510C.08.10
NAME DATA
#NA REGISTER 4
VAR FREQ MAG 201
DATA S[1,1] RI
DATA S[2,1] RI
DATA S[1,2] RI
DATA S[2,2] RI
SEG_LIST_BEGIN
SEG 8000000000 12000000000 201
SEG_LIST_END
COMMENT       YEAR MONTH DAY HOUR MINUTE SECONDS
CONSTANT TIME 2013   12   09  21    23    51.0
BEGIN
-4.92813E-1,-2.85354E-1
-5.17730E-1,-2.33764E-1
-5.42999E-1,-1.72119E-1
-5.55603E-1,-1.18255E-1
-5.70495E-1,-0.56182E-1
-5.70556E-1,0.03326E-1
-5.66497E-1,0.61370E-1
-5.57769E-1,1.12091E-1
-5.49011E-1,1.76239E-1
-5.25878E-1,2.32727E-1
-5.03295E-1,2.82440E-1
-4.67346E-1,3.31665E-1
-4.35119E-1,3.7146E-1
-3.94287E-1,4.27398E-1
-3.45565E-1,4.60617E-1
-3.01132E-1,4.94049E-1
-2.43286E-1,5.19561E-1
-1.94732E-1,5.33721E-1
-1.41906E-1,5.59967E-1
-0.75073E-1,5.62255E-1
-0.20813E-1,5.67199E-1
0.38970E-1,5.61889E-1
0.86853E-1,5.49774E-1
1.38519E-1,5.36407E-1
1.86309E-1,5.11657E-1
2.29721E-1,4.97222E-1
2.79174E-1,4.70321E-1
3.19809E-1,4.42657E-1
3.61679E-1,4.04571E-1
3.90899E-1,3.75091E-1
4.31778E-1,3.35296E-1
4.63485E-1,2.82058E-1
4.84085E-1,2.36267E-1
5.02258E-1,1.82220E-1
5.13977E-1,1.39770E-1
5.24871E-1,0.75531E-1
5.15869E-1,0.25146E-1
5.12542E-1,-0.18188E-1
5.16387E-1,-0.68450E-1
4.92507E-1,-1.23703E-1
4.75341E-1,-1.66244E-1
4.55932E-1,-2.02560E-1
4.32327E-1,-2.44812E-1
4.10385E-1,-2.83477E-1
3.69186E-1,-3.28903E-1
3.39798E-1,-3.49960E-1
3.00750E-1,-3.77578E-1
2.64450E-1,-3.99047E-1
2.30194E-1,-4.15527E-1
1.92718E-1,-4.46716E-1
1.38977E-1,-4.46991E-1
1.12594E-1,-4.55581E-1
0.73318E-1,-4.68887E-1
0.30136E-1,-4.7229E-1
-0.13107E-1,-4.73083E-1
-0.59402E-1,-4.65515E-1
-0.91690E-1,-4.65042E-1
-1.36871E-1,-4.54818E-1
-1.74392E-1,-4.35974E-1
-2.04299E-1,-4.14413E-1
-2.44094E-1,-4.03854E-1
-2.76138E-1,-3.73397E-1
-3.02475E-1,-3.55850E-1
-3.32595E-1,-3.37966E-1
-3.60855E-1,-3.07937E-1
-3.82797E-1,-2.77877E-1
-4.06875E-1,-2.41622E-1
-4.35348E-1,-2.17300E-1
-4.54544E-1,-1.73843E-1
-4.63089E-1,-1.37512E-1
-4.64630E-1,-1.04476E-1
-4.81506E-1,-0.68161E-1
-4.88815E-1,-0.22201E-1
-4.86404E-1,0.18173E-1
-4.87609E-1,0.48843E-1
-4.86602E-1,0.85220E-1
-4.80453E-1,1.28021E-1
-4.67514E-1,1.67861E-1
-4.65332E-1,2.15103E-1
-4.47036E-1,2.59903E-1
-4.25766E-1,3.02078E-1
-3.87680E-1,3.33343E-1
-3.60382E-1,3.63998E-1
-3.24401E-1,4.08996E-1
-2.81509E-1,4.35974E-1
-2.46780E-1,4.59457E-1
-2.0047E-1,4.76242E-1
-1.59942E-1,4.88281E-1
-1.07269E-1,5.03479E-1
-0.50537E-1,5.18127E-1
0.02197E-1,5.22277E-1
0.55328E-1,5.19653E-1
1.01974E-1,4.97238E-1
1.50863E-1,4.82605E-1
2.06863E-1,4.58389E-1
2.57843E-1,4.25125E-1
2.93884E-1,3.93417E-1
3.24798E-1,3.59909E-1
3.60305E-1,3.18924E-1
3.85086E-1,2.67425E-1
4.12445E-1,2.16507E-1
4.30908E-1,1.65954E-1
4.46624E-1,1.13189E-1
4.40948E-1,0.56884E-1
4.27749E-1,0.05935E-1
4.15695E-1,-0.45211E-1
3.99231E-1,-0.93597E-1
3.81897E-1,-1.32873E-1
3.59390E-1,-1.63147E-1
3.37570E-1,-1.93725E-1
3.07846E-1,-2.26333E-1
2.78244E-1,-2.58148E-1
2.51724E-1,-2.84286E-1
2.32681E-1,-3.13949E-1
2.00592E-1,-3.39477E-1
1.57928E-1,-3.59512E-1
1.09802E-1,-3.74923E-1
0.61279E-1,-3.86978E-1
0.23956E-1,-3.94149E-1
-0.02624E-1,-3.95721E-1
-0.33447E-1,-4.02557E-1
-0.78460E-1,-3.97750E-1
-1.26144E-1,-3.90716E-1
-1.66946E-1,-3.85406E-1
-2.05719E-1,-3.89434E-1
-2.49176E-1,-3.84063E-1
-2.95333E-1,-3.57498E-1
-3.35434E-1,-3.15536E-1
-3.69979E-1,-2.80181E-1
-4.08157E-1,-2.54409E-1
-4.33609E-1,-2.31109E-1
-4.5961E-1,-1.96670E-1
-4.74151E-1,-1.48727E-1
-4.86999E-1,-0.96771E-1
-5.06683E-1,-0.54077E-1
-5.26153E-1,-0.13671E-1
-5.39032E-1,0.26306E-1
-5.34332E-1,0.75805E-1
-5.18829E-1,1.24054E-1
-5.08789E-1,1.75293E-1
-5.03875E-1,2.26684E-1
-4.92996E-1,2.65625E-1
-4.74075E-1,2.98492E-1
-4.46273E-1,3.30749E-1
-4.10980E-1,3.76647E-1
-3.79089E-1,4.19784E-1
-3.55194E-1,4.56573E-1
-3.29696E-1,4.84466E-1
-2.95837E-1,5.06012E-1
-2.44079E-1,5.27954E-1
-1.91711E-1,5.45227E-1
-1.46392E-1,5.76782E-1
-1.03393E-1,5.96984E-1
-0.65643E-1,6.01654E-1
-0.17791E-1,5.98175E-1
0.42144E-1,5.87951E-1
0.96801E-1,5.86822E-1
1.59027E-1,5.87432E-1
2.02789E-1,5.72418E-1
2.36755E-1,5.55877E-1
2.81829E-1,5.21942E-1
3.25546E-1,4.90249E-1
3.87588E-1,4.63653E-1
4.39682E-1,4.23553E-1
4.70016E-1,3.82934E-1
4.93896E-1,3.35556E-1
5.13793E-1,2.72155E-1
5.38208E-1,2.06451E-1
5.56945E-1,1.33575E-1
5.51483E-1,0.79986E-1
5.41412E-1,0.37628E-1
5.21942E-1,-0.14251E-1
5.01647E-1,-0.62011E-1
4.92401E-1,-1.21429E-1
4.75631E-1,-1.75109E-1
4.54589E-1,-2.15560E-1
4.21630E-1,-2.47802E-1
3.74954E-1,-2.78289E-1
3.30291E-1,-3.18313E-1
2.81814E-1,-3.56765E-1
2.40432E-1,-3.80035E-1
2.01995E-1,-3.85635E-1
1.62811E-1,-3.81042E-1
1.18927E-1,-3.78768E-1
0.70266E-1,-3.86840E-1
0.23712E-1,-3.98025E-1
-0.13839E-1,-3.99612E-1
-0.42907E-1,-3.86184E-1
-0.75943E-1,-3.64807E-1
-1.19903E-1,-3.38851E-1
-1.64947E-1,-3.17947E-1
-2.01293E-1,-2.98584E-1
-2.15454E-1,-2.73544E-1
-2.13661E-1,-2.47283E-1
-2.19680E-1,-2.15065E-1
-2.39608E-1,-1.85142E-1
-2.65090E-1,-1.56280E-1
-2.75299E-1,-1.46835E-1
-2.72964E-1,-1.41830E-1
-2.69653E-1,-1.28738E-1
-2.72689E-1,-0.94574E-1
END
BEGIN
-8.73565E-1,0.65490E-1
-7.88238E-1,1.45904E-1
-8.08166E-1,1.82434E-1
-7.88970E-1,3.22937E-1
-7.24884E-1,3.85620E-1
-6.80542E-1,4.90478E-1
-5.47454E-1,5.24688E-1
-5.24017E-1,4.88952E-1
-5.29052E-1,5.56366E-1
-4.73785E-1,6.02874E-1
-4.45770E-1,6.73461E-1
-3.21838E-1,7.19635E-1
-2.90435E-1,6.77246E-1
-2.98553E-1,7.65014E-1
-1.71203E-1,8.26843E-1
-1.04003E-1,8.37616E-1
0.28808E-1,8.69995E-1
1.08276E-1,7.86041E-1
1.02722E-1,8.01940E-1
2.14843E-1,8.43719E-1
2.93792E-1,8.16803E-1
4.15588E-1,8.31329E-1
5.37323E-1,7.14752E-1
5.44128E-1,6.57623E-1
6.46972E-1,6.30950E-1
6.98455E-1,5.14770E-1
7.45361E-1,4.69604E-1
8.11401E-1,3.21411E-1
7.27539E-1,2.22106E-1
7.23388E-1,2.27417E-1
7.43774E-1,1.68823E-1
7.49084E-1,1.52465E-1
8.22601E-1,0.80200E-1
7.77862E-1,-0.24505E-1
7.76306E-1,-0.13763E-1
8.52325E-1,-0.83435E-1
8.67309E-1,-1.80816E-1
9.09484E-1,-3.21991E-1
7.83172E-1,-4.99694E-1
6.73278E-1,-4.81262E-1
6.80786E-1,-5.34576E-1
5.98205E-1,-6.07055E-1
5.70037E-1,-6.38336E-1
4.81109E-1,-7.40020E-1
3.69751E-1,-7.03521E-1
3.87207E-1,-7.17468E-1
3.09509E-1,-8.02887E-1
2.43804E-1,-8.06579E-1
1.70959E-1,-8.98223E-1
-0.18463E-1,-8.70483E-1
-0.49072E-1,-7.84118E-1
-0.91186E-1,-7.90771E-1
-1.40930E-1,-7.50457E-1
-1.57928E-1,-7.74505E-1
-2.71240E-1,-7.77618E-1
-3.13262E-1,-7.12921E-1
-3.47045E-1,-7.22442E-1
-4.1922E-1,-6.94244E-1
-4.59686E-1,-7.02362E-1
-6.16668E-1,-6.88476E-1
-6.82189E-1,-5.26580E-1
-6.70532E-1,-4.74151E-1
-7.09991E-1,-3.99231E-1
-6.75781E-1,-3.54827E-1
-7.39654E-1,-3.72772E-1
-8.12347E-1,-2.58972E-1
-7.82775E-1,-1.99737E-1
-8.33679E-1,-1.69708E-1
-8.57086E-1,-0.84869E-1
-9.06646E-1,-0.33111E-1
-9.52179E-1,1.37664E-1
-8.51135E-1,2.53448E-1
-8.22143E-1,3.02825E-1
-7.49267E-1,3.92883E-1
-6.88110E-1,3.88336E-1
-6.94030E-1,4.38903E-1
-6.32904E-1,4.91821E-1
-6.24542E-1,5.07598E-1
-6.00372E-1,5.91827E-1
-5.40039E-1,6.15417E-1
-5.52124E-1,6.74133E-1
-4.75921E-1,7.88116E-1
-3.82995E-1,8.28796E-1
-2.77740E-1,8.91876E-1
-1.45935E-1,8.52600E-1
-1.362E-1,8.33557E-1
-0.52764E-1,8.93127E-1
0.47027E-1,8.49212E-1
0.78277E-1,8.53424E-1
1.79229E-1,8.49121E-1
2.08465E-1,8.125E-1
2.77557E-1,8.65142E-1
4.29016E-1,8.24157E-1
4.85015E-1,7.41088E-1
5.63140E-1,6.89880E-1
5.96221E-1,5.86395E-1
6.04431E-1,5.54931E-1
6.62750E-1,4.94079E-1
6.48315E-1,4.27490E-1
6.78039E-1,4.23400E-1
7.28668E-1,3.56628E-1
7.32879E-1,3.12988E-1
7.92205E-1,2.79022E-1
8.21929E-1,1.89239E-1
8.42224E-1,1.38793E-1
8.92913E-1,0.31066E-1
8.42224E-1,-0.83252E-1
8.1427E-1,-1.20880E-1
8.05511E-1,-1.92840E-1
7.70690E-1,-2.42492E-1
7.67181E-1,-3.02673E-1
7.14782E-1,-3.73565E-1
6.83349E-1,-3.88641E-1
6.87255E-1,-4.45648E-1
6.51458E-1,-5.16479E-1
6.23168E-1,-5.77606E-1
5.60302E-1,-6.61590E-1
4.74823E-1,-6.94335E-1
4.21112E-1,-7.28271E-1
3.33099E-1,-7.60345E-1
2.75177E-1,-7.49389E-1
2.32696E-1,-7.79663E-1
1.51977E-1,-7.89733E-1
1.03942E-1,-7.83355E-1
0.41381E-1,-7.93579E-1
-0.13641E-1,-7.75756E-1
-0.46966E-1,-7.89215E-1
-1.20819E-1,-8.08166E-1
-1.95526E-1,-7.99560E-1
-2.79083E-1,-7.84362E-1
-3.48663E-1,-7.24639E-1
-3.72558E-1,-6.96685E-1
-4.39056E-1,-6.86096E-1
-4.96887E-1,-6.33911E-1
-5.40954E-1,-6.00738E-1
-5.95001E-1,-5.41046E-1
-5.99578E-1,-4.89410E-1
-6.39892E-1,-4.80468E-1
-7.04254E-1,-4.25354E-1
-7.34924E-1,-3.66638E-1
-7.83264E-1,-3.06488E-1
-7.92999E-1,-2.18109E-1
-8.01788E-1,-1.72668E-1
-8.35052E-1,-0.92834E-1
-8.13995E-1,-0.12085E-1
-8.19946E-1,0.41961E-1
-8.02154E-1,1.34857E-1
-7.54028E-1,1.67877E-1
-7.58056E-1,2.02941E-1
-7.44049E-1,2.60650E-1
-7.42981E-1,3.02429E-1
-7.41394E-1,3.92425E-1
-6.77856E-1,4.62799E-1
-6.45172E-1,4.95788E-1
-6.06353E-1,5.51635E-1
-5.67016E-1,5.88165E-1
-5.32897E-1,6.55609E-1
-4.38690E-1,7.01568E-1
-3.91296E-1,6.96502E-1
-3.55529E-1,7.36846E-1
-3.00293E-1,7.55859E-1
-2.67059E-1,7.93304E-1
-1.83471E-1,8.44329E-1
-1.00158E-1,8.40942E-1
-0.44128E-1,8.58306E-1
0.43212E-1,8.62701E-1
1.00341E-1,8.48114E-1
1.76666E-1,8.59161E-1
2.6474E-1,8.22357E-1
3.13171E-1,7.90527E-1
3.76220E-1,7.60620E-1
4.12292E-1,7.24731E-1
4.62371E-1,7.19177E-1
5.41900E-1,6.85211E-1
5.93078E-1,6.33819E-1
6.47949E-1,5.91064E-1
6.91314E-1,5.31341E-1
7.27417E-1,4.87548E-1
7.84423E-1,4.33410E-1
8.18786E-1,3.56414E-1
8.45397E-1,2.94372E-1
8.76434E-1,2.22503E-1
8.91449E-1,1.47979E-1
9.06372E-1,0.78247E-1
9.13848E-1,-0.04119E-1
9.06158E-1,-0.77819E-1
9.01916E-1,-1.46514E-1
8.92456E-1,-2.27050E-1
8.66149E-1,-3.00079E-1
8.41125E-1,-3.64654E-1
8.11248E-1,-4.35363E-1
7.76184E-1,-4.89898E-1
7.59979E-1,-5.55511E-1
7.08953E-1,-6.53961E-1
6.33819E-1,-7.11853E-1
5.66406E-1,-7.64953E-1
4.84039E-1,-8.01116E-1
4.32251E-1,-8.20373E-1
3.70330E-1,-8.81012E-1
2.69073E-1,-9.05120E-1
1.91803E-1,-9.10980E-1
END
BEGIN
-7.90435E-1,0.60333E-1
-8.18756E-1,1.32812E-1
-7.44262E-1,2.59704E-1
-6.95220E-1,2.34985E-1
-7.73162E-1,3.09967E-1
-7.05139E-1,4.42810E-1
-6.72729E-1,4.89379E-1
-6.00647E-1,6.11694E-1
-4.92981E-1,5.99639E-1
-5.30120E-1,6.27166E-1
-4.58252E-1,7.63793E-1
-3.48693E-1,7.91595E-1
-2.48260E-1,8.48815E-1
-1.13372E-1,8.06976E-1
-1.138E-1,7.83844E-1
-0.34454E-1,8.67706E-1
0.84991E-1,8.43200E-1
1.65527E-1,8.50891E-1
3.08898E-1,7.71728E-1
2.91717E-1,6.72485E-1
3.08502E-1,7.16400E-1
4.16717E-1,6.86767E-1
4.55963E-1,6.54418E-1
5.66833E-1,6.15753E-1
5.82733E-1,4.94384E-1
5.67321E-1,4.99084E-1
6.60339E-1,4.74609E-1
6.98577E-1,4.04022E-1
7.78930E-1,3.48205E-1
7.94525E-1,1.90612E-1
7.26654E-1,1.58599E-1
7.74932E-1,1.48864E-1
8.03466E-1,0.80200E-1
8.66088E-1,0.19500E-1
8.66455E-1,-1.68792E-1
7.29553E-1,-2.15606E-1
7.41943E-1,-1.94854E-1
7.68066E-1,-2.69531E-1
7.86743E-1,-3.36792E-1
7.75970E-1,-5.14221E-1
5.86700E-1,-5.81298E-1
5.45318E-1,-5.16204E-1
5.59112E-1,-5.61706E-1
5.42602E-1,-6.08978E-1
5.40374E-1,-7.41882E-1
3.44055E-1,-8.48022E-1
2.48443E-1,-7.55401E-1
2.53631E-1,-7.71850E-1
1.98150E-1,-8.00323E-1
1.80633E-1,-8.66394E-1
-0.02197E-1,-9.72747E-1
-1.64428E-1,-8.46496E-1
-1.55487E-1,-7.89123E-1
-2.05200E-1,-7.87323E-1
-2.16644E-1,-7.85614E-1
-3.25805E-1,-8.69751E-1
-5.16143E-1,-7.57720E-1
-5.05065E-1,-6.37420E-1
-5.29449E-1,-6.17950E-1
-5.43884E-1,-5.78155E-1
-5.98236E-1,-6.25946E-1
-7.80700E-1,-5.43609E-1
-7.72155E-1,-3.63891E-1
-7.44384E-1,-3.22082E-1
-7.44781E-1,-2.65777E-1
-7.44018E-1,-2.80426E-1
-8.89404E-1,-2.50427E-1
-9.15069E-1,-0.42938E-1
-8.33343E-1,0.16143E-1
-8.30719E-1,0.63262E-1
-8.07739E-1,0.93963E-1
-8.87207E-1,1.25183E-1
-9.14337E-1,3.28674E-1
-7.77740E-1,4.23004E-1
-7.30896E-1,4.45709E-1
-6.75964E-1,4.90905E-1
-6.70105E-1,5.01007E-1
-6.75689E-1,6.20330E-1
-5.45379E-1,7.17498E-1
-4.56726E-1,7.18200E-1
-3.86932E-1,7.27813E-1
-3.67126E-1,7.16613E-1
-3.58795E-1,8.00384E-1
-2.2229E-1,8.68927E-1
-1.33819E-1,8.37463E-1
-0.57251E-1,8.43933E-1
0.10437E-1,7.9245E-1
0.02563E-1,8.00109E-1
0.82031E-1,8.71246E-1
2.0047E-1,8.47717E-1
2.69805E-1,8.19488E-1
3.43841E-1,7.63122E-1
3.51928E-1,7.29980E-1
4.15924E-1,7.61413E-1
5.36651E-1,7.25189E-1
6.15753E-1,6.51550E-1
6.75140E-1,5.49591E-1
6.48986E-1,4.74151E-1
6.76483E-1,4.85626E-1
7.73529E-1,4.24987E-1
8.07617E-1,3.17260E-1
8.26477E-1,2.24334E-1
7.91137E-1,1.33667E-1
7.76977E-1,1.31652E-1
8.32855E-1,0.79498E-1
8.31695E-1,-0.13427E-1
8.31665E-1,-0.78765E-1
8.05511E-1,-1.81366E-1
7.43927E-1,-2.09533E-1
7.66052E-1,-2.28118E-1
7.75726E-1,-3.14361E-1
7.49664E-1,-3.93554E-1
7.00622E-1,-4.86908E-1
5.99639E-1,-5.22644E-1
5.80719E-1,-5.16449E-1
5.77117E-1,-5.83038E-1
5.27313E-1,-6.55639E-1
4.57336E-1,-7.28424E-1
3.32000E-1,-7.52319E-1
2.78045E-1,-7.04620E-1
2.74322E-1,-7.20184E-1
2.30896E-1,-7.70019E-1
1.61743E-1,-8.21075E-1
0.35278E-1,-8.42498E-1
-0.47424E-1,-7.70172E-1
-0.50903E-1,-7.48291E-1
-0.89813E-1,-7.67364E-1
-1.50665E-1,-7.89764E-1
-2.66571E-1,-7.96173E-1
-3.60443E-1,-6.92871E-1
-3.45184E-1,-6.32476E-1
-3.59985E-1,-6.42059E-1
-4.13421E-1,-6.47094E-1
-5.00762E-1,-6.33697E-1
-5.75653E-1,-5.43853E-1
-5.68237E-1,-4.71435E-1
-5.80444E-1,-4.52331E-1
-6.13922E-1,-4.26116E-1
-6.62109E-1,-4.04937E-1
-7.33306E-1,-3.37402E-1
-7.33856E-1,-2.43713E-1
-7.24762E-1,-2.03887E-1
-7.34710E-1,-1.65313E-1
-7.56378E-1,-1.32171E-1
-8.07220E-1,-0.68695E-1
-8.08349E-1,0.29266E-1
-7.87628E-1,0.79925E-1
-7.84515E-1,1.28204E-1
-7.81494E-1,1.69738E-1
-8.08258E-1,2.33520E-1
-7.94677E-1,3.52325E-1
-7.19482E-1,4.17327E-1
-6.91009E-1,4.47540E-1
-6.68212E-1,4.91241E-1
-6.61651E-1,5.44250E-1
-6.27685E-1,6.41693E-1
-5.31066E-1,7.09014E-1
-4.62188E-1,7.33917E-1
-4.03045E-1,7.67730E-1
-3.54187E-1,7.97699E-1
-2.94708E-1,8.56628E-1
-1.88293E-1,8.86596E-1
-1.07055E-1,8.72558E-1
-0.42297E-1,8.67279E-1
0.11688E-1,8.61358E-1
0.69793E-1,8.83941E-1
1.65679E-1,8.90777E-1
2.47253E-1,8.57330E-1
3.14758E-1,8.24890E-1
3.65173E-1,7.84698E-1
4.12292E-1,7.70904E-1
4.95147E-1,7.50885E-1
5.69580E-1,6.90277E-1
6.18530E-1,6.27105E-1
6.53289E-1,5.67962E-1
6.82006E-1,5.30090E-1
7.36022E-1,4.89379E-1
7.88421E-1,4.19555E-1
8.15368E-1,3.43078E-1
8.33068E-1,2.74810E-1
8.47473E-1,2.12982E-1
8.68255E-1,1.49719E-1
8.86169E-1,0.79772E-1
8.90197E-1,0.02929E-1
8.87451E-1,-0.67565E-1
8.81042E-1,-1.40777E-1
8.58947E-1,-2.15728E-1
8.34655E-1,-2.75604E-1
8.15582E-1,-3.40576E-1
7.87292E-1,-4.01428E-1
7.72094E-1,-4.62768E-1
7.35168E-1,-5.47637E-1
6.63726E-1,-6.05346E-1
6.13403E-1,-6.44287E-1
5.60302E-1,-6.88110E-1
5.25116E-1,-7.27508E-1
4.73419E-1,-8.08532E-1
3.61969E-1,-8.49945E-1
2.86102E-1,-8.41522E-1
2.26654E-1,-8.47320E-1
1.77673E-1,-8.48754E-1
END
BEGIN
-5.81543E-1,-0.93139E-1
-5.88348E-1,-0.28717E-1
-5.87890E-1,0.39367E-1
-5.81787E-1,0.99121E-1
-5.66772E-1,1.72607E-1
-5.35095E-1,2.34771E-1
-5.04364E-1,2.95532E-1
-4.70382E-1,3.46603E-1
-4.32586E-1,4.03564E-1
-3.81912E-1,4.49920E-1
-3.31893E-1,4.84558E-1
-2.74200E-1,5.13641E-1
-2.21283E-1,5.36651E-1
-1.52313E-1,5.67321E-1
-0.87036E-1,5.71441E-1
-0.24231E-1,5.76904E-1
0.40069E-1,5.71136E-1
0.97656E-1,5.62133E-1
1.60461E-1,5.54748E-1
2.19696E-1,5.18463E-1
2.67807E-1,4.86602E-1
3.14315E-1,4.48196E-1
3.56399E-1,4.09668E-1
4.01062E-1,3.59115E-1
4.33151E-1,3.04199E-1
4.64599E-1,2.55950E-1
4.87060E-1,1.93603E-1
5.04608E-1,1.37359E-1
5.14434E-1,0.66864E-1
5.18890E-1,0.12725E-1
5.20904E-1,-0.50750E-1
5.06774E-1,-1.11785E-1
4.90341E-1,-1.55777E-1
4.69528E-1,-2.04071E-1
4.49523E-1,-2.41516E-1
4.13040E-1,-2.97119E-1
3.69995E-1,-3.27850E-1
3.41095E-1,-3.57101E-1
3.09616E-1,-4.01016E-1
2.54211E-1,-4.29443E-1
2.05886E-1,-4.50973E-1
1.57012E-1,-4.64294E-1
1.02996E-1,-4.75540E-1
0.56259E-1,-4.88281E-1
-0.08804E-1,-4.92813E-1
-0.49957E-1,-4.90005E-1
-1.02066E-1,-4.79721E-1
-1.50222E-1,-4.63806E-1
-1.97357E-1,-4.44702E-1
-2.57217E-1,-4.28787E-1
-3.03726E-1,-3.80737E-1
-3.36685E-1,-3.56231E-1
-3.75259E-1,-3.27606E-1
-4.09088E-1,-2.89825E-1
-4.36676E-1,-2.49847E-1
-4.58297E-1,-2.00164E-1
-4.76455E-1,-1.62277E-1
-4.93011E-1,-1.10595E-1
-5.02044E-1,-0.56640E-1
-5.00335E-1,-0.01007E-1
-5.05737E-1,0.52948E-1
-4.87365E-1,1.09481E-1
-4.74411E-1,1.54983E-1
-4.65896E-1,2.06466E-1
-4.42428E-1,2.64755E-1
-4.15023E-1,3.07968E-1
-3.82690E-1,3.49792E-1
-3.57742E-1,3.84887E-1
-3.14315E-1,4.17221E-1
-2.62435E-1,4.42855E-1
-2.08374E-1,4.55184E-1
-1.54022E-1,4.85000E-1
-0.87097E-1,4.95086E-1
-0.34347E-1,4.94323E-1
0.17944E-1,5.02075E-1
0.78033E-1,4.98214E-1
1.40152E-1,4.85717E-1
1.91528E-1,4.59060E-1
2.38555E-1,4.46655E-1
2.86788E-1,4.26086E-1
3.36502E-1,3.91052E-1
3.65371E-1,3.41186E-1
3.90914E-1,3.00521E-1
4.23873E-1,2.55325E-1
4.46609E-1,2.05108E-1
4.72488E-1,1.54281E-1
4.87823E-1,0.97244E-1
4.9823E-1,0.48049E-1
4.92858E-1,-0.02746E-1
4.94033E-1,-0.46142E-1
4.84268E-1,-0.95306E-1
4.69451E-1,-1.45431E-1
4.44091E-1,-1.88720E-1
4.23324E-1,-2.33017E-1
4.00329E-1,-2.75253E-1
3.66134E-1,-3.18924E-1
3.28857E-1,-3.52233E-1
2.89459E-1,-3.90472E-1
2.39318E-1,-4.28482E-1
1.98242E-1,-4.44427E-1
1.67984E-1,-4.71817E-1
1.32675E-1,-4.89334E-1
0.94848E-1,-5.06927E-1
0.46905E-1,-5.06164E-1
0.08895E-1,-4.99710E-1
-0.32775E-1,-5.04547E-1
-0.83679E-1,-4.98168E-1
-1.27594E-1,-4.85061E-1
-1.71798E-1,-4.65713E-1
-2.06466E-1,-4.43237E-1
-2.38098E-1,-4.23416E-1
-2.72476E-1,-4.00634E-1
-2.96676E-1,-3.76098E-1
-3.25149E-1,-3.60549E-1
-3.50158E-1,-3.36257E-1
-3.67843E-1,-3.1604E-1
-3.87451E-1,-2.96646E-1
-4.06951E-1,-2.70095E-1
-4.27261E-1,-2.39959E-1
-4.42932E-1,-2.03689E-1
-4.65713E-1,-1.70471E-1
-4.86099E-1,-1.33102E-1
-5.02868E-1,-0.97229E-1
-5.12115E-1,-0.65094E-1
-5.21179E-1,-0.30853E-1
-5.27923E-1,0.05859E-1
-5.28930E-1,0.48614E-1
-5.27282E-1,0.83770E-1
-5.28839E-1,1.17431E-1
-5.24505E-1,1.60125E-1
-5.09338E-1,1.91192E-1
-4.97772E-1,2.33749E-1
-4.75570E-1,2.75009E-1
-4.58221E-1,3.14056E-1
-4.40109E-1,3.55392E-1
-4.16168E-1,3.90396E-1
-3.98010E-1,4.25643E-1
-3.64486E-1,4.58114E-1
-3.33953E-1,4.77340E-1
-3.04626E-1,5.02655E-1
-2.65625E-1,5.26580E-1
-2.28271E-1,5.40069E-1
-1.86248E-1,5.58532E-1
-1.41326E-1,5.65277E-1
-0.97442E-1,5.77728E-1
-0.46112E-1,5.83129E-1
0.0354E-1,5.83313E-1
0.58349E-1,5.87554E-1
1.21582E-1,5.77514E-1
1.72546E-1,5.63140E-1
2.14813E-1,5.45654E-1
2.56256E-1,5.32653E-1
2.93090E-1,5.13427E-1
3.35159E-1,4.84756E-1
3.70666E-1,4.46411E-1
4.07348E-1,4.02664E-1
4.41818E-1,3.61999E-1
4.77371E-1,3.16345E-1
5.06103E-1,2.67547E-1
5.26184E-1,2.11883E-1
5.34545E-1,1.56585E-1
5.40649E-1,1.08947E-1
5.53863E-1,0.59478E-1
5.56030E-1,0.15350E-1
5.58105E-1,-0.29815E-1
5.41290E-1,-0.72937E-1
5.19805E-1,-1.12091E-1
4.97711E-1,-1.53610E-1
4.68429E-1,-1.97982E-1
4.40048E-1,-2.37106E-1
4.05380E-1,-2.82684E-1
3.63510E-1,-3.19030E-1
3.24295E-1,-3.43292E-1
2.89444E-1,-3.68698E-1
2.57110E-1,-3.93173E-1
2.13516E-1,-4.23904E-1
1.60568E-1,-4.31778E-1
1.20239E-1,-4.33120E-1
0.83725E-1,-4.37515E-1
0.45425E-1,-4.37698E-1
0.00579E-1,-4.41711E-1
-0.57159E-1,-4.25125E-1
-0.98983E-1,-4.02298E-1
-1.41662E-1,-3.86917E-1
-1.80221E-1,-3.68331E-1
-2.17483E-1,-3.58413E-1
-2.63336E-1,-3.35327E-1
-2.85507E-1,-3.01040E-1
-3.05343E-1,-2.76855E-1
-3.22769E-1,-2.42614E-1
-3.32901E-1,-2.15957E-1
-3.56201E-1,-1.86416E-1
-3.72863E-1,-1.35162E-1
-3.70712E-1,-0.93307E-1
-3.69628E-1,-0.54977E-1
-3.63266E-1,-0.21255E-1
-3.66088E-1,0.18737E-1
-3.63815E-1,0.65185E-1
-3.46923E-1,1.05011E-1
-3.36212E-1,1.28433E-1
-3.21563E-1,1.49276E-1
END
