CITIFILE A.01.01
#NA VERSION HP8510C.08.10
NAME DATA
#NA REGISTER 4
VAR FREQ MAG 201
DATA S[1,1] RI
DATA S[2,1] RI
DATA S[1,2] RI
DATA S[2,2] RI
SEG_LIST_BEGIN
SEG 8000000000 12000000000 201
SEG_LIST_END
COMMENT       YEAR MONTH DAY HOUR MINUTE SECONDS
CONSTANT TIME 2013   12   09  21    17    20.0
BEGIN
-5.04913E-1,-2.55706E-1
-5.2771E-1,-2.02941E-1
-5.4776E-1,-1.40136E-1
-5.57708E-1,-0.85174E-1
-5.68542E-1,-0.22796E-1
-5.64453E-1,0.36895E-1
-5.57251E-1,0.94818E-1
-5.44891E-1,1.45019E-1
-5.32714E-1,2.07031E-1
-5.05798E-1,2.62603E-1
-4.79644E-1,3.09906E-1
-4.40811E-1,3.56384E-1
-4.05960E-1,3.93875E-1
-3.63708E-1,4.46517E-1
-3.11340E-1,4.76501E-1
-2.66357E-1,5.05950E-1
-2.06756E-1,5.27984E-1
-1.56921E-1,5.38757E-1
-1.03363E-1,5.60668E-1
-0.37231E-1,5.59387E-1
0.16906E-1,5.60089E-1
0.75164E-1,5.51879E-1
1.23626E-1,5.37200E-1
1.74194E-1,5.19165E-1
2.20413E-1,4.90951E-1
2.62100E-1,4.74243E-1
3.08746E-1,4.42825E-1
3.47839E-1,4.10873E-1
3.85498E-1,3.68896E-1
4.12002E-1,3.37142E-1
4.48257E-1,2.95578E-1
4.75174E-1,2.42126E-1
4.92813E-1,1.94671E-1
5.06073E-1,1.38977E-1
5.14373E-1,0.96862E-1
5.21392E-1,0.32409E-1
5.09460E-1,-0.17120E-1
5.02533E-1,-0.60028E-1
5.01678E-1,-1.11724E-1
4.72427E-1,-1.65115E-1
4.51217E-1,-2.07336E-1
4.27398E-1,-2.44094E-1
3.98025E-1,-2.84271E-1
3.66943E-1,-3.20190E-1
3.18618E-1,-3.54019E-1
2.90649E-1,-3.65631E-1
2.53738E-1,-3.88214E-1
2.18551E-1,-4.06936E-1
1.84021E-1,-4.20623E-1
1.46438E-1,-4.47067E-1
0.93093E-1,-4.42428E-1
0.67092E-1,-4.47509E-1
0.28411E-1,-4.57016E-1
-0.14434E-1,-4.57077E-1
-0.54870E-1,-4.52758E-1
-0.9935E-1,-4.41131E-1
-1.29470E-1,-4.36965E-1
-1.72042E-1,-4.23187E-1
-2.07122E-1,-4.01413E-1
-2.34146E-1,-3.75045E-1
-2.66540E-1,-3.60397E-1
-2.89382E-1,-3.30871E-1
-3.15841E-1,-3.16238E-1
-3.45001E-1,-2.95837E-1
-3.69873E-1,-2.64236E-1
-3.87695E-1,-2.33932E-1
-4.07638E-1,-1.97204E-1
-4.32144E-1,-1.72409E-1
-4.47555E-1,-1.29882E-1
-4.52163E-1,-0.92758E-1
-4.49737E-1,-0.61843E-1
-4.63516E-1,-0.26702E-1
-4.66384E-1,0.17334E-1
-4.60693E-1,0.55053E-1
-4.58572E-1,0.84549E-1
-4.53811E-1,1.19308E-1
-4.45373E-1,1.58615E-1
-4.28909E-1,1.95648E-1
-4.24087E-1,2.37960E-1
-4.03610E-1,2.79754E-1
-3.79913E-1,3.18954E-1
-3.40576E-1,3.43933E-1
-3.13842E-1,3.72161E-1
-2.7742E-1,4.12460E-1
-2.34146E-1,4.35714E-1
-1.98028E-1,4.55200E-1
-1.52603E-1,4.67590E-1
-1.11648E-1,4.76242E-1
-0.61431E-1,4.87457E-1
-0.05889E-1,4.96917E-1
0.46676E-1,4.97146E-1
0.96145E-1,4.90478E-1
1.40197E-1,4.65850E-1
1.88751E-1,4.47158E-1
2.41760E-1,4.19036E-1
2.89215E-1,3.80966E-1
3.20266E-1,3.45077E-1
3.48480E-1,3.11050E-1
3.80706E-1,2.65960E-1
4.00985E-1,2.12616E-1
4.22912E-1,1.60598E-1
4.38430E-1,1.07360E-1
4.50180E-1,0.50659E-1
4.39254E-1,-0.09994E-1
4.18777E-1,-0.64651E-1
3.95355E-1,-1.20727E-1
3.63815E-1,-1.68106E-1
3.31344E-1,-2.01522E-1
2.97927E-1,-2.22106E-1
2.68127E-1,-2.40448E-1
2.34191E-1,-2.59246E-1
2.03277E-1,-2.77740E-1
1.79336E-1,-2.9216E-1
1.63162E-1,-3.12103E-1
1.35849E-1,-3.29284E-1
1.00738E-1,-3.42086E-1
0.60226E-1,-3.52676E-1
0.19622E-1,-3.63876E-1
-0.11795E-1,-3.72314E-1
-0.35705E-1,-3.76236E-1
-0.67520E-1,-3.84185E-1
-1.11541E-1,-3.78234E-1
-1.56768E-1,-3.67614E-1
-1.94549E-1,-3.61923E-1
-2.30911E-1,-3.67797E-1
-2.75772E-1,-3.64807E-1
-3.25378E-1,-3.38958E-1
-3.70254E-1,-2.93136E-1
-4.04937E-1,-2.50976E-1
-4.40918E-1,-2.17773E-1
-4.61715E-1,-1.88583E-1
-4.83184E-1,-1.52435E-1
-4.93423E-1,-1.00616E-1
-5.00305E-1,-0.48706E-1
-5.14465E-1,-0.04180E-1
-5.29052E-1,0.36956E-1
-5.36773E-1,0.75683E-1
-5.30578E-1,1.24511E-1
-5.08728E-1,1.72637E-1
-4.96139E-1,2.21542E-1
-4.86450E-1,2.71499E-1
-4.71298E-1,3.07983E-1
-4.49157E-1,3.40087E-1
-4.16305E-1,3.72543E-1
-3.80416E-1,4.13330E-1
-3.44970E-1,4.53582E-1
-3.17718E-1,4.86618E-1
-2.91229E-1,5.12451E-1
-2.52716E-1,5.32257E-1
-1.99707E-1,5.50262E-1
-1.46789E-1,5.62744E-1
-0.99273E-1,5.90698E-1
-0.56366E-1,6.05560E-1
-0.16082E-1,6.07940E-1
0.31799E-1,6.01959E-1
0.91430E-1,5.86547E-1
1.46331E-1,5.81848E-1
2.06543E-1,5.76843E-1
2.50335E-1,5.58837E-1
2.85095E-1,5.37353E-1
3.28002E-1,4.99877E-1
3.70376E-1,4.64416E-1
4.27764E-1,4.32540E-1
4.76745E-1,3.89572E-1
5.04333E-1,3.46252E-1
5.25207E-1,2.97729E-1
5.44799E-1,2.31781E-1
5.65521E-1,1.63848E-1
5.81237E-1,0.9021E-1
5.73730E-1,0.32928E-1
5.61126E-1,-0.13214E-1
5.38848E-1,-0.68603E-1
5.12512E-1,-1.19018E-1
4.96337E-1,-1.79016E-1
4.73846E-1,-2.32543E-1
4.47967E-1,-2.73208E-1
4.10751E-1,-3.06320E-1
3.57772E-1,-3.35662E-1
3.08548E-1,-3.73199E-1
2.55615E-1,-4.09347E-1
2.09549E-1,-4.31518E-1
1.65679E-1,-4.36447E-1
1.20025E-1,-4.29641E-1
0.72464E-1,-4.22149E-1
0.20355E-1,-4.24331E-1
-0.29174E-1,-4.29901E-1
-0.6987E-1,-4.27261E-1
-1.02172E-1,-4.09027E-1
-1.36520E-1,-3.83300E-1
-1.81121E-1,-3.53347E-1
-2.26898E-1,-3.27377E-1
-2.63961E-1,-3.02825E-1
-2.82318E-1,-2.72079E-1
-2.81402E-1,-2.38281E-1
-2.86407E-1,-2.00698E-1
-3.03787E-1,-1.64108E-1
-3.25943E-1,-1.29577E-1
-3.33602E-1,-1.13861E-1
-3.28384E-1,-1.00860E-1
-3.20373E-1,-0.85159E-1
-3.21868E-1,-0.47622E-1
END
BEGIN
-8.84307E-1,0.38909E-1
-8.01879E-1,1.30645E-1
-8.17901E-1,1.63543E-1
-8.08532E-1,3.03039E-1
-7.44689E-1,3.72253E-1
-7.06085E-1,4.80712E-1
-5.70800E-1,5.27099E-1
-5.36651E-1,4.91088E-1
-5.43335E-1,5.52429E-1
-4.87518E-1,6.00952E-1
-4.63378E-1,6.67846E-1
-3.40972E-1,7.23419E-1
-2.99621E-1,6.79077E-1
-3.13079E-1,7.56774E-1
-1.91803E-1,8.26812E-1
-1.24359E-1,8.38439E-1
0.02777E-1,8.79303E-1
0.96710E-1,7.98370E-1
0.88867E-1,8.04046E-1
1.92596E-1,8.50799E-1
2.73101E-1,8.25714E-1
3.86840E-1,8.48907E-1
5.21545E-1,7.43164E-1
5.32684E-1,6.77185E-1
6.31256E-1,6.58294E-1
6.93664E-1,5.43701E-1
7.40142E-1,4.99328E-1
8.21868E-1,3.56536E-1
7.45117E-1,2.38861E-1
7.3172E-1,2.38464E-1
7.51159E-1,1.78863E-1
7.50885E-1,1.60827E-1
8.23913E-1,0.97534E-1
7.86010E-1,-0.12756E-1
7.73620E-1,-0.05493E-1
8.46984E-1,-0.63262E-1
8.65936E-1,-1.55822E-1
9.17877E-1,-2.85034E-1
8.12561E-1,-4.76593E-1
6.89971E-1,-4.71527E-1
6.97143E-1,-5.17150E-1
6.15844E-1,-5.94940E-1
5.84716E-1,-6.20239E-1
5.05676E-1,-7.20611E-1
3.95935E-1,-6.92291E-1
4.12902E-1,-7.02911E-1
3.45825E-1,-7.94006E-1
2.76123E-1,-8.02398E-1
2.15332E-1,-8.9505E-1
0.23071E-1,-8.93615E-1
-0.25787E-1,-8.05175E-1
-0.68450E-1,-8.09478E-1
-1.25305E-1,-7.69012E-1
-1.38732E-1,-7.86102E-1
-2.49298E-1,-7.99011E-1
-3.00231E-1,-7.33032E-1
-3.31024E-1,-7.38555E-1
-4.04235E-1,-7.13195E-1
-4.39880E-1,-7.18353E-1
-5.88531E-1,-7.21710E-1
-6.78802E-1,-5.67260E-1
-6.69647E-1,-5.01678E-1
-7.13592E-1,-4.30511E-1
-6.82006E-1,-3.74328E-1
-7.33886E-1,-3.95111E-1
-8.15948E-1,-2.90435E-1
-7.88970E-1,-2.2229E-1
-8.34381E-1,-1.96594E-1
-8.62091E-1,-1.12762E-1
-9.08416E-1,-0.66711E-1
-9.71435E-1,0.90850E-1
-8.84796E-1,2.23754E-1
-8.54278E-1,2.78717E-1
-7.88696E-1,3.78356E-1
-7.20031E-1,3.84491E-1
-7.22503E-1,4.30969E-1
-6.61560E-1,4.91973E-1
-6.45813E-1,5.06012E-1
-6.26281E-1,5.87493E-1
-5.62042E-1,6.16912E-1
-5.72692E-1,6.68304E-1
-5.07934E-1,7.82470E-1
-4.17083E-1,8.30139E-1
-3.17474E-1,8.99749E-1
-1.77887E-1,8.77014E-1
-1.57836E-1,8.52691E-1
-0.81115E-1,9.13452E-1
0.27648E-1,8.77349E-1
0.62591E-1,8.76556E-1
1.65069E-1,8.76037E-1
2.01416E-1,8.36242E-1
2.63580E-1,8.85040E-1
4.14825E-1,8.56201E-1
4.82269E-1,7.74292E-1
5.63201E-1,7.25494E-1
6.08459E-1,6.18713E-1
6.18042E-1,5.78949E-1
6.79107E-1,5.18524E-1
6.68975E-1,4.42993E-1
6.93939E-1,4.33685E-1
7.45819E-1,3.66210E-1
7.48535E-1,3.17230E-1
8.03863E-1,2.81616E-1
8.34350E-1,1.91497E-1
8.49914E-1,1.37817E-1
8.98742E-1,0.34637E-1
8.51348E-1,-0.84533E-1
8.16223E-1,-1.24176E-1
8.05175E-1,-1.93054E-1
7.68249E-1,-2.40448E-1
7.63488E-1,-2.95684E-1
7.15087E-1,-3.65448E-1
6.80389E-1,-3.79272E-1
6.85516E-1,-4.29443E-1
6.56066E-1,-4.97924E-1
6.32568E-1,-5.57159E-1
5.78094E-1,-6.42669E-1
4.95758E-1,-6.81823E-1
4.45434E-1,-7.20886E-1
3.59771E-1,-7.62115E-1
2.93792E-1,-7.58758E-1
2.44903E-1,-7.88482E-1
1.58172E-1,-7.99011E-1
1.03424E-1,-7.88543E-1
0.39856E-1,-7.92572E-1
-0.15899E-1,-7.68219E-1
-0.44128E-1,-7.71667E-1
-1.04064E-1,-7.89733E-1
-1.71478E-1,-7.87200E-1
-2.49572E-1,-7.82043E-1
-3.24279E-1,-7.30316E-1
-3.51104E-1,-7.00073E-1
-4.14184E-1,-6.92352E-1
-4.75219E-1,-6.44287E-1
-5.18859E-1,-6.13678E-1
-5.77270E-1,-5.57830E-1
-5.84411E-1,-5.02288E-1
-6.20178E-1,-4.95117E-1
-6.86065E-1,-4.45526E-1
-7.19055E-1,-3.88214E-1
-7.69317E-1,-3.32763E-1
-7.85949E-1,-2.45788E-1
-7.94860E-1,-1.98608E-1
-8.32214E-1,-1.21704E-1
-8.16772E-1,-0.38787E-1
-8.23852E-1,0.14068E-1
-8.12988E-1,1.09436E-1
-7.62664E-1,1.49993E-1
-7.64556E-1,1.83807E-1
-7.51525E-1,2.41668E-1
-7.49908E-1,2.81005E-1
-7.53936E-1,3.68072E-1
-6.95373E-1,4.44030E-1
-6.60553E-1,4.80957E-1
-6.23077E-1,5.37414E-1
-5.83496E-1,5.72418E-1
-5.52307E-1,6.40869E-1
-4.61822E-1,6.93420E-1
-4.09210E-1,6.89605E-1
-3.74908E-1,7.28363E-1
-3.17871E-1,7.48687E-1
-2.86834E-1,7.83996E-1
-2.09564E-1,8.38165E-1
-1.24908E-1,8.39233E-1
-0.68542E-1,8.57971E-1
0.19592E-1,8.66577E-1
0.80352E-1,8.51928E-1
1.56005E-1,8.64379E-1
2.45391E-1,8.30963E-1
2.95867E-1,7.97454E-1
3.60717E-1,7.67639E-1
3.97338E-1,7.27783E-1
4.42932E-1,7.22808E-1
5.21759E-1,6.91833E-1
5.72418E-1,6.40960E-1
6.27288E-1,6.00708E-1
6.71142E-1,5.40374E-1
7.05413E-1,5.00518E-1
7.62756E-1,4.48059E-1
7.97271E-1,3.72833E-1
8.23516E-1,3.13507E-1
8.5495E-1,2.45605E-1
8.71917E-1,1.73675E-1
8.89801E-1,1.06872E-1
8.98681E-1,0.26763E-1
8.93432E-1,-0.44616E-1
8.91723E-1,-1.12945E-1
8.85314E-1,-1.89239E-1
8.63098E-1,-2.61901E-1
8.39782E-1,-3.27209E-1
8.12011E-1,-3.94683E-1
7.79907E-1,-4.47662E-1
7.66265E-1,-5.07965E-1
7.29553E-1,-6.05865E-1
6.58569E-1,-6.70593E-1
5.95428E-1,-7.25769E-1
5.16601E-1,-7.65686E-1
4.65972E-1,-7.85980E-1
4.12780E-1,-8.46649E-1
3.13964E-1,-8.82324E-1
2.36114E-1,-8.91479E-1
END
BEGIN
-7.93792E-1,0.47485E-1
-8.22052E-1,1.20178E-1
-7.47863E-1,2.43591E-1
-7.05230E-1,2.18902E-1
-7.84149E-1,2.98126E-1
-7.15820E-1,4.29657E-1
-6.85852E-1,4.77325E-1
-6.13037E-1,5.98480E-1
-5.10955E-1,5.86792E-1
-5.50537E-1,6.19781E-1
-4.74670E-1,7.57659E-1
-3.67889E-1,7.86102E-1
-2.66204E-1,8.44024E-1
-1.36566E-1,8.02551E-1
-1.38092E-1,7.85095E-1
-0.56243E-1,8.70971E-1
0.61920E-1,8.47351E-1
1.44439E-1,8.57574E-1
2.82959E-1,7.79113E-1
2.66449E-1,6.86828E-1
2.88269E-1,7.34558E-1
3.97735E-1,7.05413E-1
4.38720E-1,6.75628E-1
5.51513E-1,6.36291E-1
5.67413E-1,5.19897E-1
5.58136E-1,5.27618E-1
6.55975E-1,5.03082E-1
6.97204E-1,4.32342E-1
7.81494E-1,3.73565E-1
7.95318E-1,2.16918E-1
7.32482E-1,1.87225E-1
7.86590E-1,1.75689E-1
8.17718E-1,1.03729E-1
8.82965E-1,0.37689E-1
8.78265E-1,-1.52832E-1
7.45056E-1,-1.95678E-1
7.62146E-1,-1.78161E-1
7.89367E-1,-2.57324E-1
8.07739E-1,-3.29925E-1
7.89367E-1,-5.10650E-1
5.99456E-1,-5.68939E-1
5.65094E-1,-5.05889E-1
5.77789E-1,-5.54321E-1
5.61676E-1,-6.01348E-1
5.57891E-1,-7.34283E-1
3.70208E-1,-8.35784E-1
2.81219E-1,-7.52594E-1
2.82836E-1,-7.76397E-1
2.25647E-1,-8.08410E-1
2.03704E-1,-8.78479E-1
0.15991E-1,-9.79339E-1
-1.39679E-1,-8.54461E-1
-1.32782E-1,-8.03649E-1
-1.84570E-1,-8.04290E-1
-1.99585E-1,-8.06732E-1
-3.15002E-1,-8.87176E-1
-5.00457E-1,-7.71209E-1
-4.88464E-1,-6.57836E-1
-5.16296E-1,-6.40747E-1
-5.34179E-1,-6.03790E-1
-5.96405E-1,-6.49383E-1
-7.69744E-1,-5.58990E-1
-7.61749E-1,-3.89923E-1
-7.39257E-1,-3.51135E-1
-7.44293E-1,-2.95684E-1
-7.49298E-1,-3.09173E-1
-8.96087E-1,-2.70996E-1
-9.16198E-1,-0.67047E-1
-8.4021E-1,-0.12207E-1
-8.41217E-1,0.35217E-1
-8.23791E-1,0.67169E-1
-9.05700E-1,1.04705E-1
-9.25903E-1,3.08532E-1
-7.95929E-1,3.96118E-1
-7.55462E-1,4.21997E-1
-7.05139E-1,4.69116E-1
-7.0224E-1,4.8703E-1
-7.03918E-1,6.11602E-1
-5.76202E-1,7.04498E-1
-4.91424E-1,7.09411E-1
-4.25018E-1,7.23632E-1
-4.05609E-1,7.20886E-1
-3.92211E-1,8.09845E-1
-2.52960E-1,8.75976E-1
-1.68579E-1,8.49700E-1
-0.89843E-1,8.59710E-1
-0.23162E-1,8.14392E-1
-0.25421E-1,8.31024E-1
0.63964E-1,9.02435E-1
1.83837E-1,8.76861E-1
2.56378E-1,8.50158E-1
3.31298E-1,7.95593E-1
3.43505E-1,7.67303E-1
4.17999E-1,7.97699E-1
5.43365E-1,7.55157E-1
6.23413E-1,6.78527E-1
6.80511E-1,5.75775E-1
6.5802E-1,5.06469E-1
6.97448E-1,5.15502E-1
7.98675E-1,4.43420E-1
8.29711E-1,3.30474E-1
8.48449E-1,2.32696E-1
8.09448E-1,1.42028E-1
8.02368E-1,1.38061E-1
8.58398E-1,0.72204E-1
8.46954E-1,-0.26001E-1
8.39080E-1,-0.92804E-1
7.99072E-1,-1.89514E-1
7.43408E-1,-2.07092E-1
7.67852E-1,-2.31323E-1
7.69500E-1,-3.16253E-1
7.40753E-1,-3.88458E-1
6.91284E-1,-4.71862E-1
6.03881E-1,-5.00427E-1
5.91461E-1,-5.02349E-1
5.86425E-1,-5.70220E-1
5.39367E-1,-6.41906E-1
4.74365E-1,-7.14569E-1
3.57238E-1,-7.42645E-1
3.02673E-1,-7.06420E-1
2.93396E-1,-7.29492E-1
2.41455E-1,-7.81097E-1
1.65283E-1,-8.29925E-1
0.35827E-1,-8.44482E-1
-0.45013E-1,-7.67578E-1
-0.48187E-1,-7.43499E-1
-0.82763E-1,-7.58941E-1
-1.38671E-1,-7.81219E-1
-2.50305E-1,-7.87658E-1
-3.36395E-1,-6.89056E-1
-3.21624E-1,-6.36871E-1
-3.39965E-1,-6.50268E-1
-3.97216E-1,-6.56677E-1
-4.85565E-1,-6.41479E-1
-5.58166E-1,-5.52917E-1
-5.52093E-1,-4.84649E-1
-5.66864E-1,-4.66949E-1
-6.01776E-1,-4.41223E-1
-6.52221E-1,-4.19189E-1
-7.22045E-1,-3.50891E-1
-7.22229E-1,-2.59643E-1
-7.14660E-1,-2.21710E-1
-7.26226E-1,-1.85028E-1
-7.51037E-1,-1.51825E-1
-8.01330E-1,-0.89355E-1
-8.03863E-1,0.07934E-1
-7.84271E-1,0.57159E-1
-7.83447E-1,1.03820E-1
-7.85278E-1,1.45385E-1
-8.14331E-1,2.10510E-1
-8.00323E-1,3.31207E-1
-7.26348E-1,3.94500E-1
-6.99096E-1,4.24072E-1
-6.79809E-1,4.67712E-1
-6.75842E-1,5.23376E-1
-6.43524E-1,6.21612E-1
-5.47943E-1,6.90582E-1
-4.81109E-1,7.14294E-1
-4.26055E-1,7.48504E-1
-3.79974E-1,7.82775E-1
-3.21807E-1,8.45428E-1
-2.14263E-1,8.76647E-1
-1.34704E-1,8.64898E-1
-0.71044E-1,8.60565E-1
-0.19134E-1,8.57055E-1
0.39184E-1,8.83819E-1
1.36871E-1,8.93219E-1
2.20214E-1,8.62060E-1
2.88238E-1,8.31024E-1
3.35998E-1,7.91229E-1
3.82598E-1,7.81494E-1
4.67529E-1,7.65655E-1
5.43975E-1,7.06329E-1
5.94451E-1,6.44287E-1
6.29333E-1,5.86090E-1
6.57623E-1,5.52887E-1
7.15484E-1,5.14099E-1
7.69531E-1,4.46319E-1
7.98645E-1,3.69659E-1
8.17840E-1,3.02307E-1
8.33526E-1,2.43499E-1
8.58459E-1,1.81396E-1
8.79180E-1,1.12243E-1
8.86871E-1,0.36254E-1
8.86413E-1,-0.35003E-1
8.82690E-1,-1.07177E-1
8.63983E-1,-1.83044E-1
8.41217E-1,-2.43927E-1
8.23791E-1,-3.08990E-1
7.98187E-1,-3.69842E-1
7.83721E-1,-4.30572E-1
7.50366E-1,-5.15899E-1
6.82800E-1,-5.76293E-1
6.33300E-1,-6.14959E-1
5.82824E-1,-6.59942E-1
5.49469E-1,-7.01049E-1
5.02960E-1,-7.83630E-1
3.92059E-1,-8.29895E-1
3.14361E-1,-8.23303E-1
2.56591E-1,-8.29040E-1
2.08923E-1,-8.30078E-1
END
BEGIN
-5.63751E-1,-1.46728E-1
-5.76019E-1,-0.84838E-1
-5.81939E-1,-0.19165E-1
-5.81451E-1,0.37841E-1
-5.74157E-1,1.10809E-1
-5.49316E-1,1.74408E-1
-5.25970E-1,2.36236E-1
-4.97970E-1,2.88635E-1
-4.67620E-1,3.48098E-1
-4.22576E-1,3.98559E-1
-3.78402E-1,4.37194E-1
-3.25653E-1,4.71817E-1
-2.76947E-1,5.00335E-1
-2.13562E-1,5.37353E-1
-1.50482E-1,5.49255E-1
-0.90362E-1,5.61401E-1
-0.26702E-1,5.63079E-1
0.30365E-1,5.61462E-1
0.91095E-1,5.62652E-1
1.53564E-1,5.34851E-1
2.03887E-1,5.09826E-1
2.53067E-1,4.78286E-1
2.98797E-1,4.46853E-1
3.48083E-1,4.03472E-1
3.85772E-1,3.54538E-1
4.22287E-1,3.12118E-1
4.51568E-1,2.54486E-1
4.75341E-1,2.02621E-1
4.94522E-1,1.34338E-1
5.04882E-1,0.81878E-1
5.16479E-1,0.19989E-1
5.10406E-1,-0.42297E-1
5.00030E-1,-0.88012E-1
4.85397E-1,-1.38855E-1
4.71252E-1,-1.77200E-1
4.43847E-1,-2.37106E-1
4.05807E-1,-2.73513E-1
3.80523E-1,-3.06289E-1
3.55621E-1,-3.53729E-1
3.03985E-1,-3.89373E-1
2.59353E-1,-4.16671E-1
2.11639E-1,-4.36462E-1
1.56997E-1,-4.54422E-1
1.06903E-1,-4.69528E-1
0.43930E-1,-4.73587E-1
0.09277E-1,-4.70474E-1
-0.36941E-1,-4.69039E-1
-0.83068E-1,-4.60723E-1
-1.28860E-1,-4.48959E-1
-1.87149E-1,-4.42153E-1
-2.38540E-1,-4.01962E-1
-2.72995E-1,-3.82736E-1
-3.13812E-1,-3.61175E-1
-3.50982E-1,-3.29834E-1
-3.82080E-1,-2.95547E-1
-4.08691E-1,-2.51190E-1
-4.30419E-1,-2.17788E-1
-4.53353E-1,-1.71356E-1
-4.69207E-1,-1.22100E-1
-4.74609E-1,-0.70083E-1
-4.88571E-1,-0.22842E-1
-4.82589E-1,0.37368E-1
-4.71725E-1,0.84884E-1
-4.68841E-1,1.34292E-1
-4.54345E-1,1.92199E-1
-4.33410E-1,2.36770E-1
-4.08279E-1,2.80670E-1
-3.90838E-1,3.16894E-1
-3.54049E-1,3.53469E-1
-3.09021E-1,3.83773E-1
-2.5914E-1,4.01962E-1
-2.14584E-1,4.35943E-1
-1.53213E-1,4.55658E-1
-1.03256E-1,4.60037E-1
-0.56472E-1,4.74288E-1
-0.00045E-1,4.78591E-1
0.59082E-1,4.75006E-1
1.12381E-1,4.56787E-1
1.58844E-1,4.52102E-1
2.06848E-1,4.39621E-1
2.58865E-1,4.14749E-1
2.93151E-1,3.71917E-1
3.21395E-1,3.37707E-1
3.58688E-1,3.00216E-1
3.86459E-1,2.56256E-1
4.18167E-1,2.12188E-1
4.40811E-1,1.60156E-1
4.57504E-1,1.16180E-1
4.60403E-1,0.68542E-1
4.68582E-1,0.28228E-1
4.66354E-1,-0.19393E-1
4.59579E-1,-0.69030E-1
4.41650E-1,-1.13052E-1
4.30191E-1,-1.56601E-1
4.15039E-1,-1.99722E-1
3.89450E-1,-2.45147E-1
3.59283E-1,-2.82486E-1
3.26004E-1,-3.23364E-1
2.84744E-1,-3.67965E-1
2.46948E-1,-3.89679E-1
2.21771E-1,-4.21752E-1
1.90551E-1,-4.44625E-1
1.56555E-1,-4.68551E-1
1.11923E-1,-4.74884E-1
0.74386E-1,-4.76715E-1
0.33264E-1,-4.89654E-1
-0.17547E-1,-4.92492E-1
-0.64453E-1,-4.86984E-1
-1.11022E-1,-4.73632E-1
-1.49963E-1,-4.56466E-1
-1.85882E-1,-4.40048E-1
-2.23938E-1,-4.20242E-1
-2.52410E-1,-3.97384E-1
-2.82516E-1,-3.83544E-1
-3.10577E-1,-3.59787E-1
-3.30337E-1,-3.39569E-1
-3.51226E-1,-3.20190E-1
-3.71612E-1,-2.93960E-1
-3.91281E-1,-2.65564E-1
-4.06524E-1,-2.31033E-1
-4.26513E-1,-2.00820E-1
-4.46655E-1,-1.68487E-1
-4.64798E-1,-1.36978E-1
-4.74914E-1,-1.08871E-1
-4.83673E-1,-0.79574E-1
-4.90463E-1,-0.51208E-1
-4.96490E-1,-0.19455E-1
-5.04028E-1,0.07843E-1
-5.17272E-1,0.37017E-1
-5.26153E-1,0.79376E-1
-5.19958E-1,1.13189E-1
-5.17242E-1,1.57012E-1
-5.0177E-1,2.01477E-1
-4.90509E-1,2.43576E-1
-4.78912E-1,2.88375E-1
-4.60235E-1,3.28643E-1
-4.47006E-1,3.66622E-1
-4.18594E-1,4.05197E-1
-3.90808E-1,4.28741E-1
-3.66302E-1,4.58252E-1
-3.30810E-1,4.89257E-1
-2.95898E-1,5.08544E-1
-2.57537E-1,5.32684E-1
-2.15057E-1,5.45837E-1
-1.75293E-1,5.63812E-1
-1.26434E-1,5.76934E-1
-0.77423E-1,5.84472E-1
-0.24322E-1,5.96130E-1
0.39276E-1,5.96893E-1
0.91339E-1,5.90576E-1
1.37146E-1,5.81939E-1
1.83044E-1,5.75683E-1
2.23541E-1,5.60943E-1
2.70446E-1,5.38421E-1
3.11462E-1,5.05584E-1
3.52996E-1,4.69284E-1
3.93844E-1,4.34768E-1
4.35852E-1,3.93417E-1
4.70855E-1,3.50448E-1
4.99771E-1,2.98889E-1
5.17608E-1,2.46032E-1
5.32470E-1,1.98852E-1
5.53588E-1,1.51062E-1
5.63873E-1,1.06781E-1
5.74523E-1,0.60241E-1
5.67138E-1,0.16021E-1
5.56304E-1,-0.27099E-1
5.44189E-1,-0.72692E-1
5.23315E-1,-1.22467E-1
5.01098E-1,-1.67205E-1
4.73922E-1,-2.18612E-1
4.39254E-1,-2.62390E-1
4.04586E-1,-2.95471E-1
3.73001E-1,-3.29269E-1
3.43689E-1,-3.59375E-1
3.03878E-1,-3.97293E-1
2.53616E-1,-4.15023E-1
2.12738E-1,-4.26284E-1
1.74987E-1,-4.39163E-1
1.36215E-1,-4.47174E-1
0.92697E-1,-4.58557E-1
0.33401E-1,-4.53399E-1
-0.12558E-1,-4.39178E-1
-0.60180E-1,-4.31472E-1
-1.03881E-1,-4.19952E-1
-1.43951E-1,-4.16061E-1
-1.94519E-1,-4.01565E-1
-2.25463E-1,-3.72940E-1
-2.52395E-1,-3.52279E-1
-2.78930E-1,-3.22189E-1
-2.95288E-1,-2.97134E-1
-3.24615E-1,-2.73834E-1
-3.51806E-1,-2.28805E-1
-3.59298E-1,-1.87347E-1
-3.66668E-1,-1.49292E-1
-3.68011E-1,-1.13281E-1
-3.79852E-1,-0.75164E-1
-3.88687E-1,-0.28396E-1
-3.81164E-1,0.16479E-1
-3.75854E-1,0.44006E-1
-3.67675E-1,0.68847E-1
END
