CITIFILE A.01.01
#NA VERSION HP8510C.08.10
NAME DATA
#NA REGISTER 4
VAR FREQ MAG 201
DATA S[1,1] RI
DATA S[2,1] RI
DATA S[1,2] RI
DATA S[2,2] RI
SEG_LIST_BEGIN
SEG 8000000000 12000000000 201
SEG_LIST_END
COMMENT       YEAR MONTH DAY HOUR MINUTE SECONDS
CONSTANT TIME 2013   12   09  21    30    02.0
BEGIN
-5.57983E-1,-2.3703E-1
-5.77972E-1,-1.78833E-1
-5.95031E-1,-1.10504E-1
-6.03973E-1,-0.513E-1
-6.09710E-1,0.16479E-1
-6.01806E-1,0.79681E-1
-5.9021E-1,1.41296E-1
-5.74920E-1,1.94061E-1
-5.55542E-1,2.60650E-1
-5.23986E-1,3.16986E-1
-4.91424E-1,3.67614E-1
-4.47280E-1,4.14108E-1
-4.06982E-1,4.53613E-1
-3.54675E-1,5.04791E-1
-2.99011E-1,5.33691E-1
-2.45941E-1,5.61981E-1
-1.81732E-1,5.80139E-1
-1.27441E-1,5.89355E-1
-0.66192E-1,6.07879E-1
0.02441E-1,5.99487E-1
0.60668E-1,5.95489E-1
1.21887E-1,5.82000E-1
1.71325E-1,5.62866E-1
2.23724E-1,5.39398E-1
2.69866E-1,5.06927E-1
3.13781E-1,4.85641E-1
3.60900E-1,4.48883E-1
3.99673E-1,4.13757E-1
4.35882E-1,3.67202E-1
4.63607E-1,3.31543E-1
4.99343E-1,2.83126E-1
5.21972E-1,2.24243E-1
5.38238E-1,1.73858E-1
5.48370E-1,1.14715E-1
5.56213E-1,0.68481E-1
5.55816E-1,-0.00091E-1
5.40496E-1,-0.50293E-1
5.31707E-1,-0.96069E-1
5.26214E-1,-1.52740E-1
4.92309E-1,-2.03201E-1
4.68673E-1,-2.45422E-1
4.43038E-1,-2.81738E-1
4.12139E-1,-3.21517E-1
3.81897E-1,-3.59710E-1
3.32000E-1,-3.98452E-1
2.99316E-1,-4.18106E-1
2.53997E-1,-4.40506E-1
2.11669E-1,-4.58068E-1
1.72668E-1,-4.70947E-1
1.26022E-1,-4.96871E-1
0.73379E-1,-4.86755E-1
0.42511E-1,-4.93438E-1
-0.02502E-1,-5.00305E-1
-0.49285E-1,-4.96276E-1
-0.93765E-1,-4.88616E-1
-1.39968E-1,-4.73175E-1
-1.76361E-1,-4.67575E-1
-2.21893E-1,-4.47158E-1
-2.58911E-1,-4.19891E-1
-2.86529E-1,-3.89770E-1
-3.20922E-1,-3.70315E-1
-3.49517E-1,-3.38882E-1
-3.77059E-1,-3.14163E-1
-4.05471E-1,-2.86895E-1
-4.29016E-1,-2.48382E-1
-4.44793E-1,-2.12356E-1
-4.63043E-1,-1.70547E-1
-4.88327E-1,-1.36474E-1
-4.96994E-1,-0.88180E-1
-4.97726E-1,-0.46936E-1
-4.91912E-1,-0.11230E-1
-5.00549E-1,0.33294E-1
-4.95040E-1,0.82366E-1
-4.82818E-1,1.22283E-1
-4.74075E-1,1.56723E-1
-4.59213E-1,1.95739E-1
-4.37896E-1,2.37640E-1
-4.11758E-1,2.74231E-1
-3.91418E-1,3.18344E-1
-3.57025E-1,3.53027E-1
-3.18893E-1,3.82263E-1
-2.71102E-1,3.94897E-1
-2.34359E-1,4.09484E-1
-1.89941E-1,4.30435E-1
-1.49673E-1,4.34310E-1
-1.20742E-1,4.36782E-1
-0.87493E-1,4.33563E-1
-0.59417E-1,4.33578E-1
-0.23971E-1,4.38583E-1
0.16464E-1,4.46914E-1
0.54733E-1,4.50759E-1
0.94543E-1,4.49630E-1
1.30844E-1,4.31991E-1
1.7276E-1,4.20501E-1
2.21130E-1,4.00695E-1
2.65548E-1,3.72299E-1
2.97134E-1,3.46817E-1
3.27148E-1,3.20983E-1
3.62152E-1,2.84942E-1
3.88183E-1,2.39044E-1
4.18502E-1,1.92321E-1
4.42092E-1,1.45782E-1
4.67086E-1,0.92498E-1
4.67773E-1,0.32119E-1
4.61776E-1,-0.26290E-1
4.51431E-1,-0.89904E-1
4.32235E-1,-1.48651E-1
4.08905E-1,-1.96929E-1
3.81103E-1,-2.34756E-1
3.52600E-1,-2.74505E-1
3.11477E-1,-3.15277E-1
2.68219E-1,-3.51516E-1
2.29415E-1,-3.77655E-1
1.95968E-1,-4.10690E-1
1.47399E-1,-4.31335E-1
0.91323E-1,-4.44168E-1
0.31158E-1,-4.49127E-1
-0.24902E-1,-4.50378E-1
-0.67581E-1,-4.49340E-1
-1.01409E-1,-4.45175E-1
-1.44973E-1,-4.41421E-1
-1.96609E-1,-4.19708E-1
-2.44873E-1,-3.94134E-1
-2.83157E-1,-3.75854E-1
-3.22662E-1,-3.66409E-1
-3.63372E-1,-3.43414E-1
-4.00390E-1,-3.02658E-1
-4.30114E-1,-2.50228E-1
-4.56924E-1,-2.08313E-1
-4.86648E-1,-1.73629E-1
-5.02807E-1,-1.42150E-1
-5.20141E-1,-1.01104E-1
-5.22064E-1,-0.48919E-1
-5.24597E-1,0.04974E-1
-5.34606E-1,0.50598E-1
-5.42816E-1,0.93719E-1
-5.43762E-1,1.34124E-1
-5.27404E-1,1.81762E-1
-5.01495E-1,2.28790E-1
-4.84252E-1,2.77328E-1
-4.67514E-1,3.25820E-1
-4.47845E-1,3.58886E-1
-4.21417E-1,3.87542E-1
-3.84643E-1,4.15023E-1
-3.42071E-1,4.53598E-1
-3.02383E-1,4.89761E-1
-2.72583E-1,5.19256E-1
-2.42523E-1,5.39703E-1
-2.02087E-1,5.52825E-1
-1.45538E-1,5.64086E-1
-0.92681E-1,5.72753E-1
-0.42022E-1,5.95306E-1
0.01953E-1,6.04278E-1
0.40405E-1,6.00647E-1
0.88867E-1,5.86090E-1
1.45660E-1,5.63903E-1
2.00622E-1,5.54077E-1
2.58148E-1,5.39794E-1
2.95440E-1,5.15838E-1
3.24585E-1,4.90280E-1
3.62564E-1,4.46975E-1
3.99490E-1,4.08599E-1
4.53262E-1,3.68255E-1
4.90844E-1,3.20236E-1
5.09033E-1,2.74749E-1
5.19134E-1,2.24029E-1
5.24719E-1,1.57623E-1
5.32470E-1,0.91644E-1
5.33783E-1,0.24536E-1
5.17242E-1,-0.19775E-1
4.98748E-1,-0.55007E-1
4.70459E-1,-0.99319E-1
4.43069E-1,-1.38992E-1
4.25415E-1,-1.89117E-1
4.03717E-1,-2.31033E-1
3.79684E-1,-2.61032E-1
3.45977E-1,-2.84271E-1
3.00460E-1,-3.04306E-1
2.56668E-1,-3.34503E-1
2.12509E-1,-3.64288E-1
1.75735E-1,-3.81851E-1
1.42425E-1,-3.83789E-1
1.07025E-1,-3.77609E-1
0.64926E-1,-3.73657E-1
0.18066E-1,-3.79013E-1
-0.27191E-1,-3.87191E-1
-0.63034E-1,-3.87039E-1
-0.91400E-1,-3.71521E-1
-1.23642E-1,-3.47274E-1
-1.65695E-1,-3.18512E-1
-2.08725E-1,-2.95028E-1
-2.42721E-1,-2.72842E-1
-2.55249E-1,-2.45178E-1
-2.52044E-1,-2.18063E-1
-2.57293E-1,-1.84371E-1
-2.74826E-1,-1.50894E-1
-2.96859E-1,-1.19766E-1
-3.05938E-1,-1.08505E-1
-3.02215E-1,-1.00433E-1
-2.97897E-1,-0.84213E-1
-2.97958E-1,-0.46310E-1
END
BEGIN
-8.4021E-1,1.26678E-1
-7.48168E-1,1.97692E-1
-7.67364E-1,2.32605E-1
-7.38006E-1,3.70025E-1
-6.70318E-1,4.24591E-1
-6.18499E-1,5.25573E-1
-4.84069E-1,5.44372E-1
-4.67071E-1,5.04455E-1
-4.69635E-1,5.71319E-1
-4.13635E-1,6.1203E-1
-3.83239E-1,6.80053E-1
-2.56164E-1,7.15332E-1
-2.33184E-1,6.67999E-1
-2.37121E-1,7.59307E-1
-1.06048E-1,8.10211E-1
-0.41351E-1,8.16284E-1
0.92926E-1,8.37921E-1
1.62414E-1,7.45758E-1
1.53289E-1,7.65686E-1
2.67303E-1,8.00170E-1
3.40942E-1,7.68249E-1
4.63378E-1,7.75787E-1
5.73333E-1,6.48681E-1
5.71228E-1,5.94360E-1
6.71875E-1,5.62774E-1
7.11273E-1,4.44183E-1
7.54730E-1,3.99292E-1
8.08075E-1,2.45727E-1
7.14111E-1,1.57409E-1
7.10754E-1,1.67388E-1
7.25891E-1,1.09252E-1
7.31018E-1,0.96466E-1
8.01178E-1,0.20660E-1
7.47802E-1,-0.7724E-1
7.47955E-1,-0.63812E-1
8.21624E-1,-1.37085E-1
8.31481E-1,-2.33764E-1
8.65142E-1,-3.78601E-1
7.21954E-1,-5.46325E-1
6.14624E-1,-5.14587E-1
6.22985E-1,-5.68450E-1
5.34881E-1,-6.33239E-1
5.07598E-1,-6.60949E-1
4.11682E-1,-7.56805E-1
3.03283E-1,-7.07885E-1
3.23333E-1,-7.22930E-1
2.40783E-1,-8.02764E-1
1.77063E-1,-8.00750E-1
0.98053E-1,-8.88427E-1
-0.88256E-1,-8.43475E-1
-1.08703E-1,-7.54089E-1
-1.48986E-1,-7.58422E-1
-1.92352E-1,-7.14691E-1
-2.08282E-1,-7.39379E-1
-3.21380E-1,-7.35687E-1
-3.56231E-1,-6.66870E-1
-3.89221E-1,-6.76330E-1
-4.57946E-1,-6.43920E-1
-4.97375E-1,-6.51275E-1
-6.52404E-1,-6.25427E-1
-7.05230E-1,-4.61608E-1
-6.91467E-1,-4.08691E-1
-7.21496E-1,-3.31085E-1
-6.82159E-1,-2.92541E-1
-7.47283E-1,-3.08013E-1
-8.11645E-1,-1.89575E-1
-7.75451E-1,-1.33209E-1
-8.24615E-1,-1.02722E-1
-8.41278E-1,-0.15747E-1
-8.86932E-1,0.37658E-1
-9.18762E-1,2.12371E-1
-8.05572E-1,3.18267E-1
-7.71881E-1,3.62915E-1
-6.90063E-1,4.43847E-1
-6.31866E-1,4.31060E-1
-6.33209E-1,4.79553E-1
-5.67688E-1,5.23986E-1
-5.59326E-1,5.35522E-1
-5.28717E-1,6.13739E-1
-4.69055E-1,6.28784E-1
-4.79095E-1,6.84234E-1
-3.97338E-1,7.85217E-1
-3.07891E-1,8.12408E-1
-2.07305E-1,8.61724E-1
-0.92865E-1,8.12683E-1
-0.93994E-1,7.98095E-1
-0.16418E-1,8.54095E-1
0.70739E-1,8.12530E-1
0.97991E-1,8.24585E-1
1.95373E-1,8.22265E-1
2.23877E-1,7.94891E-1
2.98278E-1,8.48114E-1
4.45617E-1,8.07037E-1
5.02777E-1,7.29736E-1
5.8255E-1,6.80145E-1
6.19140E-1,5.79559E-1
6.33667E-1,5.48828E-1
6.96106E-1,4.87274E-1
6.87072E-1,4.19738E-1
7.23571E-1,4.11743E-1
7.77526E-1,3.38348E-1
7.85217E-1,2.89856E-1
8.50189E-1,2.47009E-1
8.81713E-1,1.45355E-1
9.02862E-1,0.83099E-1
9.49066E-1,-0.37475E-1
8.93127E-1,-1.64917E-1
8.57360E-1,-2.13775E-1
8.35052E-1,-2.98950E-1
7.83966E-1,-3.56353E-1
7.64495E-1,-4.21600E-1
6.91314E-1,-4.93560E-1
6.42700E-1,-5.02349E-1
6.32446E-1,-5.52948E-1
5.83526E-1,-6.13891E-1
5.44616E-1,-6.66564E-1
4.70764E-1,-7.39135E-1
3.78723E-1,-7.56927E-1
3.21746E-1,-7.81066E-1
2.28881E-1,-8.01971E-1
1.71051E-1,-7.80304E-1
1.24511E-1,-8.01483E-1
0.41564E-1,-7.96112E-1
-0.0177E-1,-7.78869E-1
-0.61248E-1,-7.78778E-1
-1.09161E-1,-7.52105E-1
-1.39679E-1,-7.61138E-1
-2.10693E-1,-7.71606E-1
-2.80700E-1,-7.55981E-1
-3.59039E-1,-7.33581E-1
-4.19677E-1,-6.66626E-1
-4.36828E-1,-6.38793E-1
-5.01342E-1,-6.21276E-1
-5.50354E-1,-5.65155E-1
-5.89294E-1,-5.31982E-1
-6.37298E-1,-4.66705E-1
-6.35528E-1,-4.17633E-1
-6.75781E-1,-4.06829E-1
-7.33306E-1,-3.47778E-1
-7.59277E-1,-2.86865E-1
-8.01116E-1,-2.23388E-1
-8.02703E-1,-1.35986E-1
-8.07708E-1,-0.89782E-1
-8.33313E-1,-0.05920E-1
-8.05419E-1,0.70251E-1
-8.06945E-1,1.24542E-1
-7.79296E-1,2.15148E-1
-7.29980E-1,2.42279E-1
-7.31414E-1,2.78961E-1
-7.11883E-1,3.35723E-1
-7.07458E-1,3.79058E-1
-6.95037E-1,4.70245E-1
-6.24664E-1,5.3302E-1
-5.87341E-1,5.64697E-1
-5.41412E-1,6.16394E-1
-4.98779E-1,6.48376E-1
-4.53582E-1,7.13775E-1
-3.55255E-1,7.46246E-1
-3.09845E-1,7.37945E-1
-2.67486E-1,7.74780E-1
-2.08465E-1,7.87445E-1
-1.68273E-1,8.21228E-1
-0.77148E-1,8.59588E-1
0.03936E-1,8.45764E-1
0.65582E-1,8.55041E-1
1.53228E-1,8.46252E-1
2.09350E-1,8.23577E-1
2.86926E-1,8.20190E-1
3.66607E-1,7.71362E-1
4.09240E-1,7.32543E-1
4.66308E-1,6.93450E-1
4.98199E-1,6.51580E-1
5.44128E-1,6.35192E-1
6.1203E-1,5.89355E-1
6.51550E-1,5.34088E-1
6.95709E-1,4.85839E-1
7.28698E-1,4.22180E-1
7.54211E-1,3.77227E-1
7.96752E-1,3.19580E-1
8.18817E-1,2.47131E-1
8.35723E-1,1.88140E-1
8.57605E-1,1.19689E-1
8.64349E-1,0.48614E-1
8.70788E-1,-0.16082E-1
8.70361E-1,-0.91430E-1
8.57879E-1,-1.58752E-1
8.49426E-1,-2.22381E-1
8.36975E-1,-2.97271E-1
8.05969E-1,-3.64471E-1
7.78137E-1,-4.23095E-1
7.45910E-1,-4.88220E-1
7.11273E-1,-5.37353E-1
6.93512E-1,-6.01745E-1
6.35772E-1,-6.95068E-1
5.58807E-1,-7.46093E-1
4.90356E-1,-7.93579E-1
4.07714E-1,-8.21716E-1
3.58032E-1,-8.38165E-1
2.91900E-1,-8.95172E-1
1.90734E-1,-9.11560E-1
1.15051E-1,-9.12811E-1
END
BEGIN
-7.52227E-1,1.15478E-1
-7.75116E-1,1.90673E-1
-6.86126E-1,3.00018E-1
-6.53350E-1,2.66693E-1
-7.27417E-1,3.57482E-1
-6.43371E-1,4.78241E-1
-6.12213E-1,5.22033E-1
-5.24902E-1,6.33239E-1
-4.30175E-1,6.04095E-1
-4.71740E-1,6.45629E-1
-3.78356E-1,7.75146E-1
-2.71789E-1,7.87597E-1
-1.65313E-1,8.32336E-1
-0.47363E-1,7.71698E-1
-0.57586E-1,7.58697E-1
0.35003E-1,8.37036E-1
1.45629E-1,7.97454E-1
2.26928E-1,7.99224E-1
3.49121E-1,7.00897E-1
3.12469E-1,6.18347E-1
3.39691E-1,6.70349E-1
4.43054E-1,6.29455E-1
4.78363E-1,6.00921E-1
5.85693E-1,5.49224E-1
5.81665E-1,4.36706E-1
5.74523E-1,4.54406E-1
6.70837E-1,4.20623E-1
7.03064E-1,3.49609E-1
7.82836E-1,2.83142E-1
7.74231E-1,1.27624E-1
7.09991E-1,1.14105E-1
7.66784E-1,0.99090E-1
7.92175E-1,0.26458E-1
8.53851E-1,-0.45471E-1
8.23181E-1,-2.35229E-1
6.87408E-1,-2.52777E-1
7.14325E-1,-2.34802E-1
7.35199E-1,-3.16314E-1
7.50976E-1,-3.90808E-1
7.12402E-1,-5.72479E-1
5.17608E-1,-6.02020E-1
4.98992E-1,-5.3479E-1
5.11932E-1,-5.89355E-1
4.93133E-1,-6.40197E-1
4.68780E-1,-7.82440E-1
2.53631E-1,-8.51989E-1
1.85516E-1,-7.47253E-1
1.91528E-1,-7.73864E-1
1.34033E-1,-7.99987E-1
1.04919E-1,-8.72924E-1
-1.01226E-1,-9.45739E-1
-2.30133E-1,-7.94616E-1
-2.09289E-1,-7.50946E-1
-2.58819E-1,-7.48413E-1
-2.72216E-1,-7.54974E-1
-4.03503E-1,-8.23181E-1
-5.67596E-1,-6.75018E-1
-5.32135E-1,-5.72113E-1
-5.57128E-1,-5.56060E-1
-5.67779E-1,-5.23407E-1
-6.40747E-1,-5.69549E-1
-8.10943E-1,-4.47387E-1
-7.65564E-1,-2.82562E-1
-7.39532E-1,-2.55523E-1
-7.37152E-1,-2.05474E-1
-7.51220E-1,-2.23541E-1
-8.96789E-1,-1.58783E-1
-8.77197E-1,0.44952E-1
-7.97973E-1,0.78613E-1
-7.96112E-1,1.23107E-1
-7.79724E-1,1.48559E-1
-8.61663E-1,2.04467E-1
-8.40271E-1,4.11285E-1
-6.99035E-1,4.63409E-1
-6.62536E-1,4.79888E-1
-6.10992E-1,5.15441E-1
-6.13647E-1,5.35339E-1
-5.89630E-1,6.59149E-1
-4.51965E-1,7.14752E-1
-3.82324E-1,7.01873E-1
-3.26690E-1,7.04223E-1
-3.17749E-1,7.06237E-1
-2.86621E-1,7.91870E-1
-1.56890E-1,8.23394E-1
-0.96038E-1,7.94342E-1
-0.30334E-1,8.00018E-1
0.18798E-1,7.64404E-1
0.24353E-1,7.89550E-1
1.13189E-1,8.47442E-1
2.17773E-1,8.22265E-1
2.85308E-1,8.00689E-1
3.55194E-1,7.52044E-1
3.72283E-1,7.28363E-1
4.46228E-1,7.53723E-1
5.64331E-1,7.11151E-1
6.43066E-1,6.38519E-1
7.00622E-1,5.39489E-1
6.80694E-1,4.69543E-1
7.18170E-1,4.77996E-1
8.20770E-1,4.09393E-1
8.56475E-1,2.95745E-1
8.79028E-1,1.95831E-1
8.42193E-1,0.99304E-1
8.34594E-1,0.94421E-1
9.00604E-1,0.26062E-1
8.93341E-1,-0.86303E-1
8.87695E-1,-1.67144E-1
8.39904E-1,-2.88177E-1
7.62329E-1,-3.09722E-1
7.86651E-1,-3.38378E-1
7.77618E-1,-4.43847E-1
7.24884E-1,-5.27221E-1
6.41052E-1,-6.18225E-1
5.20904E-1,-6.16119E-1
5.14373E-1,-6.00891E-1
4.98626E-1,-6.73217E-1
4.29901E-1,-7.36206E-1
3.42529E-1,-7.93792E-1
2.15301E-1,-7.79785E-1
1.87866E-1,-7.24182E-1
1.84753E-1,-7.52441E-1
1.25976E-1,-7.97821E-1
0.40039E-1,-8.35144E-1
-0.89569E-1,-8.18725E-1
-1.37908E-1,-7.31811E-1
-1.34429E-1,-7.24975E-1
-1.80114E-1,-7.42675E-1
-2.47070E-1,-7.55676E-1
-3.62976E-1,-7.33154E-1
-4.18762E-1,-6.18316E-1
-3.92608E-1,-5.80413E-1
-4.16717E-1,-5.94879E-1
-4.77661E-1,-5.9198E-1
-5.63812E-1,-5.61126E-1
-6.14196E-1,-4.61944E-1
-5.96283E-1,-4.04785E-1
-6.13159E-1,-3.89587E-1
-6.47186E-1,-3.59893E-1
-6.97082E-1,-3.29956E-1
-7.54425E-1,-2.48535E-1
-7.39410E-1,-1.64459E-1
-7.30926E-1,-1.32965E-1
-7.42218E-1,-0.94665E-1
-7.66479E-1,-0.56396E-1
-8.07769E-1,0.18951E-1
-7.93121E-1,1.13983E-1
-7.70813E-1,1.57867E-1
-7.67395E-1,2.06329E-1
-7.65564E-1,2.50915E-1
-7.83203E-1,3.26843E-1
-7.44873E-1,4.44458E-1
-6.63085E-1,4.91088E-1
-6.36261E-1,5.19043E-1
-6.12213E-1,5.62530E-1
-5.98388E-1,6.22863E-1
-5.42785E-1,7.18048E-1
-4.35119E-1,7.63580E-1
-3.68133E-1,7.76947E-1
-3.08075E-1,8.03802E-1
-2.55767E-1,8.32946E-1
-1.82495E-1,8.85040E-1
-0.71716E-1,8.92181E-1
0.01373E-1,8.67340E-1
0.62042E-1,8.54522E-1
1.13006E-1,8.45703E-1
1.79840E-1,8.60992E-1
2.76550E-1,8.48175E-1
3.48877E-1,8.03466E-1
4.08538E-1,7.62542E-1
4.50683E-1,7.19116E-1
4.97192E-1,7.00012E-1
5.73761E-1,6.66168E-1
6.34399E-1,5.96984E-1
6.71173E-1,5.30914E-1
6.96289E-1,4.71008E-1
7.21038E-1,4.31243E-1
7.6474E-1,3.83514E-1
8.02948E-1,3.12652E-1
8.19488E-1,2.39074E-1
8.28735E-1,1.73370E-1
8.35662E-1,1.12243E-1
8.45489E-1,0.52825E-1
8.55957E-1,-0.11901E-1
8.55194E-1,-0.83984E-1
8.47595E-1,-1.50329E-1
8.36181E-1,-2.2052E-1
8.06091E-1,-2.89886E-1
7.79296E-1,-3.41705E-1
7.58087E-1,-4.01977E-1
7.28118E-1,-4.57946E-1
7.09869E-1,-5.18188E-1
6.64978E-1,-5.98999E-1
5.91308E-1,-6.45843E-1
5.43060E-1,-6.79748E-1
4.89502E-1,-7.18841E-1
4.54071E-1,-7.57720E-1
3.93829E-1,-8.34503E-1
2.79907E-1,-8.63616E-1
2.09838E-1,-8.48693E-1
1.52679E-1,-8.51654E-1
1.06903E-1,-8.51684E-1
END
BEGIN
-6.17095E-1,-0.87402E-1
-6.2323E-1,-0.19256E-1
-6.21643E-1,0.52734E-1
-6.15142E-1,1.16424E-1
-5.96557E-1,1.93878E-1
-5.62866E-1,2.58758E-1
-5.29418E-1,3.22906E-1
-4.93179E-1,3.77059E-1
-4.51095E-1,4.36950E-1
-3.95523E-1,4.83749E-1
-3.42590E-1,5.20874E-1
-2.80914E-1,5.51116E-1
-2.23846E-1,5.76141E-1
-1.48834E-1,6.05041E-1
-0.80078E-1,6.08734E-1
-0.12939E-1,6.12548E-1
0.55450E-1,6.04553E-1
1.17431E-1,5.94574E-1
1.84967E-1,5.83709E-1
2.45117E-1,5.44525E-1
2.95715E-1,5.10009E-1
3.43917E-1,4.67498E-1
3.88595E-1,4.25613E-1
4.33486E-1,3.70819E-1
4.65469E-1,3.12744E-1
4.98428E-1,2.60665E-1
5.19744E-1,1.95037E-1
5.37262E-1,1.35620E-1
5.44586E-1,0.62439E-1
5.48309E-1,0.05462E-1
5.49346E-1,-0.61584E-1
5.32989E-1,-1.24816E-1
5.16082E-1,-1.70867E-1
4.93103E-1,-2.20642E-1
4.72381E-1,-2.61840E-1
4.31869E-1,-3.17718E-1
3.88259E-1,-3.50204E-1
3.57147E-1,-3.82400E-1
3.20724E-1,-4.28039E-1
2.63748E-1,-4.54345E-1
2.14401E-1,-4.76791E-1
1.63940E-1,-4.91607E-1
1.07269E-1,-5.03509E-1
0.56030E-1,-5.17028E-1
-0.11535E-1,-5.19409E-1
-0.55694E-1,-5.17028E-1
-1.09863E-1,-5.05950E-1
-1.61331E-1,-4.89074E-1
-2.10647E-1,-4.69207E-1
-2.73513E-1,-4.49539E-1
-3.18191E-1,-3.99536E-1
-3.54141E-1,-3.74557E-1
-3.95370E-1,-3.42971E-1
-4.30481E-1,-3.02780E-1
-4.59762E-1,-2.60238E-1
-4.80819E-1,-2.09350E-1
-5.01068E-1,-1.69128E-1
-5.17364E-1,-1.14471E-1
-5.26428E-1,-0.57556E-1
-5.23773E-1,0.00335E-1
-5.27282E-1,0.55481E-1
-5.11413E-1,1.12976E-1
-4.97650E-1,1.61087E-1
-4.87777E-1,2.16384E-1
-4.61807E-1,2.75924E-1
-4.32876E-1,3.21334E-1
-3.98956E-1,3.64700E-1
-3.72802E-1,4.03396E-1
-3.26690E-1,4.37316E-1
-2.73651E-1,4.63287E-1
-2.18444E-1,4.76898E-1
-1.59484E-1,5.08117E-1
-0.90759E-1,5.18493E-1
-0.36377E-1,5.19104E-1
0.21698E-1,5.27862E-1
0.86151E-1,5.22857E-1
1.51245E-1,5.08117E-1
2.04986E-1,4.81338E-1
2.5737E-1,4.65286E-1
3.09661E-1,4.39910E-1
3.61160E-1,3.98284E-1
3.90350E-1,3.44162E-1
4.17938E-1,2.97393E-1
4.48883E-1,2.43850E-1
4.66781E-1,1.87515E-1
4.84970E-1,1.31027E-1
4.91287E-1,0.71701E-1
4.93835E-1,0.22567E-1
4.81033E-1,-0.24795E-1
4.76440E-1,-0.64743E-1
4.61715E-1,-1.07772E-1
4.43618E-1,-1.51153E-1
4.17984E-1,-1.87011E-1
3.97247E-1,-2.25570E-1
3.75457E-1,-2.61810E-1
3.43689E-1,-2.99011E-1
3.10668E-1,-3.27545E-1
2.74841E-1,-3.61022E-1
2.30178E-1,-3.94577E-1
1.94641E-1,-4.07745E-1
1.71218E-1,-4.33563E-1
1.42578E-1,-4.51263E-1
1.10534E-1,-4.70062E-1
0.71426E-1,-4.69253E-1
0.42739E-1,-4.66598E-1
0.07156E-1,-4.77966E-1
-0.37872E-1,-4.78668E-1
-0.78964E-1,-4.74731E-1
-1.20361E-1,-4.64309E-1
-1.54678E-1,-4.53659E-1
-1.89773E-1,-4.44641E-1
-2.29492E-1,-4.28894E-1
-2.59994E-1,-4.1008E-1
-2.96783E-1,-3.97384E-1
-3.28582E-1,-3.74908E-1
-3.55316E-1,-3.55545E-1
-3.82141E-1,-3.34930E-1
-4.06997E-1,-3.05862E-1
-4.29855E-1,-2.72369E-1
-4.46075E-1,-2.35305E-1
-4.71221E-1,-1.99874E-1
-4.93545E-1,-1.61041E-1
-5.13061E-1,-1.23474E-1
-5.26245E-1,-0.90515E-1
-5.38482E-1,-0.54565E-1
-5.48309E-1,-0.14801E-1
-5.49102E-1,0.30334E-1
-5.48217E-1,0.67749E-1
-5.50445E-1,1.04827E-1
-5.45959E-1,1.51214E-1
-5.33081E-1,1.83685E-1
-5.20629E-1,2.30285E-1
-4.97772E-1,2.71347E-1
-4.79385E-1,3.12896E-1
-4.60372E-1,3.55865E-1
-4.34478E-1,3.92654E-1
-4.13818E-1,4.31137E-1
-3.79165E-1,4.64019E-1
-3.48632E-1,4.83902E-1
-3.18878E-1,5.10284E-1
-2.77496E-1,5.34545E-1
-2.39379E-1,5.49346E-1
-1.95648E-1,5.67627E-1
-1.50360E-1,5.74859E-1
-1.05377E-1,5.88531E-1
-0.53344E-1,5.94482E-1
-0.03356E-1,5.94635E-1
0.54077E-1,5.97869E-1
1.16973E-1,5.85968E-1
1.67968E-1,5.70861E-1
2.10815E-1,5.55847E-1
2.56408E-1,5.42419E-1
2.94494E-1,5.20965E-1
3.36486E-1,4.89807E-1
3.70239E-1,4.49707E-1
4.04632E-1,4.05838E-1
4.40673E-1,3.64990E-1
4.74426E-1,3.16848E-1
5.01434E-1,2.69348E-1
5.18554E-1,2.14325E-1
5.26184E-1,1.62414E-1
5.33813E-1,1.18316E-1
5.46936E-1,0.68512E-1
5.48095E-1,0.25817E-1
5.48889E-1,-0.1828E-1
5.34057E-1,-0.58776E-1
5.15472E-1,-0.95184E-1
4.96200E-1,-1.36154E-1
4.67392E-1,-1.78756E-1
4.41116E-1,-2.16522E-1
4.07409E-1,-2.60223E-1
3.68972E-1,-2.94128E-1
3.35327E-1,-3.20465E-1
3.03268E-1,-3.48800E-1
2.73757E-1,-3.74588E-1
2.31613E-1,-4.04876E-1
1.84143E-1,-4.12948E-1
1.48391E-1,-4.18685E-1
1.11908E-1,-4.29061E-1
0.74279E-1,-4.34356E-1
0.29205E-1,-4.42062E-1
-0.26397E-1,-4.29397E-1
-0.67993E-1,-4.12551E-1
-1.14318E-1,-4.00726E-1
-1.56387E-1,-3.85238E-1
-1.98288E-1,-3.76602E-1
-2.46139E-1,-3.53775E-1
-2.71301E-1,-3.22464E-1
-2.95028E-1,-2.99163E-1
-3.15719E-1,-2.65518E-1
-3.29620E-1,-2.37121E-1
-3.55651E-1,-2.05276E-1
-3.73016E-1,-1.53717E-1
-3.72772E-1,-1.12045E-1
-3.73901E-1,-0.72647E-1
-3.70193E-1,-0.36804E-1
-3.73077E-1,0.04684E-1
-3.71658E-1,0.52948E-1
-3.54766E-1,0.92910E-1
-3.45230E-1,1.18270E-1
-3.31680E-1,1.42486E-1
END
