CITIFILE A.01.01
#NA VERSION HP8510C.08.10
NAME DATA
#NA REGISTER 4
VAR FREQ MAG 201
DATA S[1,1] RI
DATA S[2,1] RI
DATA S[1,2] RI
DATA S[2,2] RI
SEG_LIST_BEGIN
SEG 8000000000 12000000000 201
SEG_LIST_END
COMMENT       YEAR MONTH DAY HOUR MINUTE SECONDS
CONSTANT TIME 2013   12   09  21    20    55.0
BEGIN
-4.18808E-1,-2.70156E-1
-4.41741E-1,-2.26059E-1
-4.65942E-1,-1.72821E-1
-4.76959E-1,-1.24939E-1
-4.93560E-1,-0.72235E-1
-4.94674E-1,-0.19195E-1
-4.93392E-1,0.31478E-1
-4.86465E-1,0.76034E-1
-4.82940E-1,1.30981E-1
-4.64370E-1,1.82144E-1
-4.46121E-1,2.25219E-1
-4.15298E-1,2.69699E-1
-3.87756E-1,3.04031E-1
-3.57910E-1,3.54064E-1
-3.14743E-1,3.85681E-1
-2.77633E-1,4.15649E-1
-2.27584E-1,4.40689E-1
-1.85119E-1,4.52896E-1
-1.43631E-1,4.76547E-1
-0.82229E-1,4.83367E-1
-0.35781E-1,4.87289E-1
0.16464E-1,4.85092E-1
0.59463E-1,4.73953E-1
1.04415E-1,4.61135E-1
1.46102E-1,4.40048E-1
1.80892E-1,4.26605E-1
2.22442E-1,4.04388E-1
2.54943E-1,3.80813E-1
2.88909E-1,3.50631E-1
3.11203E-1,3.27835E-1
3.46084E-1,3.01254E-1
3.76556E-1,2.58956E-1
3.97995E-1,2.20428E-1
4.17038E-1,1.74728E-1
4.26422E-1,1.40014E-1
4.42306E-1,0.86044E-1
4.35302E-1,0.40771E-1
4.31732E-1,0.04455E-1
4.37637E-1,-0.37033E-1
4.18930E-1,-0.88104E-1
4.04068E-1,-1.24252E-1
3.87329E-1,-1.54495E-1
3.68698E-1,-1.90383E-1
3.51760E-1,-2.22229E-1
3.18756E-1,-2.64221E-1
2.92282E-1,-2.80380E-1
2.59201E-1,-3.03558E-1
2.29568E-1,-3.20892E-1
2.02026E-1,-3.33663E-1
1.76620E-1,-3.60397E-1
1.27182E-1,-3.64395E-1
1.06826E-1,-3.68331E-1
0.78460E-1,-3.80096E-1
0.43441E-1,-3.84903E-1
0.08682E-1,-3.86978E-1
-0.31417E-1,-3.83209E-1
-0.55755E-1,-3.81958E-1
-0.92941E-1,-3.77090E-1
-1.24206E-1,-3.61419E-1
-1.48834E-1,-3.42041E-1
-1.75949E-1,-3.37387E-1
-2.07244E-1,-3.15567E-1
-2.26547E-1,-2.98904E-1
-2.47482E-1,-2.89047E-1
-2.71652E-1,-2.69439E-1
-2.88894E-1,-2.46856E-1
-3.11523E-1,-2.20184E-1
-3.34213E-1,-2.05169E-1
-3.55224E-1,-1.72729E-1
-3.62915E-1,-1.44195E-1
-3.63006E-1,-1.18774E-1
-3.78082E-1,-0.96221E-1
-3.89129E-1,-0.61660E-1
-3.92105E-1,-0.2948E-1
-3.95080E-1,-0.07644E-1
-3.98925E-1,0.17608E-1
-4.00253E-1,0.48843E-1
-3.94119E-1,0.81466E-1
-4.01550E-1,1.16989E-1
-3.94699E-1,1.55960E-1
-3.85437E-1,1.91360E-1
-3.59344E-1,2.20001E-1
-3.42330E-1,2.44613E-1
-3.24569E-1,2.85568E-1
-2.94113E-1,3.17031E-1
-2.71362E-1,3.40774E-1
-2.39151E-1,3.61892E-1
-2.09808E-1,3.75915E-1
-1.72515E-1,3.95660E-1
-1.30065E-1,4.18365E-1
-0.87402E-1,4.33090E-1
-0.44860E-1,4.42611E-1
-0.03189E-1,4.31274E-1
0.36209E-1,4.26818E-1
0.82489E-1,4.18624E-1
1.29989E-1,4.03839E-1
1.65344E-1,3.85864E-1
1.94686E-1,3.68667E-1
2.28836E-1,3.48251E-1
2.61261E-1,3.14987E-1
2.96218E-1,2.84439E-1
3.30490E-1,2.50244E-1
3.64654E-1,2.13409E-1
3.82324E-1,1.62139E-1
3.89358E-1,1.12319E-1
3.95401E-1,0.59448E-1
3.95599E-1,0.04394E-1
3.89907E-1,-0.45501E-1
3.75564E-1,-0.86013E-1
3.61785E-1,-1.23794E-1
3.37448E-1,-1.65725E-1
3.10653E-1,-2.07275E-1
2.82058E-1,-2.42080E-1
2.63946E-1,-2.76245E-1
2.30789E-1,-3.08654E-1
1.87805E-1,-3.33236E-1
1.36856E-1,-3.52340E-1
0.86456E-1,-3.68576E-1
0.46371E-1,-3.77914E-1
0.16967E-1,-3.81042E-1
-0.16677E-1,-3.89572E-1
-0.65261E-1,-3.83255E-1
-1.14547E-1,-3.72558E-1
-1.54388E-1,-3.62518E-1
-1.87591E-1,-3.64807E-1
-2.27569E-1,-3.61343E-1
-2.72079E-1,-3.37173E-1
-3.11508E-1,-2.96646E-1
-3.44268E-1,-2.61795E-1
-3.79409E-1,-2.37640E-1
-4.02175E-1,-2.16156E-1
-4.27795E-1,-1.86965E-1
-4.42001E-1,-1.40029E-1
-4.54315E-1,-0.91262E-1
-4.7229E-1,-0.50888E-1
-4.91104E-1,-0.13900E-1
-5.05523E-1,0.20874E-1
-5.04455E-1,0.69427E-1
-4.87625E-1,1.17431E-1
-4.78942E-1,1.66671E-1
-4.74365E-1,2.16003E-1
-4.64248E-1,2.52670E-1
-4.46929E-1,2.84622E-1
-4.17099E-1,3.16070E-1
-3.84201E-1,3.57254E-1
-3.51821E-1,3.99215E-1
-3.28369E-1,4.32510E-1
-3.05892E-1,4.58038E-1
-2.72155E-1,4.76287E-1
-2.22732E-1,4.93164E-1
-1.74316E-1,5.04089E-1
-1.40258E-1,5.32440E-1
-1.07177E-1,5.59448E-1
-0.67688E-1,5.72753E-1
-0.17242E-1,5.73059E-1
0.45532E-1,5.61370E-1
1.01257E-1,5.56915E-1
1.61102E-1,5.55206E-1
2.06390E-1,5.38818E-1
2.39868E-1,5.15411E-1
2.80059E-1,4.76425E-1
3.1633E-1,4.38400E-1
3.63510E-1,4.08004E-1
4.03747E-1,3.72207E-1
4.23675E-1,3.36914E-1
4.34585E-1,2.99133E-1
4.50073E-1,2.49481E-1
4.70474E-1,1.99417E-1
4.94934E-1,1.43188E-1
4.98901E-1,0.95748E-1
4.94522E-1,0.60150E-1
4.85519E-1,0.12908E-1
4.68399E-1,-0.33905E-1
4.65423E-1,-0.87448E-1
4.57382E-1,-1.40518E-1
4.43786E-1,-1.82067E-1
4.18548E-1,-2.17361E-1
3.75656E-1,-2.52441E-1
3.35006E-1,-2.93121E-1
2.90695E-1,-3.36090E-1
2.51220E-1,-3.65737E-1
2.12966E-1,-3.78341E-1
1.70105E-1,-3.79089E-1
1.25289E-1,-3.76007E-1
0.77011E-1,-3.85269E-1
0.30685E-1,-3.99169E-1
-0.09109E-1,-4.04632E-1
-0.42007E-1,-3.95034E-1
-0.78445E-1,-3.74954E-1
-1.23626E-1,-3.51318E-1
-1.72103E-1,-3.32260E-1
-2.14172E-1,-3.13400E-1
-2.37106E-1,-2.87765E-1
-2.43972E-1,-2.54531E-1
-2.51632E-1,-2.16171E-1
-2.70111E-1,-1.80877E-1
-2.97592E-1,-1.48971E-1
-3.06762E-1,-1.32827E-1
-3.04565E-1,-1.19461E-1
-2.96096E-1,-1.02844E-1
-3.00262E-1,-0.68023E-1
END
BEGIN
-9.26483E-1,-0.56335E-1
-8.59954E-1,0.52612E-1
-8.72894E-1,0.88989E-1
-8.79974E-1,2.27600E-1
-8.24493E-1,3.09539E-1
-7.98095E-1,4.22241E-1
-6.70837E-1,4.94720E-1
-6.22863E-1,4.70733E-1
-6.29333E-1,5.30151E-1
-5.74951E-1,5.86639E-1
-5.51422E-1,6.55120E-1
-4.38446E-1,7.27844E-1
-3.81713E-1,6.93634E-1
-3.93585E-1,7.61505E-1
-2.85125E-1,8.41735E-1
-2.13989E-1,8.60046E-1
-0.94848E-1,9.14642E-1
0.14434E-1,8.52722E-1
0.17517E-1,8.49304E-1
1.12365E-1,9.01336E-1
1.96991E-1,8.84521E-1
3.03009E-1,9.14154E-1
4.49249E-1,8.35845E-1
4.78332E-1,7.67150E-1
5.74707E-1,7.55584E-1
6.55212E-1,6.52832E-1
7.07183E-1,6.08184E-1
8.06732E-1,4.86816E-1
7.62023E-1,3.54156E-1
7.49969E-1,3.40454E-1
7.77557E-1,2.78564E-1
7.78381E-1,2.48626E-1
8.51806E-1,1.93512E-1
8.34106E-1,0.76538E-1
8.17871E-1,0.67657E-1
8.86688E-1,0.18829E-1
9.12933E-1,-0.70770E-1
9.71191E-1,-1.85363E-1
9.08721E-1,-3.79425E-1
7.89428E-1,-4.09149E-1
7.93273E-1,-4.55993E-1
7.26806E-1,-5.47088E-1
6.91772E-1,-5.83221E-1
6.31500E-1,-6.96655E-1
5.03906E-1,-7.01355E-1
5.02105E-1,-7.02911E-1
4.46044E-1,-7.93792E-1
3.73657E-1,-8.09661E-1
3.25531E-1,-9.00054E-1
1.43035E-1,-9.32067E-1
0.70495E-1,-8.56597E-1
0.22644E-1,-8.63159E-1
-0.46356E-1,-8.31115E-1
-0.65979E-1,-8.42071E-1
-1.70623E-1,-8.65936E-1
-2.36694E-1,-8.07006E-1
-2.72430E-1,-8.07922E-1
-3.48022E-1,-7.89703E-1
-3.86291E-1,-7.91046E-1
-5.24169E-1,-8.07830E-1
-6.35498E-1,-6.76330E-1
-6.43493E-1,-6.04522E-1
-6.95770E-1,-5.38238E-1
-6.81549E-1,-4.7052E-1
-7.25494E-1,-4.85931E-1
-8.15490E-1,-3.94744E-1
-8.02551E-1,-3.17871E-1
-8.45703E-1,-2.90191E-1
-8.81500E-1,-2.08953E-1
-9.26696E-1,-1.63787E-1
-1.00183E0,-0.24597E-1
-9.43695E-1,1.16943E-1
-9.19281E-1,1.81182E-1
-8.70788E-1,2.89825E-1
-8.03161E-1,3.15582E-1
-8.04229E-1,3.65264E-1
-7.51953E-1,4.34783E-1
-7.32147E-1,4.5755E-1
-7.17193E-1,5.38726E-1
-6.56341E-1,5.78887E-1
-6.62811E-1,6.28601E-1
-6.10900E-1,7.43408E-1
-5.26916E-1,8.00201E-1
-4.38324E-1,8.77014E-1
-3.04077E-1,8.77838E-1
-2.73773E-1,8.61511E-1
-2.02819E-1,9.27154E-1
-0.93017E-1,9.10491E-1
-0.52612E-1,9.15008E-1
0.47210E-1,9.28497E-1
0.94207E-1,8.97247E-1
1.53106E-1,9.48547E-1
3.013E-1,9.39117E-1
3.80615E-1,8.72833E-1
4.67681E-1,8.37585E-1
5.31951E-1,7.47467E-1
5.55450E-1,7.09320E-1
6.27838E-1,6.59545E-1
6.38885E-1,5.84564E-1
6.72546E-1,5.75897E-1
7.39746E-1,5.15045E-1
7.59948E-1,4.62585E-1
8.26416E-1,4.30419E-1
8.79119E-1,3.39294E-1
9.10156E-1,2.77984E-1
9.77905E-1,1.75872E-1
9.60266E-1,0.37933E-1
9.34753E-1,-0.27496E-1
9.32403E-1,-1.14410E-1
8.96575E-1,-1.87561E-1
8.88244E-1,-2.58667E-1
8.36792E-1,-3.48541E-1
7.87078E-1,-3.77655E-1
7.82531E-1,-4.29687E-1
7.46154E-1,-5.0354E-1
7.15057E-1,-5.64331E-1
6.62323E-1,-6.51641E-1
5.74707E-1,-6.97845E-1
5.20294E-1,-7.36480E-1
4.34173E-1,-7.83630E-1
3.62701E-1,-7.81646E-1
3.15246E-1,-8.10516E-1
2.29858E-1,-8.28247E-1
1.71447E-1,-8.21380E-1
1.08673E-1,-8.32092E-1
0.46752E-1,-8.16192E-1
0.13336E-1,-8.23547E-1
-0.53039E-1,-8.45642E-1
-1.28356E-1,-8.43627E-1
-2.09716E-1,-8.38439E-1
-2.92083E-1,-7.88116E-1
-3.22784E-1,-7.53723E-1
-3.85620E-1,-7.47070E-1
-4.51141E-1,-7.00958E-1
-4.96276E-1,-6.69982E-1
-5.58593E-1,-6.17095E-1
-5.71594E-1,-5.59143E-1
-6.05957E-1,-5.49133E-1
-6.72576E-1,-5.04486E-1
-7.10083E-1,-4.47814E-1
-7.62298E-1,-3.95141E-1
-7.86926E-1,-3.08776E-1
-7.97973E-1,-2.57934E-1
-8.39325E-1,-1.84814E-1
-8.31939E-1,-0.98907E-1
-8.39111E-1,-0.42327E-1
-8.36639E-1,0.54138E-1
-7.87994E-1,1.05041E-1
-7.85644E-1,1.41479E-1
-7.70294E-1,2.02270E-1
-7.60070E-1,2.42767E-1
-7.58606E-1,3.15643E-1
-7.10937E-1,3.82995E-1
-6.83227E-1,4.16290E-1
-6.53717E-1,4.72595E-1
-6.18652E-1,5.10131E-1
-5.95428E-1,5.75347E-1
-5.13427E-1,6.34429E-1
-4.61395E-1,6.33361E-1
-4.29626E-1,6.69708E-1
-3.80554E-1,6.89788E-1
-3.54827E-1,7.22045E-1
-2.92938E-1,7.77191E-1
-2.20306E-1,7.87658E-1
-1.75323E-1,8.12103E-1
-1.00952E-1,8.34991E-1
-0.45227E-1,8.34625E-1
0.21209E-1,8.62579E-1
1.1203E-1,8.52752E-1
1.70898E-1,8.33221E-1
2.40875E-1,8.17260E-1
2.87628E-1,7.85095E-1
3.35784E-1,7.85797E-1
4.18029E-1,7.69714E-1
4.80865E-1,7.28210E-1
5.43579E-1,6.94763E-1
5.97259E-1,6.39892E-1
6.36688E-1,6.03057E-1
7.01660E-1,5.60821E-1
7.50488E-1,4.91210E-1
7.85766E-1,4.33563E-1
8.26141E-1,3.67309E-1
8.52752E-1,3.00933E-1
8.81134E-1,2.36969E-1
9.04205E-1,1.58447E-1
9.11193E-1,0.83618E-1
9.17419E-1,0.12268E-1
9.20135E-1,-0.64697E-1
9.11254E-1,-1.41235E-1
8.95935E-1,-2.11578E-1
8.77685E-1,-2.82562E-1
8.52020E-1,-3.43902E-1
8.42407E-1,-4.03015E-1
8.24768E-1,-5.00122E-1
7.65228E-1,-5.79254E-1
7.11578E-1,-6.44134E-1
6.39862E-1,-6.99798E-1
5.87616E-1,-7.28302E-1
5.47393E-1,-7.94616E-1
4.53704E-1,-8.50738E-1
3.74389E-1,-8.7146E-1
END
BEGIN
-8.44238E-1,-0.31280E-1
-8.76861E-1,0.38909E-1
-8.22357E-1,1.75811E-1
-7.69104E-1,1.68579E-1
-8.45153E-1,2.34985E-1
-7.97363E-1,3.74267E-1
-7.67059E-1,4.28619E-1
-7.11883E-1,5.56518E-1
-6.04064E-1,5.69213E-1
-6.32537E-1,5.94940E-1
-5.76782E-1,7.33062E-1
-4.73266E-1,7.78198E-1
-3.80737E-1,8.47717E-1
-2.42218E-1,8.33953E-1
-2.26806E-1,8.14147E-1
-1.56951E-1,9.00787E-1
-0.35644E-1,8.96850E-1
0.46783E-1,9.13391E-1
1.97448E-1,8.63647E-1
2.10449E-1,7.67944E-1
2.2995E-1,8.04565E-1
3.40881E-1,7.88574E-1
3.91113E-1,7.58819E-1
5.03570E-1,7.32666E-1
5.45532E-1,6.20422E-1
5.41595E-1,6.12731E-1
6.33606E-1,5.93414E-1
6.84417E-1,5.25238E-1
7.68432E-1,4.75982E-1
8.10821E-1,3.30505E-1
7.60620E-1,2.76550E-1
8.06610E-1,2.62298E-1
8.42926E-1,1.92871E-1
9.06372E-1,1.35314E-1
9.35668E-1,-0.42388E-1
8.19030E-1,-1.21063E-1
8.21502E-1,-1.11663E-1
8.50982E-1,-1.85455E-1
8.71124E-1,-2.54425E-1
8.80767E-1,-4.22607E-1
7.16735E-1,-5.23315E-1
6.59149E-1,-4.79888E-1
6.68853E-1,-5.25909E-1
6.50573E-1,-5.77179E-1
6.57012E-1,-7.01904E-1
4.89105E-1,-8.30932E-1
3.76129E-1,-7.67791E-1
3.72100E-1,-7.82989E-1
3.16467E-1,-8.18237E-1
2.9953E-1,-8.79852E-1
1.45080E-1,-1.00183E0
-0.33630E-1,-9.19189E-1
-0.49194E-1,-8.62304E-1
-1.05133E-1,-8.64410E-1
-1.26220E-1,-8.59252E-1
-2.18322E-1,-9.45098E-1
-4.15069E-1,-8.73260E-1
-4.37255E-1,-7.54547E-1
-4.70245E-1,-7.32605E-1
-4.97955E-1,-6.90551E-1
-5.43609E-1,-7.31475E-1
-7.23419E-1,-6.76696E-1
-7.51251E-1,-5.112E-1
-7.40356E-1,-4.56848E-1
-7.53692E-1,-3.93432E-1
-7.51342E-1,-3.93005E-1
-8.82141E-1,-3.80859E-1
-9.44335E-1,-1.94793E-1
-8.82690E-1,-1.12793E-1
-8.86169E-1,-0.59112E-1
-8.67767E-1,-0.14007E-1
-9.34478E-1,0.09613E-1
-9.91790E-1,1.86584E-1
-8.89404E-1,3.07220E-1
-8.44757E-1,3.49426E-1
-7.96600E-1,4.11132E-1
-7.79449E-1,4.31671E-1
-7.97058E-1,5.37536E-1
-6.99371E-1,6.55853E-1
-6.09619E-1,6.84967E-1
-5.35827E-1,7.14416E-1
-4.97955E-1,7.12646E-1
-4.93927E-1,7.82623E-1
-3.82354E-1,8.71856E-1
-2.8479E-1,8.68682E-1
-2.06878E-1,8.89648E-1
-1.18591E-1,8.60900E-1
-1.08764E-1,8.56109E-1
-0.47180E-1,9.25323E-1
0.69976E-1,9.28558E-1
1.49536E-1,9.13238E-1
2.39166E-1,8.76647E-1
2.68188E-1,8.36578E-1
3.21411E-1,8.62457E-1
4.38446E-1,8.52294E-1
5.31280E-1,7.98584E-1
6.16760E-1,7.18841E-1
6.27227E-1,6.29608E-1
6.47522E-1,6.27441E-1
7.45910E-1,5.91064E-1
8.12377E-1,4.97009E-1
8.60351E-1,4.08233E-1
8.638E-1,2.97027E-1
8.46679E-1,2.69989E-1
9.11010E-1,2.25219E-1
9.36584E-1,1.19415E-1
9.48028E-1,0.38574E-1
9.43664E-1,-0.88836E-1
8.73321E-1,-1.53503E-1
8.82904E-1,-1.75079E-1
8.98040E-1,-2.68188E-1
8.71887E-1,-3.6026E-1
8.24401E-1,-4.69574E-1
7.09350E-1,-5.26611E-1
6.73767E-1,-5.16662E-1
6.71234E-1,-5.79589E-1
6.24664E-1,-6.56921E-1
5.60089E-1,-7.36480E-1
4.31549E-1,-7.77587E-1
3.62152E-1,-7.33734E-1
3.55163E-1,-7.47650E-1
3.11035E-1,-8.00537E-1
2.41973E-1,-8.55499E-1
1.14044E-1,-8.87420E-1
0.17883E-1,-8.21014E-1
0.08239E-1,-7.93212E-1
-0.29449E-1,-8.12347E-1
-0.89111E-1,-8.36944E-1
-2.03033E-1,-8.52417E-1
-3.10821E-1,-7.60040E-1
-3.05358E-1,-6.92016E-1
-3.17779E-1,-6.97845E-1
-3.71276E-1,-7.05658E-1
-4.57763E-1,-6.98455E-1
-5.42816E-1,-6.16485E-1
-5.46051E-1,-5.39611E-1
-5.57769E-1,-5.17364E-1
-5.92010E-1,-4.91455E-1
-6.40136E-1,-4.72717E-1
-7.15911E-1,-4.12323E-1
-7.26532E-1,-3.17749E-1
-7.19726E-1,-2.73925E-1
-7.31811E-1,-2.34314E-1
-7.55218E-1,-2.02117E-1
-8.07373E-1,-1.43371E-1
-8.18176E-1,-0.46783E-1
-8.01055E-1,0.08697E-1
-7.99072E-1,0.58410E-1
-7.98492E-1,1.03241E-1
-8.22509E-1,1.66961E-1
-8.08197E-1,2.80731E-1
-7.35992E-1,3.42315E-1
-7.10052E-1,3.63281E-1
-6.96685E-1,4.00543E-1
-6.99310E-1,4.50408E-1
-6.79870E-1,5.44342E-1
-5.98571E-1,6.19903E-1
-5.34912E-1,6.50360E-1
-4.83703E-1,6.86767E-1
-4.42413E-1,7.18963E-1
-3.94958E-1,7.78869E-1
-3.01483E-1,8.15490E-1
-2.29858E-1,8.11645E-1
-1.74163E-1,8.15460E-1
-1.30035E-1,8.19427E-1
-0.85052E-1,8.54064E-1
0.00885E-1,8.81561E-1
0.81970E-1,8.72497E-1
1.53839E-1,8.59466E-1
2.10968E-1,8.31939E-1
2.58209E-1,8.32366E-1
3.47015E-1,8.33099E-1
4.35089E-1,7.88177E-1
4.97650E-1,7.35961E-1
5.44006E-1,6.82128E-1
5.77575E-1,6.52679E-1
6.42913E-1,6.24176E-1
7.09686E-1,5.62255E-1
7.51098E-1,4.89776E-1
7.79968E-1,4.23400E-1
8.02795E-1,3.68469E-1
8.40332E-1,3.12927E-1
8.74389E-1,2.42462E-1
8.91754E-1,1.65039E-1
9.00787E-1,0.92285E-1
9.04571E-1,0.20721E-1
9.01367E-1,-0.55603E-1
8.89984E-1,-1.24847E-1
8.80432E-1,-1.94366E-1
8.62670E-1,-2.60376E-1
8.53698E-1,-3.22387E-1
8.35083E-1,-4.08813E-1
7.80151E-1,-4.82971E-1
7.34893E-1,-5.33813E-1
6.90307E-1,-5.86547E-1
6.59332E-1,-6.31439E-1
6.28479E-1,-7.16430E-1
5.27893E-1,-7.86895E-1
4.44091E-1,-7.95562E-1
3.83392E-1,-8.09417E-1
3.34106E-1,-8.17047E-1
END
BEGIN
-4.86816E-1,-1.70974E-1
-5.01464E-1,-1.16455E-1
-5.10681E-1,-0.59112E-1
-5.12542E-1,-0.10620E-1
-5.12237E-1,0.52825E-1
-4.93591E-1,1.10900E-1
-4.76379E-1,1.67694E-1
-4.54483E-1,2.15103E-1
-4.34799E-1,2.69149E-1
-3.99505E-1,3.17062E-1
-3.63418E-1,3.52279E-1
-3.20129E-1,3.85620E-1
-2.7948E-1,4.11636E-1
-2.29705E-1,4.50256E-1
-1.75216E-1,4.65530E-1
-1.25442E-1,4.79980E-1
-0.70785E-1,4.86389E-1
-0.22232E-1,4.89059E-1
0.27664E-1,4.94842E-1
0.85571E-1,4.77188E-1
1.30355E-1,4.58953E-1
1.74682E-1,4.35424E-1
2.14553E-1,4.11346E-1
2.60208E-1,3.7883E-1
2.97699E-1,3.38851E-1
3.30673E-1,3.06045E-1
3.61557E-1,2.58682E-1
3.86154E-1,2.16735E-1
4.09759E-1,1.57821E-1
4.21707E-1,1.12426E-1
4.37988E-1,0.60791E-1
4.39910E-1,0.04943E-1
4.33609E-1,-0.32882E-1
4.25735E-1,-0.76599E-1
4.14733E-1,-1.08520E-1
3.98040E-1,-1.62460E-1
3.66714E-1,-1.98318E-1
3.46939E-1,-2.25708E-1
3.33328E-1,-2.64434E-1
2.93304E-1,-3.00674E-1
2.57949E-1,-3.26873E-1
2.18551E-1,-3.45901E-1
1.75354E-1,-3.66363E-1
1.39541E-1,-3.84780E-1
0.87493E-1,-4.05181E-1
0.52352E-1,-4.08493E-1
0.07812E-1,-4.10858E-1
-0.35598E-1,-4.04724E-1
-0.77423E-1,-3.94699E-1
-1.27182E-1,-3.94622E-1
-1.80221E-1,-3.62838E-1
-2.10739E-1,-3.46725E-1
-2.46795E-1,-3.30658E-1
-2.80899E-1,-3.05954E-1
-3.09768E-1,-2.77862E-1
-3.37051E-1,-2.40829E-1
-3.56231E-1,-2.12585E-1
-3.79501E-1,-1.74728E-1
-3.96163E-1,-1.32614E-1
-4.03213E-1,-0.85983E-1
-4.16412E-1,-0.46340E-1
-4.13055E-1,0.09719E-1
-4.02114E-1,0.48431E-1
-4.04464E-1,0.88195E-1
-3.98056E-1,1.40533E-1
-3.82293E-1,1.80740E-1
-3.63861E-1,2.20840E-1
-3.51196E-1,2.50427E-1
-3.22525E-1,2.83004E-1
-2.84591E-1,3.10806E-1
-2.38876E-1,3.27453E-1
-2.02758E-1,3.57238E-1
-1.49932E-1,3.78494E-1
-1.04797E-1,3.84109E-1
-0.66680E-1,3.96026E-1
-0.17852E-1,4.01474E-1
0.34332E-1,4.00512E-1
0.83419E-1,3.87054E-1
1.21795E-1,3.84475E-1
1.61590E-1,3.77533E-1
2.06192E-1,3.59985E-1
2.37197E-1,3.22021E-1
2.61077E-1,2.90954E-1
2.93365E-1,2.60269E-1
3.18954E-1,2.22351E-1
3.47869E-1,1.86782E-1
3.70315E-1,1.42669E-1
3.83606E-1,1.05728E-1
3.85376E-1,0.62301E-1
3.91189E-1,0.29342E-1
3.89892E-1,-0.11032E-1
3.85284E-1,-0.52398E-1
3.68377E-1,-0.91430E-1
3.56643E-1,-1.27304E-1
3.43170E-1,-1.60995E-1
3.21914E-1,-1.98303E-1
2.96127E-1,-2.27996E-1
2.69409E-1,-2.63290E-1
2.34878E-1,-3.02093E-1
2.01187E-1,-3.19046E-1
1.85455E-1,-3.44253E-1
1.64444E-1,-3.60641E-1
1.44149E-1,-3.80767E-1
1.07315E-1,-3.85665E-1
0.81176E-1,-3.82690E-1
0.56381E-1,-3.94973E-1
0.20172E-1,-4.04373E-1
-0.14205E-1,-4.08523E-1
-0.51940E-1,-4.05990E-1
-0.82794E-1,-3.98345E-1
-1.13205E-1,-3.93539E-1
-1.50253E-1,-3.86032E-1
-1.81442E-1,-3.73519E-1
-2.14050E-1,-3.70697E-1
-2.46231E-1,-3.55728E-1
-2.68920E-1,-3.42056E-1
-2.92190E-1,-3.2901E-1
-3.17062E-1,-3.07434E-1
-3.41964E-1,-2.82012E-1
-3.61724E-1,-2.48764E-1
-3.85482E-1,-2.22534E-1
-4.09957E-1,-1.93222E-1
-4.32449E-1,-1.65069E-1
-4.47555E-1,-1.37451E-1
-4.63439E-1,-1.07971E-1
-4.77340E-1,-0.76309E-1
-4.87075E-1,-0.37094E-1
-4.91821E-1,-0.03692E-1
-4.99755E-1,0.25787E-1
-5.05920E-1,0.66070E-1
-4.95880E-1,0.97717E-1
-4.93057E-1,1.37481E-1
-4.79171E-1,1.79870E-1
-4.69085E-1,2.18277E-1
-4.60418E-1,2.60208E-1
-4.43893E-1,2.98934E-1
-4.33425E-1,3.34686E-1
-4.0979E-1,3.72024E-1
-3.84429E-1,3.94851E-1
-3.63525E-1,4.22393E-1
-3.32000E-1,4.52499E-1
-2.98889E-1,4.71756E-1
-2.64633E-1,4.95483E-1
-2.23510E-1,5.09521E-1
-1.87713E-1,5.26947E-1
-1.42822E-1,5.41381E-1
-0.96344E-1,5.48706E-1
-0.47943E-1,5.61126E-1
0.11291E-1,5.63568E-1
0.59204E-1,5.59753E-1
0.97229E-1,5.55786E-1
1.35528E-1,5.61584E-1
1.79534E-1,5.58807E-1
2.33123E-1,5.42602E-1
2.80517E-1,5.10772E-1
3.28170E-1,4.74838E-1
3.71704E-1,4.38797E-1
4.15252E-1,3.98178E-1
4.51858E-1,3.52523E-1
4.81521E-1,2.97027E-1
5.00732E-1,2.40875E-1
5.13336E-1,1.88537E-1
5.28961E-1,1.39434E-1
5.33721E-1,0.96374E-1
5.36590E-1,0.54870E-1
5.22796E-1,0.14556E-1
5.06195E-1,-0.20965E-1
4.90249E-1,-0.56839E-1
4.71267E-1,-0.96527E-1
4.52529E-1,-1.31805E-1
4.32037E-1,-1.73629E-1
4.03823E-1,-2.11532E-1
3.74511E-1,-2.40722E-1
3.50006E-1,-2.69531E-1
3.28476E-1,-2.96493E-1
3.01239E-1,-3.32870E-1
2.59353E-1,-3.54492E-1
2.22686E-1,-3.66668E-1
1.92855E-1,-3.78784E-1
1.61560E-1,-3.88198E-1
1.27090E-1,-4.0242E-1
0.74218E-1,-4.06494E-1
0.29373E-1,-3.97476E-1
-0.14129E-1,-3.95217E-1
-0.54901E-1,-3.89907E-1
-0.90621E-1,-3.92211E-1
-1.38961E-1,-3.88153E-1
-1.72439E-1,-3.65829E-1
-1.98547E-1,-3.49823E-1
-2.26608E-1,-3.25454E-1
-2.43469E-1,-3.04473E-1
-2.71774E-1,-2.88726E-1
-3.03588E-1,-2.52426E-1
-3.16360E-1,-2.13302E-1
-3.26751E-1,-1.76559E-1
-3.30368E-1,-1.42700E-1
-3.46145E-1,-1.09314E-1
-3.61160E-1,-0.65902E-1
-3.61877E-1,-0.19775E-1
-3.58078E-1,0.08468E-1
-3.52401E-1,0.31936E-1
END
