CITIFILE A.01.01
#NA VERSION HP8510C.08.10
NAME DATA
#NA REGISTER 1
VAR FREQ MAG 201
DATA S[1,1] RI
DATA S[2,1] RI
DATA S[1,2] RI
DATA S[2,2] RI
SEG_LIST_BEGIN
SEG 8000000000 12000000000 201
SEG_LIST_END
COMMENT       YEAR MONTH DAY HOUR MINUTE SECONDS
CONSTANT TIME 2013   09   12  23    01    04.0
BEGIN
-6.18774E-1,0.13122E-1
-6.29577E-1,0.60546E-1
-6.04980E-1,1.19812E-1
-5.70068E-1,1.70349E-1
-5.32775E-1,2.28698E-1
-4.89273E-1,2.84729E-1
-4.47128E-1,3.61129E-1
-4.02618E-1,4.33044E-1
-3.80081E-1,4.99679E-1
-3.64532E-1,5.25939E-1
-3.40637E-1,5.15686E-1
-2.72811E-1,4.97955E-1
-1.68762E-1,4.99725E-1
-0.52520E-1,5.50628E-1
0.21820E-1,6.14135E-1
0.29510E-1,6.65008E-1
0.15258E-1,6.60614E-1
0.22766E-1,5.95611E-1
1.03912E-1,5.20629E-1
2.41516E-1,4.52224E-1
3.51944E-1,4.53094E-1
4.06555E-1,4.99267E-1
3.90380E-1,5.30212E-1
3.57025E-1,4.90341E-1
3.49624E-1,3.76159E-1
3.93875E-1,2.54211E-1
4.79019E-1,1.78451E-1
5.62988E-1,1.69158E-1
6.00738E-1,1.77551E-1
5.76049E-1,1.78466E-1
5.27679E-1,1.17736E-1
4.84558E-1,0.23208E-1
4.84085E-1,-0.66619E-1
5.07782E-1,-1.37847E-1
5.34668E-1,-1.70013E-1
5.29785E-1,-2.10693E-1
4.87274E-1,-2.26974E-1
4.47876E-1,-2.43087E-1
4.13406E-1,-2.81005E-1
3.59298E-1,-3.33007E-1
3.06564E-1,-3.95172E-1
2.60070E-1,-4.47067E-1
2.39349E-1,-4.88098E-1
2.38205E-1,-4.99252E-1
2.11959E-1,-4.91668E-1
1.51397E-1,-4.56039E-1
0.39306E-1,-4.38079E-1
-0.63583E-1,-4.60357E-1
-1.18042E-1,-5.16479E-1
-1.20208E-1,-5.79864E-1
-1.11724E-1,-5.54779E-1
-1.04553E-1,-4.68521E-1
-1.63024E-1,-3.66577E-1
-2.76123E-1,-3.03878E-1
-3.83606E-1,-3.13247E-1
-4.34417E-1,-3.56369E-1
-4.00665E-1,-3.83575E-1
-3.44207E-1,-3.33587E-1
-3.20892E-1,-2.17392E-1
-3.58139E-1,-0.91827E-1
-4.48272E-1,-0.29647E-1
-5.10253E-1,-0.2771E-1
-5.09674E-1,-0.67047E-1
-4.56497E-1,-0.75912E-1
-3.85360E-1,-0.13946E-1
-3.40087E-1,0.80383E-1
-3.45840E-1,1.65847E-1
-3.87542E-1,2.00592E-1
-4.03427E-1,2.11013E-1
-3.74176E-1,2.07138E-1
-3.11218E-1,2.06207E-1
-2.64389E-1,2.27005E-1
-2.41043E-1,3.09249E-1
-2.30934E-1,2.04101E-1
-1.56906E-1,3.04382E-1
-1.29974E-1,3.34762E-1
-1.17080E-1,3.58718E-1
-1.19934E-1,3.48053E-1
-1.24054E-1,3.19198E-1
-0.81497E-1,2.78015E-1
0.07782E-1,2.66204E-1
1.06308E-1,2.81005E-1
1.36581E-1,3.32397E-1
0.98220E-1,3.82476E-1
0.32577E-1,3.62319E-1
0.12817E-1,2.78381E-1
0.84777E-1,1.71859E-1
1.96983E-1,1.24076E-1
2.89947E-1,1.63635E-1
3.06228E-1,2.54318E-1
2.40051E-1,3.02658E-1
1.61842E-1,2.44178E-1
1.31805E-1,1.02851E-1
1.9487E-1,-0.09773E-1
3.07800E-1,-0.43594E-1
3.89831E-1,-0.01281E-1
3.80661E-1,0.65811E-1
2.97348E-1,0.80093E-1
2.19932E-1,0.12107E-1
1.93061E-1,-1.02577E-1
2.37365E-1,-1.87568E-1
2.98568E-1,-2.14508E-1
3.24966E-1,-2.07046E-1
2.82867E-1,-1.90689E-1
2.16049E-1,-2.03666E-1
1.60369E-1,-2.48809E-1
1.35284E-1,-3.03726E-1
1.17614E-1,-3.42605E-1
0.90591E-1,-3.60931E-1
0.59875E-1,-3.80172E-1
0.25726E-1,-3.97827E-1
0.06408E-1,-4.07272E-1
-0.19256E-1,-3.89709E-1
-0.70571E-1,-3.60336E-1
-1.56234E-1,-3.39569E-1
-2.39578E-1,-3.55529E-1
-2.80548E-1,-3.99902E-1
-2.77801E-1,-4.29809E-1
-2.48855E-1,-3.92059E-1
-2.45025E-1,-2.97027E-1
-3.15155E-1,-2.00637E-1
-4.30069E-1,-1.53167E-1
-5.21728E-1,-1.80572E-1
-5.29296E-1,-2.32391E-1
-4.71283E-1,-2.49618E-1
-4.08874E-1,-1.73385E-1
-4.08096E-1,-0.31326E-1
-4.76547E-1,0.82290E-1
-5.76812E-1,1.05560E-1
-6.30859E-1,0.69030E-1
-5.90026E-1,0.26611E-1
-5.05584E-1,0.63293E-1
-4.26376E-1,1.77520E-1
-4.24942E-1,2.94052E-1
-4.95208E-1,3.59008E-1
-5.44647E-1,3.66699E-1
-5.27862E-1,3.41522E-1
-4.36950E-1,3.51760E-1
-3.30108E-1,4.05304E-1
-2.96554E-1,4.91882E-1
-3.09234E-1,5.73059E-1
-3.11523E-1,5.86914E-1
-2.77252E-1,5.73791E-1
-1.88446E-1,5.57373E-1
-1.05133E-1,5.74646E-1
-0.59570E-1,6.29028E-1
-0.37414E-1,6.61071E-1
-0.18249E-1,6.47491E-1
0.55084E-1,6.24298E-1
1.58996E-1,5.88806E-1
2.25708E-1,5.93017E-1
2.67639E-1,6.35955E-1
2.67761E-1,6.28875E-1
2.84423E-1,5.66406E-1
3.60687E-1,4.64035E-1
4.46624E-1,3.90960E-1
5.27435E-1,3.91815E-1
5.63812E-1,4.13696E-1
5.30853E-1,4.12048E-1
5.00122E-1,3.16131E-1
5.08789E-1,1.65802E-1
5.78430E-1,0.70678E-1
6.73309E-1,0.38482E-1
7.12432E-1,0.55542E-1
6.68151E-1,0.53680E-1
5.46051E-1,-0.18158E-1
4.75463E-1,-1.50711E-1
4.99832E-1,-2.84881E-1
5.59661E-1,-3.50250E-1
5.83618E-1,-3.37036E-1
5.21301E-1,-2.88085E-1
4.00924E-1,-2.81524E-1
2.74826E-1,-3.70681E-1
2.25982E-1,-4.93057E-1
2.56225E-1,-5.69763E-1
2.76153E-1,-5.66375E-1
2.46566E-1,-4.95834E-1
1.39892E-1,-4.45251E-1
0.06897E-1,-4.43847E-1
-0.71380E-1,-5.09185E-1
-0.87310E-1,-5.72143E-1
-0.75134E-1,-5.59234E-1
-0.87921E-1,-5.01861E-1
-1.54388E-1,-4.23782E-1
-2.33047E-1,-3.87878E-1
-2.99636E-1,-4.06311E-1
-3.26080E-1,-4.17800E-1
-3.18710E-1,-3.81851E-1
-3.33648E-1,-3.13064E-1
-3.73397E-1,-2.49465E-1
-4.27581E-1,-2.26928E-1
-4.61105E-1,-2.24029E-1
-4.48104E-1,-2.05627E-1
-4.19357E-1,-1.43508E-1
-4.25064E-1,-0.47637E-1
-4.75036E-1,0.17105E-1
-5.27038E-1,0.24505E-1
-5.34240E-1,-0.02746E-1
-4.79858E-1,-0.06683E-1
-3.97460E-1,0.5159E-1
-3.61480E-1,1.67953E-1
END
BEGIN
-9.63104E-1,0.57922E-1
-9.05334E-1,1.73156E-1
-8.56506E-1,1.84356E-1
-8.27026E-1,3.12347E-1
-7.31750E-1,4.11834E-1
-7.12127E-1,5.40832E-1
-6.04858E-1,6.71875E-1
-5.25512E-1,6.51489E-1
-5.23986E-1,6.54632E-1
-4.55841E-1,6.53320E-1
-4.14093E-1,6.69891E-1
-2.82562E-1,7.46734E-1
-1.73980E-1,7.26959E-1
-1.78466E-1,7.64831E-1
-1.18835E-1,8.44055E-1
-0.88653E-1,8.33099E-1
-0.16449E-1,8.66516E-1
1.19140E-1,7.79968E-1
1.48651E-1,7.17437E-1
2.32208E-1,7.51953E-1
3.11065E-1,7.48840E-1
3.58215E-1,8.14392E-1
4.88006E-1,7.88391E-1
4.94903E-1,6.84783E-1
5.45562E-1,6.55792E-1
6.40197E-1,5.33111E-1
6.92108E-1,4.80621E-1
8.43475E-1,4.15008E-1
8.50402E-1,2.61627E-1
7.88055E-1,2.47375E-1
7.70111E-1,1.95159E-1
7.12371E-1,1.50390E-1
7.56042E-1,0.98571E-1
7.75207E-1,-0.43457E-1
7.47009E-1,-0.72509E-1
8.06335E-1,-0.58563E-1
8.35357E-1,-0.89691E-1
8.86657E-1,-1.30249E-1
8.63555E-1,-3.24676E-1
7.20123E-1,-4.24743E-1
7.12432E-1,-4.76989E-1
6.90521E-1,-5.96405E-1
6.63665E-1,-6.14807E-1
6.54449E-1,-6.98486E-1
4.94628E-1,-7.21649E-1
4.36248E-1,-6.80328E-1
3.82293E-1,-7.71423E-1
2.90039E-1,-8.16803E-1
3.00811E-1,-8.94866E-1
1.74255E-1,-1.01440E0
0.51361E-1,-9.31152E-1
-0.00915E-1,-8.94561E-1
-1.23962E-1,-8.42163E-1
-1.71478E-1,-8.04657E-1
-2.57324E-1,-8.57421E-1
-3.52233E-1,-8.20922E-1
-3.52478E-1,-8.05419E-1
-4.04815E-1,-7.77984E-1
-4.17205E-1,-7.18780E-1
-4.99206E-1,-7.41210E-1
-6.75720E-1,-6.71905E-1
-7.39532E-1,-5.79406E-1
-8.21289E-1,-5.32653E-1
-8.09936E-1,-4.14825E-1
-7.61871E-1,-4.10705E-1
-8.30078E-1,-3.47595E-1
-8.27972E-1,-2.15362E-1
-8.40881E-1,-1.67602E-1
-8.95690E-1,-0.96557E-1
-9.13452E-1,-0.77026E-1
-1.00054E0,-0.31189E-1
-9.88189E-1,1.13952E-1
-9.29657E-1,1.84845E-1
-8.96331E-1,3.25042E-1
-8.30596E-1,4.48333E-1
-8.02215E-1,5.04211E-1
-7.62725E-1,5.85845E-1
-7.02514E-1,5.82061E-1
-6.85638E-1,6.05743E-1
-6.02844E-1,6.55639E-1
-5.40313E-1,6.81671E-1
-4.99054E-1,7.67425E-1
-4.36981E-1,8.40148E-1
-4.08752E-1,9.12109E-1
-3.11859E-1,9.68078E-1
-2.35229E-1,9.38171E-1
-1.59057E-1,9.52423E-1
-0.21026E-1,9.52850E-1
0.69641E-1,9.38415E-1
1.53686E-1,9.69726E-1
2.23541E-1,9.59930E-1
2.60467E-1,9.75250E-1
3.58825E-1,9.49554E-1
4.47143E-1,8.69049E-1
5.33599E-1,8.15704E-1
6.45263E-1,7.54821E-1
7.17712E-1,6.97784E-1
7.92907E-1,6.54296E-1
8.13110E-1,5.61218E-1
8.07556E-1,4.94018E-1
8.34472E-1,4.14154E-1
8.56933E-1,3.22052E-1
9.02862E-1,2.62695E-1
9.59411E-1,1.79016E-1
9.64172E-1,1.22589E-1
9.78057E-1,0.71777E-1
9.71984E-1,-0.30944E-1
9.41528E-1,-1.31652E-1
9.30999E-1,-2.47100E-1
8.96545E-1,-3.57666E-1
8.76983E-1,-4.18701E-1
8.4375E-1,-4.90417E-1
7.64984E-1,-5.21026E-1
7.13470E-1,-5.46447E-1
6.44378E-1,-6.14318E-1
5.84381E-1,-6.71142E-1
5.54687E-1,-7.52624E-1
4.87793E-1,-8.13537E-1
4.41955E-1,-8.34930E-1
3.59130E-1,-8.71612E-1
2.35473E-1,-8.50921E-1
1.52923E-1,-8.43017E-1
0.46478E-1,-8.65661E-1
-0.23071E-1,-8.49456E-1
-0.63568E-1,-8.61419E-1
-1.14288E-1,-8.24401E-1
-1.26403E-1,-7.72064E-1
-1.69006E-1,-7.43621E-1
-2.3526E-1,-7.26959E-1
-3.2901E-1,-7.45727E-1
-4.39178E-1,-7.16949E-1
-4.55291E-1,-6.76666E-1
-4.68994E-1,-6.63055E-1
-4.88922E-1,-6.00067E-1
-5.07995E-1,-5.46966E-1
-5.91064E-1,-4.80621E-1
-6.25335E-1,-3.96667E-1
-6.53167E-1,-4.07409E-1
-6.96197E-1,-3.98437E-1
-6.92321E-1,-3.77807E-1
-7.13317E-1,-3.41369E-1
-7.38281E-1,-2.31140E-1
-7.54791E-1,-1.43859E-1
-8.15185E-1,-0.61096E-1
-8.25531E-1,0.02838E-1
-8.39843E-1,0.03723E-1
-8.34747E-1,0.65795E-1
-7.48291E-1,1.36932E-1
-6.96228E-1,2.00927E-1
-6.62445E-1,2.78930E-1
-6.85546E-1,3.13903E-1
-7.49908E-1,3.72833E-1
-7.43774E-1,4.26635E-1
-6.97113E-1,4.45159E-1
-6.09558E-1,4.94537E-1
-5.28625E-1,5.29602E-1
-5.08239E-1,6.14807E-1
-4.55902E-1,7.17834E-1
-4.35241E-1,7.40875E-1
-4.11560E-1,7.60833E-1
-3.35662E-1,7.28179E-1
-2.84729E-1,7.15393E-1
-2.00012E-1,7.74719E-1
-0.99731E-1,8.31085E-1
-0.29541E-1,9.06127E-1
0.39337E-1,9.15435E-1
0.57830E-1,8.74084E-1
1.07849E-1,8.51470E-1
2.12066E-1,8.08380E-1
3.19671E-1,7.71667E-1
4.30938E-1,7.43072E-1
4.59716E-1,7.18933E-1
4.71771E-1,7.32605E-1
5.04913E-1,6.99462E-1
5.35186E-1,6.36077E-1
6.10656E-1,5.61187E-1
6.75903E-1,4.59930E-1
7.21893E-1,4.31549E-1
7.82196E-1,4.05731E-1
7.96478E-1,3.68774E-1
8.04077E-1,3.24829E-1
8.07403E-1,2.20062E-1
7.85919E-1,1.23596E-1
8.13720E-1,0.55969E-1
8.43658E-1,-0.13580E-1
8.63922E-1,-0.54412E-1
8.72741E-1,-1.03027E-1
8.33343E-1,-1.61743E-1
7.81982E-1,-2.22930E-1
7.49359E-1,-2.96386E-1
7.29309E-1,-3.70239E-1
7.28881E-1,-4.35913E-1
7.19879E-1,-4.88128E-1
6.95098E-1,-5.31402E-1
6.24816E-1,-5.66467E-1
5.47332E-1,-6.08093E-1
4.77996E-1,-6.43127E-1
4.41711E-1,-7.03613E-1
4.11285E-1,-7.68981E-1
3.59375E-1,-8.14025E-1
2.98004E-1,-8.09204E-1
END
BEGIN
-7.50915E-1,0.76599E-1
-7.83783E-1,1.41845E-1
-7.15728E-1,2.35351E-1
-7.16186E-1,2.21649E-1
-7.69378E-1,3.46130E-1
-6.78070E-1,4.35363E-1
-6.75750E-1,4.78973E-1
-5.96771E-1,5.92102E-1
-5.29602E-1,5.78552E-1
-5.57281E-1,6.59179E-1
-4.31274E-1,7.67883E-1
-3.46496E-1,7.68005E-1
-2.51892E-1,8.19397E-1
-1.54205E-1,7.7948E-1
-1.52832E-1,8.07525E-1
-0.27557E-1,8.77349E-1
0.62866E-1,8.26049E-1
1.31713E-1,8.42529E-1
2.42706E-1,7.61596E-1
2.15789E-1,7.07641E-1
2.74108E-1,7.67395E-1
3.79547E-1,7.13806E-1
4.12170E-1,7.06176E-1
5.34820E-1,6.69372E-1
5.46875E-1,5.68969E-1
5.68237E-1,5.87310E-1
6.77734E-1,5.31860E-1
7.07000E-1,4.67285E-1
8.04199E-1,4.07165E-1
8.10150E-1,2.57293E-1
7.72155E-1,2.36511E-1
8.39538E-1,1.95800E-1
8.56262E-1,1.12976E-1
9.20410E-1,0.32928E-1
8.89190E-1,-1.48681E-1
7.83233E-1,-1.71112E-1
8.20068E-1,-1.81091E-1
8.25347E-1,-2.78930E-1
8.29437E-1,-3.52142E-1
7.82592E-1,-5.16784E-1
6.24877E-1,-5.40557E-1
6.21093E-1,-5.07720E-1
6.18652E-1,-5.81909E-1
5.91308E-1,-6.33087E-1
5.59509E-1,-7.68310E-1
3.73870E-1,-8.20434E-1
3.24768E-1,-7.58087E-1
3.09387E-1,-8.09326E-1
2.40509E-1,-8.34594E-1
1.99981E-1,-9.08935E-1
0.04882E-1,-9.5755E-1
-0.86212E-1,-8.41217E-1
-0.88134E-1,-8.36273E-1
-1.54449E-1,-8.40515E-1
-1.85791E-1,-8.57238E-1
-3.32733E-1,-8.97979E-1
-4.50775E-1,-7.62054E-1
-4.37011E-1,-7.06176E-1
-4.93194E-1,-6.98638E-1
-5.27862E-1,-6.75476E-1
-6.29821E-1,-6.97418E-1
-7.52319E-1,-5.58136E-1
-7.10754E-1,-4.54467E-1
-7.30560E-1,-4.35455E-1
-7.55523E-1,-3.81927E-1
-8.12011E-1,-3.83178E-1
-9.41162E-1,-2.72003E-1
-9.01367E-1,-1.18866E-1
-8.77777E-1,-0.94726E-1
-8.93707E-1,-0.28015E-1
-9.02465E-1,0.13855E-1
-9.80346E-1,1.14044E-1
-9.21234E-1,2.96447E-1
-8.4021E-1,3.21838E-1
-8.29254E-1,3.73382E-1
-7.93670E-1,4.26116E-1
-8.10943E-1,4.90631E-1
-7.58972E-1,6.31591E-1
-6.43890E-1,6.74408E-1
-5.93658E-1,6.97021E-1
-5.39184E-1,7.25647E-1
-5.25451E-1,7.71270E-1
-4.52117E-1,8.84521E-1
-3.18969E-1,9.02465E-1
-2.64373E-1,9.03839E-1
-1.75842E-1,9.26147E-1
-1.24237E-1,9.06524E-1
-0.82580E-1,9.68475E-1
0.58532E-1,1.00927E0
1.60064E-1,9.76287E-1
2.46673E-1,9.65271E-1
3.19152E-1,9.05822E-1
3.55896E-1,8.96698E-1
4.70397E-1,8.92211E-1
5.81054E-1,8.17565E-1
6.60034E-1,7.46917E-1
7.09503E-1,6.51184E-1
7.07244E-1,6.15264E-1
7.84393E-1,6.07543E-1
8.68866E-1,5.02563E-1
8.93890E-1,3.99749E-1
9.20379E-1,2.94189E-1
8.97338E-1,2.15301E-1
9.29077E-1,1.90979E-1
9.81811E-1,0.91522E-1
9.67620E-1,-0.05065E-1
9.68658E-1,-0.98083E-1
9.10553E-1,-2.03979E-1
8.70636E-1,-2.30346E-1
8.94226E-1,-2.99224E-1
8.62365E-1,-4.07318E-1
8.13262E-1,-4.90783E-1
7.29797E-1,-5.73425E-1
6.51031E-1,-5.77056E-1
6.49749E-1,-6.04919E-1
6.10961E-1,-6.86248E-1
5.37384E-1,-7.43560E-1
4.39361E-1,-7.96173E-1
3.31939E-1,-7.79693E-1
3.08685E-1,-7.66723E-1
2.81066E-1,-8.22448E-1
2.07946E-1,-8.72314E-1
1.10076E-1,-9.01825E-1
-0.07659E-1,-8.61450E-1
-0.4422E-1,-7.98889E-1
-0.72113E-1,-8.08410E-1
-1.43371E-1,-8.29803E-1
-2.29858E-1,-8.38989E-1
-3.41949E-1,-7.91626E-1
-3.64288E-1,-6.89514E-1
-3.52020E-1,-6.69952E-1
-4.00451E-1,-6.78802E-1
-4.82513E-1,-6.63696E-1
-5.78430E-1,-6.12335E-1
-6.10961E-1,-5.13671E-1
-5.96862E-1,-4.74731E-1
-6.19781E-1,-4.55352E-1
-6.56707E-1,-4.19097E-1
-7.16278E-1,-3.73107E-1
-7.64129E-1,-2.72583E-1
-7.3703E-1,-1.96594E-1
-7.30438E-1,-1.69708E-1
-7.37579E-1,-1.39862E-1
-7.70507E-1,-1.04400E-1
-8.10241E-1,-0.18890E-1
-7.85095E-1,0.72601E-1
-7.62725E-1,1.14196E-1
-7.52685E-1,1.5271E-1
-7.61169E-1,1.86828E-1
-7.83752E-1,2.75512E-1
-7.27722E-1,3.94348E-1
-6.47735E-1,4.22729E-1
-6.27136E-1,4.38629E-1
-6.14349E-1,4.62799E-1
-6.29089E-1,5.03173E-1
-5.63751E-1,6.16302E-1
-4.64172E-1,6.61895E-1
-4.05304E-1,6.78161E-1
-3.60717E-1,6.93786E-1
-3.42224E-1,7.16705E-1
-2.91870E-1,7.69348E-1
-1.95983E-1,7.82684E-1
-1.26556E-1,7.72338E-1
-0.62591E-1,7.64343E-1
-0.34729E-1,7.64343E-1
0.03356E-1,8.04351E-1
0.79376E-1,8.19793E-1
1.50451E-1,7.98706E-1
2.19512E-1,7.62786E-1
2.58911E-1,7.22808E-1
3.02948E-1,7.34832E-1
3.81866E-1,7.40295E-1
4.55505E-1,7.11090E-1
5.06866E-1,6.63848E-1
5.35217E-1,6.05682E-1
5.67352E-1,5.80352E-1
6.34918E-1,5.47302E-1
7.01538E-1,4.94171E-1
7.51953E-1,4.32220E-1
7.79205E-1,3.66485E-1
7.92968E-1,3.14300E-1
8.20404E-1,2.53784E-1
8.48175E-1,1.83685E-1
8.71612E-1,1.07818E-1
8.84552E-1,0.24566E-1
8.78021E-1,-0.46997E-1
8.67279E-1,-1.14257E-1
8.50158E-1,-1.82128E-1
8.41278E-1,-2.51129E-1
8.22937E-1,-3.26721E-1
7.96508E-1,-3.95874E-1
7.59948E-1,-4.62554E-1
7.06817E-1,-5.19805E-1
6.61651E-1,-5.66741E-1
6.14288E-1,-6.25885E-1
5.72174E-1,-6.77703E-1
5.25146E-1,-7.38006E-1
4.48089E-1,-7.75726E-1
3.74847E-1,-7.83081E-1
3.11035E-1,-7.95929E-1
2.47222E-1,-8.10943E-1
END
BEGIN
-4.07486E-1,-3.81164E-1
-4.76593E-1,-3.53653E-1
-5.38360E-1,-2.83630E-1
-5.65368E-1,-2.14050E-1
-5.68969E-1,-1.43341E-1
-5.68084E-1,-1.01745E-1
-6.07116E-1,-0.49224E-1
-6.26434E-1,0.35369E-1
-6.24908E-1,1.15478E-1
-5.90332E-1,1.84906E-1
-5.50018E-1,2.18963E-1
-5.33416E-1,2.59613E-1
-5.18920E-1,3.25164E-1
-4.89532E-1,4.09820E-1
-4.28527E-1,4.73602E-1
-3.64746E-1,4.93469E-1
-3.26751E-1,5.00061E-1
-2.95684E-1,5.28747E-1
-2.46795E-1,5.78552E-1
-1.62750E-1,6.15448E-1
-0.80963E-1,6.13586E-1
-0.31951E-1,5.90087E-1
-0.05676E-1,5.82489E-1
0.49346E-1,5.95550E-1
1.34124E-1,5.9198E-1
2.17468E-1,5.57434E-1
2.67746E-1,4.99054E-1
2.82119E-1,4.64843E-1
3.16223E-1,4.47692E-1
3.66165E-1,4.24697E-1
4.30725E-1,3.67706E-1
4.59518E-1,2.89230E-1
4.53628E-1,2.37274E-1
4.48745E-1,2.13745E-1
4.68734E-1,2.00958E-1
5.10131E-1,1.33361E-1
5.04760E-1,0.48278E-1
4.74258E-1,-0.11795E-1
4.48852E-1,-0.28884E-1
4.53231E-1,-0.40374E-1
4.67910E-1,-0.86700E-1
4.45022E-1,-1.50466E-1
3.95538E-1,-2.04589E-1
3.51867E-1,-2.17895E-1
3.43551E-1,-2.26745E-1
3.52569E-1,-2.54013E-1
3.20190E-1,-3.04245E-1
2.60437E-1,-3.36929E-1
1.98379E-1,-3.38851E-1
1.80801E-1,-3.35083E-1
1.6539E-1,-3.55270E-1
1.40823E-1,-3.90121E-1
0.87417E-1,-4.11727E-1
0.24246E-1,-4.03488E-1
-0.14404E-1,-3.80706E-1
-0.31478E-1,-3.78433E-1
-0.54245E-1,-4.01245E-1
-1.06002E-1,-4.07012E-1
-1.62139E-1,-3.83590E-1
-1.98623E-1,-3.35281E-1
-2.09625E-1,-3.17001E-1
-2.38998E-1,-3.11828E-1
-2.78762E-1,-3.05023E-1
-3.30200E-1,-2.77557E-1
-3.59863E-1,-2.17102E-1
-3.59848E-1,-1.70074E-1
-3.68972E-1,-1.43569E-1
-3.97537E-1,-1.31424E-1
-4.30908E-1,-0.93505E-1
-4.40048E-1,-0.36102E-1
-4.15756E-1,0.13565E-1
-4.05746E-1,0.45135E-1
-4.01565E-1,0.80841E-1
-4.05502E-1,1.23275E-1
-4.01443E-1,1.80114E-1
-3.66012E-1,2.29171E-1
-3.25241E-1,2.61688E-1
-2.84668E-1,2.76168E-1
-2.75436E-1,3.00766E-1
-2.56378E-1,3.42651E-1
-2.13913E-1,3.78692E-1
-1.58721E-1,3.86840E-1
-1.11343E-1,3.76785E-1
-0.80612E-1,3.73779E-1
-0.51391E-1,3.85879E-1
-0.04791E-1,4.05609E-1
0.52200E-1,3.98300E-1
0.95047E-1,3.70346E-1
1.24908E-1,3.31787E-1
1.43020E-1,3.19397E-1
1.78863E-1,3.20236E-1
2.24563E-1,3.04092E-1
2.49343E-1,2.61383E-1
2.53860E-1,2.11807E-1
2.45880E-1,1.75743E-1
2.59994E-1,1.56234E-1
2.88101E-1,1.29211E-1
3.05419E-1,0.90301E-1
3.01879E-1,0.47042E-1
2.69699E-1,0.14312E-1
2.57629E-1,0.01586E-1
2.70874E-1,-0.19134E-1
2.91198E-1,-0.57006E-1
2.83126E-1,-0.94650E-1
2.53265E-1,-1.13052E-1
2.27767E-1,-1.14761E-1
2.21885E-1,-1.23344E-1
2.2435E-1,-1.56501E-1
2.10754E-1,-1.95617E-1
1.85089E-1,-2.18528E-1
1.55548E-1,-2.18895E-1
1.43692E-1,-2.17582E-1
1.41227E-1,-2.39532E-1
1.26403E-1,-2.85430E-1
0.92163E-1,-3.13110E-1
0.60653E-1,-3.13232E-1
0.44265E-1,-3.04519E-1
0.31784E-1,-3.11874E-1
-0.00900E-1,-3.38851E-1
-0.46707E-1,-3.52691E-1
-0.88821E-1,-3.59512E-1
-1.21002E-1,-3.46038E-1
-1.41128E-1,-3.37204E-1
-1.70959E-1,-3.41598E-1
-2.26226E-1,-3.44833E-1
-2.85659E-1,-3.31512E-1
-3.27484E-1,-3.01101E-1
-3.43704E-1,-2.74581E-1
-3.59069E-1,-2.67715E-1
-4.04357E-1,-2.48184E-1
-4.41711E-1,-2.10861E-1
-4.77523E-1,-1.60491E-1
-4.89288E-1,-1.11602E-1
-4.98092E-1,-0.79071E-1
-5.23223E-1,-0.48828E-1
-5.43792E-1,0.00701E-1
-5.60028E-1,0.55969E-1
-5.54565E-1,1.15417E-1
-5.40710E-1,1.52526E-1
-5.40679E-1,1.83715E-1
-5.43823E-1,2.29705E-1
-5.33783E-1,2.78625E-1
-5.12786E-1,3.32885E-1
-4.79156E-1,3.74023E-1
-4.51660E-1,4.10171E-1
-4.25201E-1,4.44412E-1
-3.96560E-1,4.82147E-1
-3.59283E-1,5.30059E-1
-3.01422E-1,5.69335E-1
-2.45941E-1,5.94818E-1
-2.07366E-1,6.06811E-1
-1.75689E-1,6.31042E-1
-1.35650E-1,6.47979E-1
-0.77514E-1,6.58081E-1
0.03967E-1,6.38763E-1
0.42175E-1,6.41387E-1
0.89080E-1,6.42303E-1
1.40106E-1,6.43249E-1
1.93573E-1,6.36901E-1
2.51037E-1,6.07940E-1
3.00170E-1,5.66009E-1
3.38897E-1,5.31463E-1
3.85559E-1,5.05859E-1
4.30160E-1,4.83322E-1
4.77294E-1,4.48226E-1
5.01495E-1,4.02740E-1
5.18432E-1,3.53485E-1
5.31860E-1,3.07830E-1
5.48065E-1,2.64160E-1
5.62866E-1,2.17895E-1
5.71685E-1,1.62994E-1
5.72906E-1,1.03698E-1
5.58593E-1,0.49957E-1
5.49499E-1,0.08880E-1
5.50842E-1,-0.29205E-1
5.46234E-1,-0.80719E-1
5.25024E-1,-1.33514E-1
4.88555E-1,-1.78466E-1
4.54132E-1,-2.09793E-1
4.32983E-1,-2.35900E-1
4.17434E-1,-2.74246E-1
3.82202E-1,-3.12988E-1
3.32992E-1,-3.39828E-1
2.81585E-1,-3.50875E-1
2.41272E-1,-3.58078E-1
2.15637E-1,-3.80081E-1
1.73980E-1,-4.12902E-1
1.25045E-1,-4.29077E-1
0.82260E-1,-4.26818E-1
0.45974E-1,-4.12567E-1
0.25116E-1,-3.99215E-1
-0.06774E-1,-4.09118E-1
-0.62896E-1,-4.08737E-1
-1.11160E-1,-3.88336E-1
-1.42471E-1,-3.62274E-1
-1.56066E-1,-3.35052E-1
-1.71051E-1,-3.26934E-1
-2.22122E-1,-3.15506E-1
-2.66601E-1,-2.77587E-1
-2.92083E-1,-2.42157E-1
-3.02551E-1,-2.11471E-1
END
