CITIFILE A.01.01
#NA VERSION HP8510C.08.10
NAME DATA
#NA REGISTER 1
VAR FREQ MAG 201
DATA S[1,1] RI
DATA S[2,1] RI
DATA S[1,2] RI
DATA S[2,2] RI
SEG_LIST_BEGIN
SEG 8000000000 12000000000 201
SEG_LIST_END
COMMENT       YEAR MONTH DAY HOUR MINUTE SECONDS
CONSTANT TIME 2013   09   12  23    08    09.0
BEGIN
-4.87991E-1,-3.34228E-1
-5.37323E-1,-3.13262E-1
-5.65948E-1,-2.63671E-1
-5.73638E-1,-2.18841E-1
-5.76995E-1,-1.63970E-1
-5.67291E-1,-1.13769E-1
-5.73181E-1,-0.43609E-1
-5.74462E-1,0.43670E-1
-5.97808E-1,1.27166E-1
-6.17889E-1,1.78741E-1
-6.21124E-1,1.88018E-1
-5.86883E-1,1.93023E-1
-5.16449E-1,2.25524E-1
-4.43496E-1,3.16772E-1
-3.94378E-1,4.30389E-1
-4.01580E-1,5.20477E-1
-4.28405E-1,5.51269E-1
-4.34417E-1,5.18737E-1
-3.76159E-1,4.90814E-1
-2.29827E-1,4.97192E-1
-0.98785E-1,5.50262E-1
-0.30334E-1,6.33728E-1
-0.39611E-1,6.95892E-1
-0.66101E-1,7.0224E-1
-0.38055E-1,6.41937E-1
0.50201E-1,5.57800E-1
1.76147E-1,5.07812E-1
2.84484E-1,5.19805E-1
3.50585E-1,5.59082E-1
3.56079E-1,5.84289E-1
3.64563E-1,5.41839E-1
3.82034E-1,4.44213E-1
4.26773E-1,3.50601E-1
4.93438E-1,2.80044E-1
5.52215E-1,2.52349E-1
6.02264E-1,2.11242E-1
5.98663E-1,1.67480E-1
5.86334E-1,1.23779E-1
5.75988E-1,0.66925E-1
5.55175E-1,-0.05737E-1
5.37597E-1,-0.86761E-1
5.18402E-1,-1.67846E-1
5.16815E-1,-2.45849E-1
5.20629E-1,-2.87323E-1
5.10498E-1,-3.06488E-1
4.62188E-1,-2.98370E-1
3.64486E-1,-3.21502E-1
2.66372E-1,-3.82553E-1
2.03964E-1,-4.68185E-1
2.08526E-1,-5.48217E-1
2.12860E-1,-5.63568E-1
2.06268E-1,-5.03845E-1
1.36093E-1,-4.32327E-1
0.05966E-1,-3.99871E-1
-1.15783E-1,-4.31778E-1
-1.80847E-1,-5.01831E-1
-1.61773E-1,-5.41259E-1
-1.21765E-1,-5.05310E-1
-1.21215E-1,-4.04449E-1
-1.88308E-1,-2.87475E-1
-2.97821E-1,-2.40264E-1
-3.89892E-1,-2.46749E-1
-4.02954E-1,-2.89718E-1
-3.63540E-1,-3.07510E-1
-3.15795E-1,-2.47268E-1
-2.95944E-1,-1.45172E-1
-3.28018E-1,-0.48873E-1
-3.82019E-1,-0.11764E-1
-4.19830E-1,-0.06347E-1
-4.11056E-1,-0.09491E-1
-3.61053E-1,0.00351E-1
-3.22601E-1,0.29602E-1
-2.89794E-1,0.75759E-1
-2.67715E-1,1.15432E-1
-2.55966E-1,1.50207E-1
-2.46513E-1,1.89872E-1
-2.46284E-1,2.20718E-1
-2.48786E-1,2.21672E-1
-2.53555E-1,1.96975E-1
-2.14347E-1,1.70143E-1
-1.36795E-1,1.77642E-1
-0.46791E-1,2.20054E-1
-0.21728E-1,2.85583E-1
-0.68023E-1,3.42895E-1
-1.32644E-1,3.29269E-1
-1.51413E-1,2.51449E-1
-0.75233E-1,1.67800E-1
0.45036E-1,1.39991E-1
1.42196E-1,1.99333E-1
1.55151E-1,3.04916E-1
0.84350E-1,3.61908E-1
0.07324E-1,3.16986E-1
-0.00488E-1,1.83952E-1
7.79457E-2,8.00819E-2
2.02766E-1,0.61737E-1
2.95608E-1,1.24618E-1
2.94448E-1,2.09335E-1
2.21595E-1,2.32231E-1
1.54243E-1,1.67846E-1
1.48117E-1,0.53451E-1
2.15095E-1,-0.28144E-1
3.00201E-1,-0.47241E-1
3.54202E-1,-0.27481E-1
3.31848E-1,-0.11627E-1
2.78656E-1,-0.27389E-1
2.36793E-1,-0.79551E-1
2.28775E-1,-1.43226E-1
2.35504E-1,-1.95587E-1
2.31254E-1,-2.30445E-1
2.22183E-1,-2.59857E-1
2.06939E-1,-2.91564E-1
2.01095E-1,-3.13797E-1
1.85806E-1,-3.13705E-1
1.45111E-1,-3.08807E-1
0.66467E-1,-3.17352E-1
-0.13473E-1,-3.61648E-1
-0.49957E-1,-4.28451E-1
-0.38650E-1,-4.80056E-1
-0.06546E-1,-4.66033E-1
-0.06454E-1,-3.92074E-1
-0.82275E-1,-3.24813E-1
-2.14187E-1,-3.02215E-1
-3.20144E-1,-3.53073E-1
-3.3992E-1,-4.27352E-1
-2.89856E-1,-4.68322E-1
-2.43866E-1,-4.16961E-1
-2.70446E-1,-2.91626E-1
-3.64822E-1,-1.81701E-1
-4.8172E-1,-1.64215E-1
-5.57495E-1,-2.22198E-1
-5.41076E-1,-2.82440E-1
-4.85183E-1,-2.63137E-1
-4.39132E-1,-1.49231E-1
-4.57794E-1,-0.23208E-1
-5.41198E-1,0.39520E-1
-6.25122E-1,0.40557E-1
-6.46270E-1,0.11718E-1
-5.98785E-1,0.20904E-1
-5.21667E-1,0.93994E-1
-4.96414E-1,1.89697E-1
-5.32074E-1,2.73315E-1
-5.65246E-1,3.10791E-1
-5.70831E-1,3.18695E-1
-5.18066E-1,3.39874E-1
-4.49600E-1,3.80828E-1
-4.22576E-1,4.39346E-1
-4.22897E-1,4.88342E-1
-4.16748E-1,5.02410E-1
-3.76281E-1,5.27618E-1
-2.75207E-1,5.58136E-1
-2.03857E-1,5.87463E-1
-1.92688E-1,6.52038E-1
-2.01568E-1,6.70410E-1
-1.90765E-1,6.43707E-1
-0.98877E-1,6.11328E-1
0.24902E-1,5.84472E-1
1.11724E-1,6.26281E-1
1.53656E-1,7.00592E-1
1.13525E-1,7.23266E-1
0.96405E-1,6.73828E-1
1.68975E-1,5.56884E-1
2.79174E-1,4.76715E-1
4.13269E-1,4.91775E-1
4.89990E-1,5.55938E-1
4.73053E-1,6.14318E-1
4.07714E-1,5.55053E-1
3.86093E-1,4.05731E-1
4.61090E-1,2.71667E-1
5.87005E-1,1.98913E-1
6.74957E-1,2.18536E-1
6.77337E-1,2.81219E-1
5.98480E-1,2.83599E-1
5.13336E-1,1.79809E-1
5.10406E-1,0.28991E-1
5.79437E-1,-0.81359E-1
6.63085E-1,-1.15020E-1
6.91864E-1,-0.85632E-1
6.29974E-1,-0.68115E-1
5.28381E-1,-1.16760E-1
4.64584E-1,-2.22320E-1
4.68872E-1,-3.21945E-1
5.00396E-1,-3.68621E-1
5.15319E-1,-3.73718E-1
4.6521E-1,-3.64440E-1
3.80249E-1,-3.88687E-1
3.13430E-1,-4.51538E-1
2.91442E-1,-5.11962E-1
2.78167E-1,-5.34027E-1
2.37579E-1,-5.24627E-1
1.62933E-1,-5.11352E-1
0.78735E-1,-5.27313E-1
0.28686E-1,-5.67138E-1
0.26153E-1,-5.93536E-1
0.18768E-1,-5.73394E-1
-0.37078E-1,-5.12451E-1
-1.38595E-1,-4.69757E-1
-2.43316E-1,-4.72900E-1
-2.87048E-1,-5.30456E-1
-2.77282E-1,-5.71075E-1
-2.45666E-1,-5.16113E-1
-2.64465E-1,-4.04312E-1
END
BEGIN
-8.8974E-1,1.66778E-1
-8.33129E-1,2.24639E-1
-8.44879E-1,2.3703E-1
-7.81280E-1,3.55743E-1
-6.71112E-1,4.03930E-1
-6.04827E-1,5.08392E-1
-4.93438E-1,5.67779E-1
-4.82635E-1,5.66314E-1
-5.04608E-1,6.22833E-1
-4.59747E-1,6.25824E-1
-4.30389E-1,6.46850E-1
-2.97302E-1,6.60858E-1
-2.42645E-1,6.29333E-1
-2.26348E-1,7.30987E-1
-1.16210E-1,8.20251E-1
-0.87341E-1,8.39874E-1
-0.03845E-1,8.64013E-1
0.45867E-1,7.51525E-1
0.37109E-1,7.36450E-1
1.68365E-1,7.70477E-1
2.76489E-1,7.59765E-1
3.97399E-1,8.20037E-1
5.07354E-1,7.50549E-1
4.71618E-1,7.18048E-1
5.45623E-1,7.05505E-1
6.00555E-1,5.58227E-1
6.62109E-1,4.88159E-1
7.79327E-1,3.4375E-1
7.40692E-1,2.49725E-1
7.36908E-1,3.00201E-1
7.49725E-1,2.75726E-1
7.18994E-1,2.68371E-1
7.75482E-1,1.84387E-1
7.43896E-1,0.35736E-1
7.55950E-1,0.24963E-1
8.79882E-1,-0.09002E-1
9.487E-1,-0.72662E-1
1.02734E0,-1.76574E-1
8.94928E-1,-3.79699E-1
7.32788E-1,-3.90228E-1
7.38128E-1,-4.62463E-1
6.85485E-1,-5.95855E-1
6.81671E-1,-6.45294E-1
6.38488E-1,-7.60681E-1
4.98413E-1,-7.12768E-1
4.95330E-1,-6.76788E-1
4.13147E-1,-7.74108E-1
3.15734E-1,-8.13507E-1
2.74963E-1,-9.37011E-1
0.90820E-1,-1.00360E0
0.36407E-1,-8.99139E-1
0.13916E-1,-8.82720E-1
-0.71838E-1,-8.23211E-1
-1.14532E-1,-8.09295E-1
-2.37701E-1,-8.42529E-1
-3.19580E-1,-7.93548E-1
-3.27636E-1,-8.10607E-1
-3.81134E-1,-7.99285E-1
-3.92730E-1,-7.77465E-1
-5.10406E-1,-7.84668E-1
-6.55761E-1,-6.56982E-1
-6.96929E-1,-5.71960E-1
-7.77893E-1,-5.19226E-1
-7.61535E-1,-4.38415E-1
-7.56073E-1,-4.63501E-1
-8.29040E-1,-3.84033E-1
-8.07830E-1,-2.72583E-1
-8.32977E-1,-2.24639E-1
-8.87390E-1,-1.44653E-1
-9.35119E-1,-1.16546E-1
-1.03454E0,-0.30761E-1
-9.94384E-1,1.09802E-1
-9.44061E-1,1.69769E-1
-9.09637E-1,2.89276E-1
-8.30810E-1,3.81103E-1
-8.18206E-1,4.50683E-1
-7.77374E-1,5.37750E-1
-7.42248E-1,5.41626E-1
-7.34649E-1,5.81634E-1
-6.63177E-1,6.21307E-1
-6.20239E-1,6.60736E-1
-5.62957E-1,7.65472E-1
-4.86663E-1,8.44360E-1
-4.39483E-1,9.28588E-1
-3.36761E-1,9.70733E-1
-2.89672E-1,9.49859E-1
-2.08038E-1,9.82696E-1
-0.70983E-1,9.70489E-1
0.17059E-1,9.63867E-1
1.16577E-1,9.92279E-1
1.80877E-1,9.90478E-1
2.32849E-1,1.03503E0
3.53515E-1,1.00390E0
4.34326E-1,9.18457E-1
5.25268E-1,8.59161E-1
6.25518E-1,7.82074E-1
6.97113E-1,7.34497E-1
7.86743E-1,6.88934E-1
8.03039E-1,6.07696E-1
8.13781E-1,5.61828E-1
8.47900E-1,4.77539E-1
8.67950E-1,3.91052E-1
9.34204E-1,3.25500E-1
9.99603E-1,2.22076E-1
1.02288E0,1.55151E-1
1.04986E0,0.76904E-1
1.02136E0,-0.28686E-1
9.87731E-1,-1.14715E-1
9.69360E-1,-2.36694E-1
9.25811E-1,-3.52417E-1
9.06738E-1,-4.31518E-1
8.57849E-1,-5.09704E-1
7.98706E-1,-5.22522E-1
7.67974E-1,-5.57403E-1
6.94335E-1,-6.27563E-1
6.23931E-1,-6.92871E-1
5.60577E-1,-7.84668E-1
4.76013E-1,-8.33404E-1
4.35150E-1,-8.63494E-1
3.50585E-1,-8.96087E-1
2.52960E-1,-8.64990E-1
1.72699E-1,-8.59344E-1
0.57128E-1,-8.57788E-1
-0.04821E-1,-8.38195E-1
-0.55328E-1,-8.60626E-1
-0.99578E-1,-8.38684E-1
-1.12487E-1,-8.18817E-1
-1.69738E-1,-7.94281E-1
-2.36663E-1,-7.58209E-1
-3.32366E-1,-7.51281E-1
-4.32342E-1,-7.02423E-1
-4.52819E-1,-6.84509E-1
-4.95300E-1,-6.79687E-1
-5.11993E-1,-6.14502E-1
-5.19744E-1,-5.64056E-1
-5.79284E-1,-4.86114E-1
-6.01104E-1,-4.16046E-1
-6.58935E-1,-4.20745E-1
-7.2052E-1,-3.8797E-1
-7.17865E-1,-3.65356E-1
-7.36114E-1,-3.31817E-1
-7.34252E-1,-2.32421E-1
-7.46185E-1,-1.56890E-1
-7.99438E-1,-0.47973E-1
-7.92633E-1,0.22766E-1
-8.16680E-1,0.28808E-1
-7.99835E-1,0.78308E-1
-7.29827E-1,0.93933E-1
-7.10205E-1,1.41479E-1
-6.78649E-1,2.29522E-1
-6.94244E-1,2.87567E-1
-7.40234E-1,3.76098E-1
-7.18353E-1,4.21875E-1
-7.02514E-1,4.24896E-1
-6.38336E-1,4.73724E-1
-5.62683E-1,5.08606E-1
-5.15869E-1,5.95672E-1
-4.33929E-1,6.71478E-1
-4.39788E-1,6.85150E-1
-4.42077E-1,7.34222E-1
-3.84185E-1,7.29827E-1
-3.34289E-1,7.32727E-1
-2.34252E-1,7.81494E-1
-1.29241E-1,8.09387E-1
-0.62011E-1,8.94073E-1
0.2771E-1,9.20043E-1
0.47332E-1,8.91784E-1
1.02569E-1,8.78021E-1
1.94976E-1,8.05908E-1
2.67822E-1,7.53997E-1
3.66272E-1,7.20977E-1
3.96728E-1,7.15942E-1
4.42932E-1,7.55279E-1
5.00946E-1,7.26776E-1
5.21392E-1,6.67205E-1
5.75225E-1,6.06689E-1
6.30462E-1,5.16357E-1
6.96868E-1,4.85931E-1
7.8479E-1,4.35577E-1
8.04168E-1,3.72711E-1
8.07373E-1,3.42468E-1
8.18206E-1,2.72674E-1
8.08563E-1,1.88415E-1
8.33404E-1,1.05743E-1
8.53790E-1,0.11505E-1
8.58276E-1,-0.44555E-1
8.75915E-1,-0.85693E-1
8.67218E-1,-1.47399E-1
8.20922E-1,-2.09503E-1
7.87200E-1,-2.77313E-1
7.48535E-1,-3.54797E-1
7.28973E-1,-4.10339E-1
7.41455E-1,-4.72900E-1
7.07489E-1,-5.53253E-1
6.40594E-1,-5.87799E-1
5.67016E-1,-6.31530E-1
4.83093E-1,-6.43035E-1
4.56787E-1,-6.75476E-1
4.20105E-1,-7.57751E-1
3.48297E-1,-7.95043E-1
2.93121E-1,-8.00994E-1
END
BEGIN
-7.60345E-1,1.07025E-1
-7.81616E-1,1.49139E-1
-7.28363E-1,2.68859E-1
-6.76483E-1,2.55065E-1
-7.44995E-1,3.17474E-1
-6.79870E-1,4.40948E-1
-6.52252E-1,4.64782E-1
-6.13586E-1,5.83618E-1
-5.06256E-1,5.91217E-1
-5.35980E-1,6.10015E-1
-4.73938E-1,7.45697E-1
-3.66882E-1,7.66235E-1
-2.91137E-1,8.29864E-1
-1.51947E-1,8.17871E-1
-1.39923E-1,7.92755E-1
-0.67077E-1,8.84368E-1
0.59814E-1,8.58459E-1
1.15783E-1,8.67645E-1
2.71820E-1,8.2724E-1
2.85491E-1,7.08618E-1
2.90130E-1,7.38922E-1
4.04083E-1,7.13745E-1
4.28527E-1,6.72515E-1
5.34576E-1,6.72821E-1
5.90454E-1,5.43426E-1
5.64392E-1,5.24963E-1
6.51733E-1,5.10345E-1
6.85150E-1,4.34783E-1
7.57537E-1,4.12628E-1
8.23974E-1,2.63916E-1
7.56927E-1,1.93756E-1
7.90222E-1,1.81640E-1
8.08654E-1,1.08795E-1
8.57788E-1,0.76629E-1
9.16168E-1,-0.96862E-1
7.86010E-1,-2.00531E-1
7.67913E-1,-1.80938E-1
7.84393E-1,-2.49908E-1
7.84484E-1,-2.92327E-1
8.20739E-1,-4.36737E-1
6.59179E-1,-5.60150E-1
5.86486E-1,-5.09429E-1
5.9021E-1,-5.45318E-1
5.62103E-1,-5.72448E-1
5.93322E-1,-6.65741E-1
4.49493E-1,-8.12805E-1
3.27392E-1,-7.55828E-1
3.20190E-1,-7.68035E-1
2.57873E-1,-7.92907E-1
2.54547E-1,-8.32275E-1
1.21154E-1,-9.62493E-1
-0.54473E-1,-8.84765E-1
-0.67230E-1,-8.35144E-1
-1.27288E-1,-8.38348E-1
-1.44866E-1,-8.25500E-1
-2.28942E-1,-9.07012E-1
-4.11315E-1,-8.35052E-1
-4.27246E-1,-7.35046E-1
-4.72106E-1,-7.21618E-1
-5.05554E-1,-6.79016E-1
-5.53924E-1,-7.15148E-1
-7.16003E-1,-6.51702E-1
-7.26348E-1,-5.05188E-1
-7.30743E-1,-4.66949E-1
-7.55981E-1,-4.01550E-1
-7.71789E-1,-3.99932E-1
-9.04693E-1,-3.60717E-1
-9.36309E-1,-1.91406E-1
-9.00116E-1,-1.33331E-1
-9.15527E-1,-0.65856E-1
-9.05273E-1,-0.15716E-1
-9.78332E-1,0.38726E-1
-9.90325E-1,2.19635E-1
-9.00878E-1,3.03009E-1
-8.78448E-1,3.57238E-1
-8.35601E-1,4.22119E-1
-8.36792E-1,4.68261E-1
-8.20678E-1,5.98266E-1
-7.13287E-1,6.81091E-1
-6.44317E-1,7.13836E-1
-5.76416E-1,7.49969E-1
-5.46203E-1,7.79785E-1
-4.97741E-1,8.79028E-1
-3.70330E-1,9.29687E-1
-2.95745E-1,9.33013E-1
-2.05932E-1,9.61883E-1
-1.27075E-1,9.40612E-1
-0.89630E-1,9.71221E-1
0.22338E-1,1.02136E0
1.32080E-1,1.00604E0
2.20672E-1,9.98626E-1
3.13232E-1,9.46319E-1
3.53546E-1,9.11438E-1
4.43359E-1,9.09271E-1
5.56976E-1,8.57299E-1
6.48895E-1,7.9599E-1
7.22778E-1,7.04254E-1
7.29095E-1,6.36291E-1
7.74475E-1,6.24939E-1
8.61022E-1,5.48645E-1
9.0448E-1,4.45159E-1
9.45495E-1,3.39080E-1
9.34600E-1,2.34314E-1
9.40826E-1,2.01599E-1
9.93927E-1,1.24176E-1
9.93316E-1,0.21820E-1
9.97650E-1,-0.66711E-1
9.62524E-1,-1.89056E-1
8.97552E-1,-2.39868E-1
9.05609E-1,-2.88024E-1
8.91174E-1,-3.88885E-1
8.52020E-1,-4.76287E-1
7.85003E-1,-5.79925E-1
6.76452E-1,-6.11053E-1
6.52435E-1,-6.14227E-1
6.28387E-1,-6.79534E-1
5.66314E-1,-7.40448E-1
4.81658E-1,-8.08288E-1
3.46771E-1,-8.22143E-1
2.94433E-1,-7.83630E-1
2.80395E-1,-8.11828E-1
2.28698E-1,-8.60412E-1
1.51611E-1,-9.04388E-1
0.19866E-1,-9.00604E-1
-0.53833E-1,-8.21624E-1
-0.71807E-1,-8.05175E-1
-1.24145E-1,-8.24096E-1
-1.90795E-1,-8.46038E-1
-3.09448E-1,-8.41644E-1
-3.85192E-1,-7.30621E-1
-3.67828E-1,-6.70379E-1
-3.91265E-1,-6.73034E-1
-4.54315E-1,-6.70959E-1
-5.50994E-1,-6.52771E-1
-6.27685E-1,-5.58197E-1
-6.16729E-1,-4.86633E-1
-6.23260E-1,-4.58648E-1
-6.43219E-1,-4.23004E-1
-6.87866E-1,-4.00665E-1
-7.65411E-1,-3.29162E-1
-7.68188E-1,-2.25891E-1
-7.53143E-1,-1.79595E-1
-7.48352E-1,-1.41754E-1
-7.64007E-1,-1.18377E-1
-8.14971E-1,-0.58075E-1
-8.16894E-1,0.47180E-1
-7.88574E-1,1.03942E-1
-7.70996E-1,1.51550E-1
-7.58789E-1,1.78009E-1
-7.91778E-1,2.33520E-1
-7.86865E-1,3.56231E-1
-7.07366E-1,4.33075E-1
-6.64825E-1,4.59777E-1
-6.26831E-1,4.82360E-1
-6.24054E-1,4.90997E-1
-6.05682E-1,5.99029E-1
-5.20416E-1,6.81549E-1
-4.44549E-1,7.16888E-1
-3.78326E-1,7.43103E-1
-3.39782E-1,7.41394E-1
-3.09021E-1,7.81189E-1
-2.21252E-1,8.20068E-1
-1.30035E-1,8.19854E-1
-0.45776E-1,8.21533E-1
0.13702E-1,7.98614E-1
0.33081E-1,8.11920E-1
0.9552E-1,8.35815E-1
1.72729E-1,8.18237E-1
2.48870E-1,7.88848E-1
3.21533E-1,7.33306E-1
3.52752E-1,7.05474E-1
4.08966E-1,7.13745E-1
4.79309E-1,6.88293E-1
5.27587E-1,6.43005E-1
5.70953E-1,5.78064E-1
5.86395E-1,5.19683E-1
6.23840E-1,4.92065E-1
6.84906E-1,4.46716E-1
7.25250E-1,3.89862E-1
7.54669E-1,3.31573E-1
7.64312E-1,2.64831E-1
7.69958E-1,2.11792E-1
7.89947E-1,1.54113E-1
8.04687E-1,0.89019E-1
8.15612E-1,0.26550E-1
8.16131E-1,-0.38482E-1
7.99316E-1,-0.99212E-1
7.85858E-1,-1.53717E-1
7.77587E-1,-2.10876E-1
7.6474E-1,-2.7005E-1
7.53234E-1,-3.27056E-1
7.30865E-1,-3.90228E-1
6.84509E-1,-4.45465E-1
6.46362E-1,-4.89502E-1
6.06658E-1,-5.45105E-1
5.72509E-1,-5.88104E-1
5.53131E-1,-6.40411E-1
4.94964E-1,-6.97479E-1
4.26879E-1,-7.1698E-1
3.64318E-1,-7.39349E-1
2.98889E-1,-7.58514E-1
END
BEGIN
-5.87066E-1,-0.45227E-1
-6.21124E-1,0.07690E-1
-6.44378E-1,0.91461E-1
-6.33850E-1,1.75048E-1
-5.90515E-1,2.56012E-1
-5.47790E-1,3.00140E-1
-5.37567E-1,3.56750E-1
-5.19165E-1,4.26208E-1
-4.79827E-1,4.99557E-1
-4.05792E-1,5.50567E-1
-3.30566E-1,5.66497E-1
-2.75299E-1,5.81604E-1
-2.32879E-1,6.17553E-1
-1.67236E-1,6.79229E-1
-0.75805E-1,7.02148E-1
0.07049E-1,6.89056E-1
0.65338E-1,6.56158E-1
1.06933E-1,6.45477E-1
1.71325E-1,6.62719E-1
2.64953E-1,6.4328E-1
3.37829E-1,5.95855E-1
3.82873E-1,5.30639E-1
4.00329E-1,4.84649E-1
4.43588E-1,4.55551E-1
5.12115E-1,4.05883E-1
5.64056E-1,3.35937E-1
5.86486E-1,2.50518E-1
5.74066E-1,1.90826E-1
5.76141E-1,1.44500E-1
5.95550E-1,0.98266E-1
6.16363E-1,0.20782E-1
6.08032E-1,-0.65307E-1
5.68695E-1,-1.26220E-1
5.28472E-1,-1.55120E-1
5.15045E-1,-1.72699E-1
5.06469E-1,-2.42675E-1
4.63913E-1,-3.10546E-1
4.03198E-1,-3.59985E-1
3.51608E-1,-3.65875E-1
3.19946E-1,-3.67492E-1
3.00125E-1,-3.91311E-1
2.55981E-1,-4.26376E-1
1.85867E-1,-4.56588E-1
1.28067E-1,-4.46273E-1
0.93643E-1,-4.36691E-1
0.82473E-1,-4.29870E-1
0.43411E-1,-4.44931E-1
-0.20828E-1,-4.49798E-1
-0.85128E-1,-4.21966E-1
-1.09771E-1,-3.98315E-1
-1.30783E-1,-3.73245E-1
-1.39953E-1,-3.77487E-1
-1.85897E-1,-3.7677E-1
-2.39517E-1,-3.43109E-1
-2.65731E-1,-2.99835E-1
-2.73117E-1,-2.67059E-1
-2.68631E-1,-2.66525E-1
-2.99118E-1,-2.60253E-1
-3.37600E-1,-2.21633E-1
-3.52508E-1,-1.61300E-1
-3.50280E-1,-1.27319E-1
-3.43887E-1,-1.08367E-1
-3.60137E-1,-1.07559E-1
-3.93386E-1,-0.76980E-1
-4.00405E-1,-0.16052E-1
-3.80401E-1,0.31021E-1
-3.60809E-1,0.57693E-1
-3.68316E-1,0.55404E-1
-3.87283E-1,0.84518E-1
-3.80813E-1,1.31805E-1
-3.43078E-1,1.71295E-1
-3.13644E-1,1.97586E-1
-2.91214E-1,2.12051E-1
-2.90084E-1,2.36679E-1
-2.77664E-1,2.79129E-1
-2.36160E-1,3.14285E-1
-1.84845E-1,3.31069E-1
-1.41418E-1,3.23852E-1
-1.34017E-1,3.33358E-1
-1.16607E-1,3.60839E-1
-0.75149E-1,3.84063E-1
-0.19973E-1,3.75106E-1
0.2211E-1,3.49472E-1
0.47470E-1,3.32260E-1
0.69152E-1,3.31573E-1
1.07208E-1,3.41659E-1
1.59393E-1,3.23837E-1
1.93145E-1,2.82348E-1
2.08282E-1,2.35473E-1
2.17475E-1,2.16316E-1
2.40921E-1,2.12242E-1
2.79922E-1,1.92337E-1
2.92465E-1,1.42990E-1
2.84393E-1,0.91583E-1
2.66937E-1,0.51086E-1
2.66906E-1,0.27633E-1
2.84301E-1,0.00564E-1
2.90084E-1,-0.42556E-1
2.72003E-1,-0.84899E-1
2.31437E-1,-1.13769E-1
2.07206E-1,-1.27670E-1
2.07908E-1,-1.44531E-1
2.14172E-1,-1.82701E-1
1.90658E-1,-2.13233E-1
1.52145E-1,-2.27211E-1
1.10359E-1,-2.24929E-1
0.91377E-1,-2.23114E-1
0.81573E-1,-2.46307E-1
0.54931E-1,-2.70904E-1
0.20797E-1,-2.81448E-1
-0.19989E-1,-2.70645E-1
-0.42892E-1,-2.53646E-1
-0.53146E-1,-2.58132E-1
-0.75119E-1,-2.85034E-1
-1.10794E-1,-2.93319E-1
-1.44821E-1,-2.77053E-1
-1.62773E-1,-2.47581E-1
-1.75003E-1,-2.32200E-1
-2.00355E-1,-2.34176E-1
-2.36465E-1,-2.31819E-1
-2.76657E-1,-2.20794E-1
-3.00979E-1,-1.87057E-1
-3.12286E-1,-1.5802E-1
-3.24325E-1,-1.42318E-1
-3.61740E-1,-1.32583E-1
-4.07226E-1,-1.03759E-1
-4.29595E-1,-0.57098E-1
-4.28466E-1,-0.19088E-1
-4.23263E-1,0.02807E-1
-4.40124E-1,0.26351E-1
-4.61151E-1,0.66665E-1
-4.71878E-1,1.27655E-1
-4.57321E-1,1.78817E-1
-4.40948E-1,2.15789E-1
-4.36599E-1,2.43469E-1
-4.36233E-1,2.85598E-1
-4.26956E-1,3.38501E-1
-3.96072E-1,3.84979E-1
-3.68438E-1,4.13757E-1
-3.42788E-1,4.40826E-1
-3.21258E-1,4.72427E-1
-2.90924E-1,5.10955E-1
-2.42462E-1,5.53009E-1
-1.85577E-1,5.75866E-1
-1.32019E-1,5.93536E-1
-0.86120E-1,5.99823E-1
-0.42266E-1,6.13678E-1
0.18371E-1,6.35711E-1
0.96405E-1,6.38305E-1
1.60797E-1,6.25427E-1
2.04956E-1,6.06353E-1
2.39166E-1,6.00830E-1
2.83905E-1,5.89538E-1
3.48846E-1,5.60638E-1
4.26406E-1,4.95986E-1
4.55490E-1,4.56741E-1
4.92141E-1,4.17633E-1
5.28167E-1,3.82354E-1
5.65856E-1,3.41125E-1
6.00952E-1,2.70752E-1
6.16882E-1,1.96319E-1
6.27410E-1,1.32659E-1
6.39892E-1,0.77453E-1
6.52343E-1,0.30883E-1
6.67938E-1,-0.32196E-1
6.46606E-1,-1.01348E-1
6.20300E-1,-1.65008E-1
5.87249E-1,-2.24609E-1
5.54107E-1,-2.74139E-1
5.25512E-1,-3.21960E-1
4.81872E-1,-3.83102E-1
4.25735E-1,-4.34341E-1
3.63464E-1,-4.72915E-1
3.08410E-1,-4.97222E-1
2.68371E-1,-5.18920E-1
2.15393E-1,-5.53192E-1
1.44531E-1,-5.65124E-1
0.72601E-1,-5.70129E-1
0.02868E-1,-5.61889E-1
-0.50384E-1,-5.49346E-1
-0.99700E-1,-5.47515E-1
-1.62994E-1,-5.30883E-1
-2.21099E-1,-5.03784E-1
-2.81616E-1,-4.63653E-1
-3.23455E-1,-4.19479E-1
-3.58505E-1,-3.91250E-1
-4.00207E-1,-3.63189E-1
-4.31045E-1,-3.26293E-1
-4.59915E-1,-2.80914E-1
-4.71786E-1,-2.20413E-1
-4.75418E-1,-1.72103E-1
-4.87197E-1,-1.30569E-1
-5.05737E-1,-0.82153E-1
-5.12237E-1,-0.29144E-1
-5.04486E-1,0.26611E-1
-4.86373E-1,0.71456E-1
-4.70123E-1,1.16287E-1
-4.66384E-1,1.50558E-1
-4.59777E-1,1.94824E-1
-4.44458E-1,2.31582E-1
-4.14093E-1,2.61322E-1
END
