CITIFILE A.01.01
#NA VERSION HP8510C.08.10
NAME DATA
#NA REGISTER 4
VAR FREQ MAG 201
DATA S[1,1] RI
DATA S[2,1] RI
DATA S[1,2] RI
DATA S[2,2] RI
SEG_LIST_BEGIN
SEG 8000000000 12000000000 201
SEG_LIST_END
COMMENT       YEAR MONTH DAY HOUR MINUTE SECONDS
CONSTANT TIME 2013   12   09  20    17    32.0
BEGIN
-7.28790E-1,-1.63726E-1
-7.40875E-1,-0.88226E-1
-7.46490E-1,-0.02288E-1
-7.46002E-1,0.77301E-1
-7.32330E-1,1.60034E-1
-7.09198E-1,2.34619E-1
-6.79016E-1,3.07189E-1
-6.46881E-1,3.73718E-1
-5.98175E-1,4.43908E-1
-5.44342E-1,4.98840E-1
-4.90722E-1,5.47729E-1
-4.30542E-1,5.86212E-1
-3.74786E-1,6.23687E-1
-3.03192E-1,6.56982E-1
-2.41760E-1,6.78405E-1
-1.75994E-1,6.99981E-1
-1.08306E-1,7.08496E-1
-0.45684E-1,7.18139E-1
0.31951E-1,7.23877E-1
0.99700E-1,7.06451E-1
1.71051E-1,6.97052E-1
2.37091E-1,6.71386E-1
2.98004E-1,6.47644E-1
3.58673E-1,6.13311E-1
4.09149E-1,5.74646E-1
4.69665E-1,5.35247E-1
5.19134E-1,4.81201E-1
5.63873E-1,4.28955E-1
5.98663E-1,3.66638E-1
6.32110E-1,3.11096E-1
6.58752E-1,2.39837E-1
6.69921E-1,1.68853E-1
6.80603E-1,1.05102E-1
6.80633E-1,0.36102E-1
6.84600E-1,-0.27282E-1
6.63299E-1,-0.96923E-1
6.48498E-1,-1.51214E-1
6.36047E-1,-2.12280E-1
6.12182E-1,-2.83935E-1
5.70587E-1,-3.31481E-1
5.36468E-1,-3.82171E-1
5.01037E-1,-4.29382E-1
4.53140E-1,-4.72656E-1
4.06677E-1,-5.18585E-1
3.43322E-1,-5.47851E-1
3.00109E-1,-5.76385E-1
2.43927E-1,-5.96649E-1
1.88079E-1,-6.14135E-1
1.34643E-1,-6.31927E-1
0.61401E-1,-6.45355E-1
0.12451E-1,-6.33239E-1
-0.40313E-1,-6.42028E-1
-1.02050E-1,-6.35955E-1
-1.57379E-1,-6.20880E-1
-2.14782E-1,-6.03485E-1
-2.66174E-1,-5.77789E-1
-3.19213E-1,-5.62744E-1
-3.67645E-1,-5.27160E-1
-4.08203E-1,-4.90936E-1
-4.46624E-1,-4.58068E-1
-4.95910E-1,-4.11697E-1
-5.25146E-1,-3.68011E-1
-5.57434E-1,-3.25317E-1
-5.85205E-1,-2.75970E-1
-6.02569E-1,-2.24090E-1
-6.20727E-1,-1.71844E-1
-6.33667E-1,-1.17706E-1
-6.55609E-1,-0.57861E-1
-6.51519E-1,-0.01647E-1
-6.48529E-1,0.51147E-1
-6.41693E-1,1.03851E-1
-6.30981E-1,1.70440E-1
-6.10504E-1,2.28149E-1
-5.89935E-1,2.73925E-1
-5.69580E-1,3.23516E-1
-5.37475E-1,3.74603E-1
-4.97482E-1,4.24331E-1
-4.59793E-1,4.67453E-1
-4.12078E-1,5.20294E-1
-3.60839E-1,5.53558E-1
-3.02429E-1,5.82977E-1
-2.45880E-1,5.95336E-1
-1.86950E-1,6.21429E-1
-1.12457E-1,6.36322E-1
-0.58593E-1,6.39221E-1
-0.00061E-1,6.42272E-1
0.60516E-1,6.28387E-1
1.23382E-1,6.17584E-1
1.91711E-1,5.98877E-1
2.57690E-1,5.72418E-1
3.13079E-1,5.42388E-1
3.64105E-1,5.00244E-1
4.00070E-1,4.55154E-1
4.50653E-1,4.02664E-1
4.91821E-1,3.41293E-1
5.19195E-1,2.82440E-1
5.43212E-1,2.31414E-1
5.61920E-1,1.72790E-1
5.72265E-1,0.99182E-1
5.72876E-1,0.32775E-1
5.74493E-1,-0.38085E-1
5.67108E-1,-1.03881E-1
5.46325E-1,-1.74438E-1
5.09491E-1,-2.30590E-1
4.72137E-1,-2.86880E-1
4.26559E-1,-3.42178E-1
3.80783E-1,-3.8591E-1
3.37295E-1,-4.20623E-1
2.91793E-1,-4.49752E-1
2.34695E-1,-4.79583E-1
1.72393E-1,-4.99755E-1
1.14990E-1,-5.15258E-1
0.66192E-1,-5.29968E-1
0.06012E-1,-5.40893E-1
-0.52581E-1,-5.31311E-1
-1.11358E-1,-5.15625E-1
-1.68808E-1,-4.96231E-1
-2.19329E-1,-4.78790E-1
-2.62512E-1,-4.63668E-1
-3.02932E-1,-4.44381E-1
-3.49273E-1,-4.07699E-1
-3.86856E-1,-3.63525E-1
-4.22958E-1,-3.20983E-1
-4.56756E-1,-2.90023E-1
-4.89273E-1,-2.51113E-1
-5.08148E-1,-2.02636E-1
-5.16876E-1,-1.48498E-1
-5.23712E-1,-0.95855E-1
-5.35736E-1,-0.50750E-1
-5.45501E-1,-0.07354E-1
-5.44830E-1,0.30975E-1
-5.34179E-1,0.75714E-1
-5.19226E-1,1.19751E-1
-5.06164E-1,1.68182E-1
-4.99221E-1,2.12493E-1
-4.86724E-1,2.50915E-1
-4.62814E-1,2.83493E-1
-4.32861E-1,3.13522E-1
-4.02282E-1,3.49884E-1
-3.72482E-1,3.90731E-1
-3.42041E-1,4.21402E-1
-3.12591E-1,4.41101E-1
-2.78472E-1,4.53445E-1
-2.35885E-1,4.74426E-1
-1.79809E-1,4.91516E-1
-1.38000E-1,5.08087E-1
-0.99548E-1,5.2005E-1
-0.66192E-1,5.14251E-1
-0.27832E-1,5.07659E-1
0.23529E-1,5.00427E-1
0.74996E-1,4.96109E-1
1.26022E-1,4.87289E-1
1.58966E-1,4.68215E-1
1.81381E-1,4.44290E-1
2.15255E-1,4.10705E-1
2.50564E-1,3.73336E-1
2.86666E-1,3.38119E-1
3.06610E-1,3.04946E-1
3.14636E-1,2.79846E-1
3.25759E-1,2.46337E-1
3.35647E-1,1.98593E-1
3.51028E-1,1.47094E-1
3.52249E-1,0.98342E-1
3.43460E-1,0.65597E-1
3.25897E-1,0.37780E-1
3.03054E-1,0.05722E-1
2.76931E-1,-0.29327E-1
2.53265E-1,-0.59158E-1
2.34947E-1,-0.77453E-1
2.16301E-1,-0.86097E-1
1.92283E-1,-0.93475E-1
1.57775E-1,-1.06269E-1
1.21395E-1,-1.17759E-1
9.26437E-2,-1.23142E-1
6.97135E-2,-1.17401E-1
5.19790E-2,-9.67216E-2
3.37486E-2,-7.43026E-2
1.22757E-2,-4.77390E-2
0.39234E-2,-2.88934E-2
0.57077E-2,-1.81570E-2
2.09302E-2,-0.36792E-2
4.39186E-2,0.93956E-2
5.42202E-2,2.41127E-2
6.65245E-2,3.61785E-2
7.50846E-2,2.72865E-2
8.48617E-2,1.39465E-2
1.03881E-1,-0.10261E-2
1.21707E-1,-1.25312E-2
1.37672E-1,-0.14328E-1
1.44683E-1,-0.27618E-1
1.39907E-1,-0.48385E-1
1.41746E-1,-0.79078E-1
1.46530E-1,-1.15722E-1
1.46873E-1,-1.39045E-1
1.44958E-1,-1.57692E-1
1.22551E-1,-1.77246E-1
0.91713E-1,-1.99760E-1
0.60745E-1,-2.30064E-1
0.35049E-1,-2.51419E-1
0.26458E-1,-2.64221E-1
0.02319E-1,-2.74063E-1
END
BEGIN
-5.41778E-1,3.58947E-1
-4.71237E-1,3.48648E-1
-4.86358E-1,4.05365E-1
-3.96011E-1,4.80773E-1
-3.44543E-1,4.87136E-1
-2.65319E-1,5.30548E-1
-1.98806E-1,4.76059E-1
-2.35885E-1,4.70474E-1
-2.05535E-1,5.44158E-1
-1.58172E-1,5.62011E-1
-0.98938E-1,6.16424E-1
-0.09735E-1,5.81146E-1
-0.36560E-1,5.79925E-1
0.37384E-1,6.83136E-1
1.60858E-1,6.51245E-1
2.16918E-1,6.48590E-1
3.28735E-1,5.93780E-1
3.16650E-1,5.27893E-1
3.57330E-1,5.83862E-1
4.83123E-1,5.38818E-1
5.33081E-1,4.89654E-1
6.44775E-1,4.09851E-1
6.29669E-1,2.72918E-1
6.27075E-1,2.63916E-1
6.93603E-1,1.71112E-1
6.56372E-1,0.87585E-1
6.85791E-1,0.30853E-1
6.24969E-1,-0.88378E-1
5.49041E-1,-0.63629E-1
5.95123E-1,-0.60668E-1
5.96344E-1,-1.14929E-1
6.29608E-1,-1.37207E-1
6.42456E-1,-2.60162E-1
5.64300E-1,-2.87170E-1
6.16943E-1,-3.01147E-1
6.25152E-1,-4.40948E-1
5.72631E-1,-5.35766E-1
4.72045E-1,-6.79229E-1
2.80609E-1,-6.49444E-1
2.81097E-1,-5.86364E-1
2.50671E-1,-6.60675E-1
1.65069E-1,-6.54174E-1
1.34765E-1,-6.87286E-1
0.08880E-1,-6.85882E-1
0.02380E-1,-6.17919E-1
-0.07324E-1,-6.86615E-1
-1.27349E-1,-6.89575E-1
-1.66229E-1,-6.76025E-1
-3.00476E-1,-6.77917E-1
-3.50158E-1,-5.35369E-1
-3.11340E-1,-5.16967E-1
-3.58612E-1,-5.1651E-1
-3.69278E-1,-4.90570E-1
-4.30297E-1,-5.17944E-1
-5.12847E-1,-4.40582E-1
-5.03479E-1,-4.03289E-1
-5.66528E-1,-3.97979E-1
-6.07818E-1,-3.38531E-1
-6.79138E-1,-3.18054E-1
-7.60559E-1,-1.62262E-1
-6.68792E-1,-0.61218E-1
-6.62689E-1,-0.55145E-1
-6.50116E-1,0.05157E-1
-6.45141E-1,-0.08636E-1
-7.35626E-1,0.54138E-1
-6.92474E-1,1.78009E-1
-6.72027E-1,1.84967E-1
-7.06848E-1,2.67822E-1
-6.71020E-1,3.45764E-1
-6.77764E-1,4.44580E-1
-5.48767E-1,5.72876E-1
-4.47387E-1,5.37841E-1
-4.22607E-1,5.67077E-1
-3.39904E-1,5.66467E-1
-3.48907E-1,5.51086E-1
-3.23242E-1,6.20544E-1
-2.64892E-1,6.25274E-1
-2.61505E-1,6.68518E-1
-1.77185E-1,7.26745E-1
-1.34491E-1,7.22869E-1
-0.85876E-1,8.08654E-1
0.64514E-1,8.26416E-1
1.49139E-1,7.95288E-1
2.64251E-1,7.58728E-1
2.89733E-1,6.59484E-1
2.94036E-1,6.85882E-1
4.09332E-1,6.68396E-1
4.32434E-1,5.91644E-1
4.77661E-1,5.98846E-1
5.48217E-1,5.30548E-1
5.58563E-1,5.14373E-1
6.75140E-1,4.98168E-1
7.38189E-1,3.54095E-1
7.22229E-1,2.82562E-1
7.47436E-1,2.00775E-1
7.07946E-1,1.34796E-1
7.23297E-1,1.16607E-1
7.34619E-1,0.35919E-1
7.07214E-1,0.10803E-1
7.51068E-1,-0.24780E-1
7.51556E-1,-1.13647E-1
7.48687E-1,-1.54144E-1
7.78472E-1,-2.44079E-1
7.37365E-1,-3.37768E-1
7.22808E-1,-4.06097E-1
6.61895E-1,-5.30487E-1
5.47332E-1,-5.57830E-1
5.11688E-1,-5.74035E-1
4.49157E-1,-6.20727E-1
3.96240E-1,-6.31561E-1
3.45306E-1,-6.74682E-1
2.64099E-1,-6.74804E-1
2.46856E-1,-6.72119E-1
2.03674E-1,-7.21801E-1
1.30676E-1,-7.41180E-1
0.68481E-1,-7.65869E-1
-0.31311E-1,-7.64007E-1
-0.88439E-1,-7.27294E-1
-1.43463E-1,-7.21405E-1
-2.05871E-1,-6.82769E-1
-2.27783E-1,-6.61499E-1
-2.85369E-1,-6.59881E-1
-3.34289E-1,-6.17370E-1
-3.62884E-1,-6.01928E-1
-4.14489E-1,-5.75134E-1
-4.42321E-1,-5.46630E-1
-4.94567E-1,-5.43060E-1
-5.65734E-1,-5.00518E-1
-6.14044E-1,-4.45037E-1
-6.5625E-1,-3.77227E-1
-6.57806E-1,-3.13018E-1
-6.81915E-1,-2.89459E-1
-7.28790E-1,-2.27600E-1
-7.38708E-1,-1.61804E-1
-7.61993E-1,-1.05773E-1
-7.58056E-1,-0.33050E-1
-7.58087E-1,-0.00213E-1
-7.98248E-1,0.64422E-1
-7.93151E-1,1.62262E-1
-7.75665E-1,2.31994E-1
-7.51403E-1,3.16284E-1
-7.00714E-1,3.68103E-1
-6.84295E-1,4.22607E-1
-6.32232E-1,4.95880E-1
-5.82397E-1,5.28533E-1
-5.44616E-1,5.85388E-1
-4.74914E-1,6.17431E-1
-4.51080E-1,6.34674E-1
-4.13604E-1,6.92718E-1
-3.53118E-1,7.33856E-1
-2.96234E-1,7.86041E-1
-1.93176E-1,8.20220E-1
-1.20147E-1,8.05969E-1
-0.65856E-1,8.21289E-1
0.09277E-1,8.26049E-1
0.76080E-1,8.30841E-1
1.70043E-1,8.20709E-1
2.29370E-1,7.78778E-1
2.77191E-1,7.72888E-1
3.55682E-1,7.56622E-1
4.18640E-1,7.26623E-1
5.00518E-1,6.95709E-1
5.68145E-1,6.25274E-1
6.07299E-1,5.67810E-1
6.57531E-1,5.11688E-1
6.91558E-1,4.44458E-1
7.22503E-1,3.84338E-1
7.49389E-1,3.11828E-1
7.58331E-1,2.46154E-1
7.69805E-1,1.87866E-1
7.75939E-1,1.23992E-1
7.76245E-1,0.67565E-1
7.79083E-1,0.07324E-1
7.69897E-1,-0.53741E-1
7.60437E-1,-1.07208E-1
7.50579E-1,-1.62048E-1
7.38250E-1,-2.15454E-1
7.24517E-1,-2.68127E-1
7.08129E-1,-3.20953E-1
6.92108E-1,-3.78601E-1
6.67816E-1,-4.37561E-1
6.38671E-1,-4.99237E-1
5.93933E-1,-5.58441E-1
5.48004E-1,-6.04888E-1
5.04577E-1,-6.54937E-1
4.50164E-1,-7.02911E-1
3.94134E-1,-7.45208E-1
3.24646E-1,-7.89978E-1
2.50488E-1,-8.10241E-1
1.88873E-1,-8.32428E-1
1.10839E-1,-8.56964E-1
0.36102E-1,-8.64502E-1
-0.48339E-1,-8.78906E-1
-1.40838E-1,-8.59191E-1
-2.07855E-1,-8.35510E-1
-2.79205E-1,-8.16986E-1
-3.44207E-1,-7.84606E-1
-4.09484E-1,-7.60711E-1
-4.84222E-1,-7.14416E-1
-5.32165E-1,-6.64825E-1
-5.86303E-1,-6.23962E-1
END
BEGIN
-5.22796E-1,3.02063E-1
-5.16845E-1,3.74389E-1
-4.06173E-1,4.16748E-1
-4.10369E-1,3.72055E-1
-4.42672E-1,4.86450E-1
-3.26660E-1,5.43823E-1
-2.96295E-1,5.67474E-1
-1.84692E-1,6.16729E-1
-1.41143E-1,5.53619E-1
-1.69891E-1,6.18194E-1
-0.41595E-1,6.87622E-1
0.35369E-1,6.58050E-1
1.33056E-1,6.57440E-1
1.87866E-1,5.69122E-1
1.67877E-1,5.81543E-1
2.79846E-1,6.18896E-1
3.50250E-1,5.49224E-1
4.20410E-1,5.26123E-1
4.74548E-1,3.97872E-1
4.05502E-1,3.60519E-1
4.54803E-1,4.05975E-1
5.26001E-1,3.32305E-1
5.44006E-1,3.03680E-1
6.14532E-1,2.16857E-1
5.55297E-1,1.35253E-1
5.62622E-1,1.70776E-1
6.38580E-1,1.07879E-1
6.38305E-1,0.44311E-1
6.85577E-1,-0.42694E-1
6.05560E-1,-1.58844E-1
5.60363E-1,-1.25457E-1
6.15875E-1,-1.60400E-1
6.16272E-1,-2.28271E-1
6.47979E-1,-3.20282E-1
5.32348E-1,-4.63134E-1
4.263E-1,-4.02404E-1
4.73114E-1,-3.99551E-1
4.65988E-1,-4.82055E-1
4.56787E-1,-5.57769E-1
3.37158E-1,-6.98059E-1
1.73248E-1,-6.17431E-1
2.09655E-1,-5.57769E-1
2.05932E-1,-6.20208E-1
1.77887E-1,-6.64642E-1
0.89782E-1,-7.90496E-1
-1.24664E-1,-7.38189E-1
-1.12762E-1,-6.25518E-1
-1.13250E-1,-6.66229E-1
-1.69860E-1,-6.71508E-1
-2.31292E-1,-7.35717E-1
-4.51904E-1,-6.95037E-1
-4.65240E-1,-5.07080E-1
-4.22973E-1,-5.01709E-1
-4.65026E-1,-4.88296E-1
-4.82605E-1,-5.03753E-1
-6.45599E-1,-5.02746E-1
-7.00805E-1,-2.89337E-1
-6.17095E-1,-2.39074E-1
-6.38458E-1,-2.24121E-1
-6.36566E-1,-2.02179E-1
-7.39532E-1,-2.08526E-1
-8.19519E-1,-0.04669E-1
-6.86065E-1,0.91400E-1
-6.61895E-1,0.86151E-1
-6.43524E-1,1.17614E-1
-6.84051E-1,1.02050E-1
-7.89032E-1,2.45880E-1
-6.52313E-1,4.05822E-1
-5.82153E-1,3.79974E-1
-5.69030E-1,4.14611E-1
-5.56182E-1,4.23736E-1
-6.12487E-1,5.27679E-1
-4.67834E-1,6.98822E-1
-3.28369E-1,6.46972E-1
-3.06823E-1,6.41174E-1
-2.59765E-1,6.43676E-1
-2.70507E-1,6.73675E-1
-1.80175E-1,7.85308E-1
-0.30304E-1,7.46521E-1
0.07049E-1,7.0047E-1
0.45288E-1,6.79138E-1
0.4245E-1,6.91375E-1
1.24267E-1,7.71606E-1
2.68127E-1,7.13287E-1
2.88421E-1,6.51458E-1
3.44970E-1,6.20422E-1
3.44940E-1,5.67016E-1
3.61694E-1,6.16027E-1
4.97497E-1,6.19567E-1
5.63049E-1,5.21759E-1
5.98907E-1,4.70397E-1
6.11084E-1,3.95813E-1
6.11114E-1,3.96545E-1
7.14904E-1,3.80279E-1
7.87780E-1,2.56286E-1
7.94281E-1,1.51855E-1
7.61840E-1,0.48767E-1
7.11120E-1,0.47058E-1
7.83264E-1,0.37231E-1
8.28826E-1,-1.02783E-1
7.76153E-1,-2.07305E-1
7.30041E-1,-2.90741E-1
6.51428E-1,-3.14239E-1
6.77703E-1,-3.14361E-1
6.93573E-1,-4.27978E-1
6.12945E-1,-5.06042E-1
5.64849E-1,-5.65307E-1
4.50592E-1,-6.09710E-1
4.12597E-1,-5.69213E-1
4.29260E-1,-6.27990E-1
3.49609E-1,-7.11242E-1
2.61169E-1,-7.38464E-1
1.46637E-1,-7.40448E-1
0.99762E-1,-6.65313E-1
1.17065E-1,-6.81579E-1
0.53649E-1,-7.40875E-1
-0.36346E-1,-7.48138E-1
-1.33270E-1,-7.33581E-1
-1.91162E-1,-6.50665E-1
-1.68304E-1,-6.27838E-1
-2.00927E-1,-6.67541E-1
-2.81189E-1,-6.7276E-1
-3.71337E-1,-6.47369E-1
-4.40246E-1,-5.57556E-1
-4.20013E-1,-5.00946E-1
-4.35363E-1,-5.16662E-1
-4.95819E-1,-5.08636E-1
-5.66955E-1,-4.77935E-1
-6.33667E-1,-3.8797E-1
-6.04644E-1,-3.01208E-1
-5.94787E-1,-3.01849E-1
-6.45385E-1,-2.91503E-1
-7.03674E-1,-2.46124E-1
-7.52929E-1,-1.60888E-1
-7.3172E-1,-0.69366E-1
-7.12677E-1,-0.42114E-1
-7.36755E-1,-0.04852E-1
-7.56866E-1,0.52948E-1
-7.83905E-1,1.28112E-1
-7.67700E-1,2.32879E-1
-7.18048E-1,2.83844E-1
-7.06695E-1,3.23547E-1
-6.93695E-1,3.79669E-1
-6.85516E-1,4.50225E-1
-6.44470E-1,5.46844E-1
-5.69641E-1,6.02661E-1
-5.28595E-1,6.39251E-1
-4.81811E-1,6.89025E-1
-4.35363E-1,7.38494E-1
-3.62976E-1,8.11920E-1
-2.44201E-1,8.40057E-1
-1.73065E-1,8.26599E-1
-1.16302E-1,8.46954E-1
-0.47363E-1,8.64440E-1
0.37506E-1,8.87207E-1
1.50054E-1,8.73718E-1
2.28210E-1,8.24829E-1
2.88574E-1,7.98004E-1
3.56536E-1,7.68676E-1
4.23339E-1,7.41333E-1
5.03967E-1,6.97113E-1
5.56610E-1,6.25396E-1
5.92285E-1,5.71838E-1
6.31866E-1,5.17547E-1
6.66992E-1,4.66033E-1
7.10968E-1,4.07196E-1
7.38586E-1,3.30719E-1
7.5E-1,2.63397E-1
7.57812E-1,1.96716E-1
7.54516E-1,1.36657E-1
7.55737E-1,0.87982E-1
7.61810E-1,0.27557E-1
7.50457E-1,-0.32012E-1
7.37793E-1,-0.84075E-1
7.22564E-1,-1.32873E-1
7.09899E-1,-1.71051E-1
7.11425E-1,-2.15148E-1
7.05139E-1,-2.72491E-1
6.91467E-1,-3.29071E-1
6.70471E-1,-3.88946E-1
6.37176E-1,-4.42260E-1
6.11114E-1,-4.86389E-1
5.89325E-1,-5.46752E-1
5.48950E-1,-6.08886E-1
5.00640E-1,-6.69433E-1
4.29962E-1,-7.23480E-1
3.58429E-1,-7.45025E-1
3.09783E-1,-7.76519E-1
2.41638E-1,-8.13568E-1
1.73553E-1,-8.41430E-1
0.88287E-1,-8.73168E-1
-0.09460E-1,-8.65814E-1
-0.74707E-1,-8.44848E-1
-1.41387E-1,-8.42590E-1
-2.10754E-1,-8.32153E-1
-2.88513E-1,-8.28002E-1
-3.78570E-1,-7.93121E-1
-4.35882E-1,-7.39929E-1
-4.87121E-1,-7.05841E-1
-5.46234E-1,-6.63330E-1
-6.04888E-1,-6.19171E-1
END
BEGIN
-6.91345E-1,3.06671E-1
-6.53564E-1,3.84613E-1
-6.02813E-1,4.64965E-1
-5.47149E-1,5.36163E-1
-4.73785E-1,5.99700E-1
-3.96118E-1,6.47644E-1
-3.14666E-1,6.89971E-1
-2.35534E-1,7.24578E-1
-1.44592E-1,7.46063E-1
-0.55999E-1,7.49969E-1
0.28869E-1,7.47558E-1
1.14257E-1,7.31475E-1
1.95678E-1,7.13348E-1
2.83294E-1,6.76452E-1
3.49609E-1,6.35437E-1
4.15832E-1,5.91857E-1
4.73815E-1,5.37139E-1
5.28137E-1,4.83306E-1
5.83831E-1,4.15618E-1
6.11419E-1,3.44055E-1
6.39953E-1,2.75970E-1
6.60308E-1,2.00561E-1
6.77002E-1,1.21887E-1
6.81335E-1,0.36987E-1
6.75262E-1,-0.42266E-1
6.68304E-1,-1.22985E-1
6.44439E-1,-1.96563E-1
6.17401E-1,-2.67883E-1
5.73761E-1,-3.32611E-1
5.35644E-1,-3.93829E-1
4.83825E-1,-4.51446E-1
4.27932E-1,-4.93835E-1
3.79455E-1,-5.30029E-1
3.19519E-1,-5.62439E-1
2.62512E-1,-5.95336E-1
1.84234E-1,-6.10107E-1
1.22283E-1,-6.21063E-1
0.59326E-1,-6.39526E-1
-0.20324E-1,-6.46362E-1
-0.85937E-1,-6.30645E-1
-1.52496E-1,-6.14318E-1
-2.14660E-1,-5.94970E-1
-2.77404E-1,-5.66650E-1
-3.40881E-1,-5.37994E-1
-3.94714E-1,-4.88983E-1
-4.45068E-1,-4.51416E-1
-4.87670E-1,-3.98284E-1
-5.2948E-1,-3.42742E-1
-5.67382E-1,-2.85461E-1
-6.02569E-1,-2.14050E-1
-6.08581E-1,-1.53259E-1
-6.29791E-1,-0.96893E-1
-6.42303E-1,-0.29968E-1
-6.44195E-1,0.36773E-1
-6.38824E-1,1.01623E-1
-6.21154E-1,1.63116E-1
-6.06689E-1,2.26776E-1
-5.75103E-1,2.92846E-1
-5.37597E-1,3.56567E-1
-4.97436E-1,4.11956E-1
-4.49813E-1,4.74563E-1
-3.98040E-1,5.11840E-1
-3.49853E-1,5.52032E-1
-2.88177E-1,5.94268E-1
-2.18444E-1,6.21063E-1
-1.55731E-1,6.42486E-1
-0.90667E-1,6.51550E-1
-0.23254E-1,6.64062E-1
0.47973E-1,6.55487E-1
1.20422E-1,6.37054E-1
1.85974E-1,6.17431E-1
2.69012E-1,5.87036E-1
3.25805E-1,5.48217E-1
3.79608E-1,5.18402E-1
4.40414E-1,4.74212E-1
4.88296E-1,4.20715E-1
5.26184E-1,3.60168E-1
5.48767E-1,3.07067E-1
5.82824E-1,2.50549E-1
6.05804E-1,1.85699E-1
6.12793E-1,1.11846E-1
6.07238E-1,0.53039E-1
6.08245E-1,-0.07049E-1
6.01379E-1,-0.74188E-1
5.89111E-1,-1.35681E-1
5.69000E-1,-1.99493E-1
5.41290E-1,-2.53082E-1
5.13671E-1,-3.05908E-1
4.79431E-1,-3.41613E-1
4.47647E-1,-3.84155E-1
4.03442E-1,-4.18243E-1
3.55041E-1,-4.49844E-1
3.09066E-1,-4.74762E-1
2.56713E-1,-5.03448E-1
2.05261E-1,-5.27526E-1
1.49536E-1,-5.40679E-1
0.99517E-1,-5.50994E-1
0.44982E-1,-5.56366E-1
-0.10925E-1,-5.51757E-1
-0.44311E-1,-5.48126E-1
-0.90087E-1,-5.53741E-1
-1.33239E-1,-5.49346E-1
-1.80847E-1,-5.35095E-1
-2.13623E-1,-5.12451E-1
-2.49603E-1,-4.96704E-1
-2.99163E-1,-4.71786E-1
-3.39553E-1,-4.37164E-1
-3.75259E-1,-4.04068E-1
-4.06601E-1,-3.71749E-1
-4.37011E-1,-3.40560E-1
-4.64889E-1,-3.07724E-1
-4.85061E-1,-2.67425E-1
-5.01800E-1,-2.31628E-1
-5.22003E-1,-1.88659E-1
-5.33783E-1,-1.46575E-1
-5.45318E-1,-1.05804E-1
-5.51696E-1,-0.61340E-1
-5.51910E-1,-0.15777E-1
-5.47912E-1,0.30731E-1
-5.45501E-1,0.75103E-1
-5.39306E-1,1.27594E-1
-5.29083E-1,1.73522E-1
-5.16052E-1,2.16491E-1
-5.01983E-1,2.54303E-1
-4.81735E-1,2.93457E-1
-4.56543E-1,3.32122E-1
-4.23431E-1,3.64044E-1
-3.92791E-1,3.91708E-1
-3.57833E-1,4.21600E-1
-3.15521E-1,4.46411E-1
-2.79251E-1,4.70245E-1
-2.29995E-1,4.92904E-1
-1.86615E-1,5.05676E-1
-1.43188E-1,5.18096E-1
-0.99029E-1,5.26947E-1
-0.56762E-1,5.30822E-1
-0.09155E-1,5.33935E-1
0.34698E-1,5.23956E-1
0.70312E-1,5.14953E-1
1.11084E-1,5.01403E-1
1.51580E-1,4.77813E-1
1.92031E-1,4.54315E-1
2.35839E-1,4.22424E-1
2.73498E-1,3.91235E-1
3.09936E-1,3.54370E-1
3.36227E-1,3.18023E-1
3.62228E-1,2.78488E-1
3.84536E-1,2.26135E-1
3.92684E-1,1.72088E-1
3.93646E-1,1.26525E-1
3.96972E-1,0.95047E-1
3.98910E-1,0.50201E-1
3.87786E-1,0.07354E-1
3.65661E-1,-0.39596E-1
3.35449E-1,-0.83023E-1
3.06091E-1,-1.17416E-1
2.8685E-1,-1.56036E-1
2.57110E-1,-1.89621E-1
2.24998E-1,-2.14256E-1
1.85684E-1,-2.30011E-1
1.50260E-1,-2.33360E-1
1.23001E-1,-2.44789E-1
0.80917E-1,-2.51022E-1
0.43022E-1,-2.44911E-1
0.00946E-1,-2.34726E-1
-0.36972E-1,-2.12646E-1
-0.69877E-1,-1.90292E-1
-1.05232E-1,-1.67465E-1
-1.35978E-1,-1.37336E-1
-1.63330E-1,-1.06346E-1
-1.85775E-1,-0.66505E-1
-1.94129E-1,-0.28808E-1
-1.98432E-1,0.02113E-1
-1.95655E-1,0.36293E-1
-1.83883E-1,0.70480E-1
-1.64039E-1,1.07452E-1
-1.35032E-1,1.38488E-1
-1.07673E-1,1.60255E-1
-0.82305E-1,1.76612E-1
-0.56144E-1,1.86393E-1
-0.30792E-1,1.93664E-1
-0.01380E-1,1.97387E-1
0.25009E-1,1.94015E-1
0.45768E-1,1.91108E-1
0.63987E-1,1.83952E-1
0.78254E-1,1.74011E-1
0.93978E-1,1.62147E-1
1.13967E-1,1.44844E-1
1.33178E-1,1.27151E-1
1.54853E-1,1.12205E-1
1.71890E-1,0.97923E-1
1.83937E-1,0.87753E-1
2.00279E-1,0.73471E-1
2.06680E-1,0.51002E-1
2.12936E-1,0.31021E-1
2.18666E-1,0.06111E-1
2.16262E-1,-0.13336E-1
2.16087E-1,-0.28305E-1
2.10495E-1,-0.55145E-1
2.02697E-1,-0.79536E-1
1.93115E-1,-1.10809E-1
END
