CITIFILE A.01.01
#NA VERSION HP8510C.08.10
NAME DATA
#NA REGISTER 4
VAR FREQ MAG 201
DATA S[1,1] RI
DATA S[2,1] RI
DATA S[1,2] RI
DATA S[2,2] RI
SEG_LIST_BEGIN
SEG 8000000000 12000000000 201
SEG_LIST_END
COMMENT       YEAR MONTH DAY HOUR MINUTE SECONDS
CONSTANT TIME 2013   12   09  20    13    26.0
BEGIN
-7.18627E-1,-0.50384E-1
-7.20703E-1,0.22674E-1
-7.14508E-1,1.06628E-1
-7.03918E-1,1.80023E-1
-6.80450E-1,2.59063E-1
-6.47918E-1,3.28094E-1
-6.09680E-1,3.95355E-1
-5.70709E-1,4.53521E-1
-5.17272E-1,5.18219E-1
-4.58343E-1,5.67932E-1
-3.98986E-1,6.12396E-1
-3.30505E-1,6.47216E-1
-2.66540E-1,6.77917E-1
-1.84722E-1,7.05169E-1
-1.13830E-1,7.17407E-1
-0.38909E-1,7.25524E-1
0.37109E-1,7.18505E-1
1.05804E-1,7.09198E-1
1.83441E-1,6.96929E-1
2.49603E-1,6.61926E-1
3.16070E-1,6.34307E-1
3.77716E-1,5.92804E-1
4.31030E-1,5.50506E-1
4.79797E-1,4.99099E-1
5.18493E-1,4.45831E-1
5.63659E-1,3.94622E-1
5.96771E-1,3.30658E-1
6.26007E-1,2.67883E-1
6.39038E-1,1.99432E-1
6.55365E-1,1.41906E-1
6.65252E-1,0.70068E-1
6.58508E-1,-0.00366E-1
6.52862E-1,-0.63415E-1
6.34704E-1,-1.29882E-1
6.22467E-1,-1.86248E-1
5.86303E-1,-2.52868E-1
5.53833E-1,-2.98858E-1
5.25695E-1,-3.49762E-1
5.34393E-1,-3.93646E-1
4.32220E-1,-4.42352E-1
3.87390E-1,-4.78546E-1
3.41735E-1,-5.10253E-1
2.88452E-1,-5.37811E-1
2.34802E-1,-5.66864E-1
1.68212E-1,-5.76721E-1
1.22436E-1,-5.90454E-1
0.63354E-1,-5.92681E-1
0.09674E-1,-5.92956E-1
-0.43029E-1,-5.91766E-1
-1.08947E-1,-5.87585E-1
-1.51214E-1,-5.60058E-1
-1.97845E-1,-5.53192E-1
-2.51403E-1,-5.32836E-1
-2.98706E-1,-5.04364E-1
-3.43399E-1,-4.73831E-1
-3.82888E-1,-4.37027E-1
-4.24392E-1,-4.07638E-1
-4.58435E-1,-3.60870E-1
-4.83840E-1,-3.14056E-1
-5.00640E-1,-2.71575E-1
-5.30517E-1,-2.25524E-1
-5.42755E-1,-1.76879E-1
-5.55694E-1,-1.33483E-1
-5.65948E-1,-0.83496E-1
-5.63629E-1,-0.32440E-1
-5.62103E-1,0.12847E-1
-5.56976E-1,0.60638E-1
-5.5896E-1,1.10504E-1
-5.39947E-1,1.56066E-1
-5.20080E-1,1.95922E-1
-5.02990E-1,2.29644E-1
-4.87091E-1,2.82470E-1
-4.58160E-1,3.25363E-1
-4.31213E-1,3.58886E-1
-4.03457E-1,3.96179E-1
-3.66821E-1,4.31396E-1
-3.23822E-1,4.66796E-1
-2.81845E-1,4.94155E-1
-2.35534E-1,5.30334E-1
-1.81732E-1,5.51452E-1
-1.23535E-1,5.64178E-1
-0.69824E-1,5.61767E-1
-0.15197E-1,5.73730E-1
0.54931E-1,5.74859E-1
1.07879E-1,5.64422E-1
1.62780E-1,5.49652E-1
2.13348E-1,5.22247E-1
2.69821E-1,4.97436E-1
3.24432E-1,4.62417E-1
3.78311E-1,4.24255E-1
4.20562E-1,3.80950E-1
4.56314E-1,3.29605E-1
4.80560E-1,2.76306E-1
5.13946E-1,2.12982E-1
5.33508E-1,1.43646E-1
5.38147E-1,0.79650E-1
5.39703E-1,0.28259E-1
5.40557E-1,-0.29602E-1
5.27191E-1,-1.00585E-1
5.07293E-1,-1.55426E-1
4.91378E-1,-2.16812E-1
4.69024E-1,-2.71270E-1
4.35226E-1,-3.31619E-1
3.86581E-1,-3.77380E-1
3.37463E-1,-4.20806E-1
2.80059E-1,-4.64325E-1
2.20535E-1,-4.91333E-1
1.69769E-1,-5.08392E-1
1.17370E-1,-5.20782E-1
0.56121E-1,-5.33325E-1
-0.08361E-1,-5.34912E-1
-0.65490E-1,-5.30853E-1
-1.10351E-1,-5.28320E-1
-1.67816E-1,-5.26489E-1
-2.24182E-1,-5.04943E-1
-2.79953E-1,-4.76379E-1
-3.31878E-1,-4.39971E-1
-3.73672E-1,-4.06601E-1
-4.06570E-1,-3.78158E-1
-4.32235E-1,-3.47320E-1
-4.66842E-1,-3.08837E-1
-4.97070E-1,-2.61306E-1
-5.24139E-1,-2.14386E-1
-5.50293E-1,-1.79107E-1
-5.75103E-1,-1.35528E-1
-5.88531E-1,-0.83404E-1
-5.93872E-1,-0.23925E-1
-5.92071E-1,0.37323E-1
-5.94207E-1,0.87127E-1
-5.92407E-1,1.36627E-1
-5.81146E-1,1.76391E-1
-5.66070E-1,2.26898E-1
-5.37475E-1,2.76947E-1
-5.12939E-1,3.24829E-1
-4.93530E-1,3.72375E-1
-4.67254E-1,4.09301E-1
-4.34448E-1,4.45159E-1
-3.88824E-1,4.78942E-1
-3.42102E-1,5.08392E-1
-3.01025E-1,5.43640E-1
-2.54974E-1,5.68847E-1
-2.16064E-1,5.80902E-1
-1.69433E-1,5.89721E-1
-1.14776E-1,5.97656E-1
-0.53924E-1,6.09191E-1
-0.00396E-1,6.15142E-1
0.43518E-1,6.14318E-1
0.88409E-1,6.05590E-1
1.37664E-1,5.85449E-1
1.93450E-1,5.61950E-1
2.46795E-1,5.44647E-1
3.00354E-1,5.22644E-1
3.36486E-1,4.96032E-1
3.68225E-1,4.58068E-1
4.03762E-1,4.10461E-1
4.40765E-1,3.59588E-1
4.78027E-1,3.12042E-1
5.01007E-1,2.62268E-1
5.09552E-1,2.15148E-1
5.13610E-1,1.64856E-1
5.16082E-1,1.03241E-1
5.26611E-1,0.45074E-1
5.27740E-1,-0.18096E-1
5.13702E-1,-0.71228E-1
4.88784E-1,-1.17477E-1
4.57946E-1,-1.67221E-1
4.18304E-1,-2.21115E-1
3.79455E-1,-2.67730E-1
3.38073E-1,-3.02887E-1
2.97073E-1,-3.19534E-1
2.52868E-1,-3.34747E-1
1.99173E-1,-3.48632E-1
1.54098E-1,-3.62274E-1
1.10992E-1,-3.77975E-1
0.70541E-1,-3.83758E-1
0.29083E-1,-3.77166E-1
-0.15853E-1,-3.62823E-1
-0.63461E-1,-3.43673E-1
-1.05957E-1,-3.30474E-1
-1.43127E-1,-3.17520E-1
-1.69006E-1,-2.94952E-1
-1.85791E-1,-2.63382E-1
-2.06680E-1,-2.30285E-1
-2.28637E-1,-1.97197E-1
-2.51800E-1,-1.73507E-1
-2.69226E-1,-1.51535E-1
-2.76565E-1,-1.25778E-1
-2.74551E-1,-0.93475E-1
-2.73498E-1,-0.56655E-1
-2.75329E-1,-0.21026E-1
-2.79861E-1,0.06286E-1
-2.75238E-1,0.27145E-1
-2.55264E-1,0.44158E-1
-2.35839E-1,0.58570E-1
-2.20367E-1,0.82901E-1
-2.12852E-1,1.07238E-1
-2.07450E-1,1.18949E-1
-2.01385E-1,1.24450E-1
-1.84074E-1,1.23664E-1
-1.61682E-1,1.34758E-1
-1.35765E-1,1.51763E-1
END
BEGIN
-6.66046E-1,2.87292E-1
-5.71411E-1,3.16192E-1
-5.88623E-1,3.53149E-1
-5.25909E-1,4.63836E-1
-4.59960E-1,4.89990E-1
-3.89404E-1,5.63720E-1
-2.76184E-1,5.37414E-1
-2.84774E-1,4.99954E-1
-2.75634E-1,5.65673E-1
-2.21649E-1,5.89813E-1
-1.79687E-1,6.48742E-1
-0.61370E-1,6.43035E-1
-0.66680E-1,6.00219E-1
-0.46264E-1,6.96441E-1
0.88195E-1,7.06817E-1
1.41967E-1,7.00500E-1
2.70660E-1,6.82586E-1
2.94555E-1,5.82946E-1
2.89978E-1,6.19628E-1
4.09332E-1,6.23077E-1
4.65698E-1,5.79040E-1
5.87677E-1,5.53680E-1
6.42089E-1,3.99414E-1
6.20208E-1,3.64746E-1
7.09686E-1,3.06854E-1
7.02575E-1,1.91711E-1
7.32330E-1,1.45355E-1
7.26287E-1,-0.10650E-1
6.11053E-1,-0.42938E-1
6.21215E-1,-0.21545E-1
6.23931E-1,-0.72296E-1
6.33697E-1,-0.76110E-1
6.83075E-1,-1.68548E-1
6.06140E-1,-2.35595E-1
6.23535E-1,-2.15301E-1
6.80053E-1,-3.10394E-1
6.65161E-1,-4.05242E-1
6.54388E-1,-5.61676E-1
4.57183E-1,-6.56890E-1
3.82629E-1,-5.83953E-1
3.81744E-1,-6.40106E-1
2.85247E-1,-6.68670E-1
2.61322E-1,-6.88079E-1
1.41479E-1,-7.43286E-1
0.74798E-1,-6.62384E-1
0.97045E-1,-6.91955E-1
-0.04180E-1,-7.42126E-1
-0.53588E-1,-7.23846E-1
-1.57562E-1,-7.83111E-1
-3.01849E-1,-6.73522E-1
-2.79632E-1,-5.97625E-1
-3.14147E-1,-5.96954E-1
-3.34930E-1,-5.52398E-1
-3.59008E-1,-5.79071E-1
-4.60693E-1,-5.41412E-1
-4.66171E-1,-4.76882E-1
-5.02380E-1,-4.83032E-1
-5.54565E-1,-4.37255E-1
-5.98846E-1,-4.38842E-1
-7.37396E-1,-3.61084E-1
-7.19574E-1,-1.97784E-1
-6.90856E-1,-1.67938E-1
-6.94366E-1,-0.96832E-1
-6.54388E-1,-0.86608E-1
-7.30255E-1,-0.81848E-1
-7.50701E-1,0.46081E-1
-7.08160E-1,0.75439E-1
-7.53479E-1,1.19567E-1
-7.47283E-1,2.02514E-1
-7.82775E-1,2.68829E-1
-7.54638E-1,4.43969E-1
-6.22833E-1,4.96521E-1
-5.87097E-1,5.29052E-1
-4.91943E-1,5.78826E-1
-4.54406E-1,5.51330E-1
-4.45861E-1,6.05651E-1
-3.74328E-1,6.31958E-1
-3.67279E-1,6.48193E-1
-3.14727E-1,7.21191E-1
-2.52838E-1,7.22900E-1
-2.42095E-1,7.88147E-1
-1.26098E-1,8.66149E-1
-0.23895E-1,8.69232E-1
1.01348E-1,8.85681E-1
2.05017E-1,7.94494E-1
2.04498E-1,7.76794E-1
3.06030E-1,7.99713E-1
3.80920E-1,7.17041E-1
4.10919E-1,7.08496E-1
5.01617E-1,6.61315E-1
5.12908E-1,6.16272E-1
5.95581E-1,6.36047E-1
7.19238E-1,5.35553E-1
7.36541E-1,4.32647E-1
7.83630E-1,3.51684E-1
7.68768E-1,2.40966E-1
7.59521E-1,2.08709E-1
7.86529E-1,1.28723E-1
7.42340E-1,0.71411E-1
7.63488E-1,0.53772E-1
7.79449E-1,-0.26245E-1
7.63122E-1,-0.68847E-1
7.99469E-1,-1.26464E-1
7.86285E-1,-2.23877E-1
7.78076E-1,-2.82257E-1
7.72369E-1,-4.03015E-1
6.66992E-1,-4.92095E-1
6.10351E-1,-5.12817E-1
5.57647E-1,-5.71136E-1
4.90234E-1,-5.92102E-1
4.47845E-1,-6.33239E-1
3.57269E-1,-6.57806E-1
3.18969E-1,-6.37390E-1
2.98736E-1,-6.72027E-1
2.37579E-1,-7.03949E-1
1.88873E-1,-7.30407E-1
1.01043E-1,-7.59887E-1
0.23712E-1,-7.34863E-1
-0.26062E-1,-7.32391E-1
-1.03942E-1,-7.10479E-1
-1.33270E-1,-6.73156E-1
-1.74469E-1,-6.78222E-1
-2.34344E-1,-6.45599E-1
-2.59063E-1,-6.22253E-1
-3.05633E-1,-6.05926E-1
-3.33526E-1,-5.74493E-1
-3.62670E-1,-5.76507E-1
-4.25415E-1,-5.64361E-1
-4.80377E-1,-5.31372E-1
-5.40802E-1,-4.85656E-1
-5.64910E-1,-4.12780E-1
-5.74279E-1,-3.89312E-1
-6.23718E-1,-3.54156E-1
-6.47033E-1,-2.94799E-1
-6.74346E-1,-2.54577E-1
-6.92565E-1,-1.85272E-1
-6.81732E-1,-1.50177E-1
-7.19909E-1,-1.23291E-1
-7.51617E-1,-0.48400E-1
-7.57171E-1,0.13732E-1
-7.70629E-1,0.89599E-1
-7.41851E-1,1.63421E-1
-7.35382E-1,2.08221E-1
-7.22900E-1,2.93609E-1
-6.74926E-1,3.4552E-1
-6.58905E-1,3.97888E-1
-6.01440E-1,4.63592E-1
-5.60302E-1,4.71893E-1
-5.49072E-1,5.15136E-1
-5.11444E-1,5.60974E-1
-4.92309E-1,6.08673E-1
-4.37286E-1,6.86645E-1
-3.51409E-1,7.14843E-1
-3.05175E-1,7.36450E-1
-2.40814E-1,7.64526E-1
-1.89117E-1,7.82440E-1
-1.14044E-1,8.22357E-1
-0.18829E-1,8.07159E-1
0.20538E-1,7.93243E-1
0.83313E-1,8.10150E-1
1.44226E-1,7.99804E-1
2.07489E-1,8.14941E-1
3.06366E-1,7.99194E-1
3.72741E-1,7.54638E-1
4.38659E-1,7.33306E-1
5.10223E-1,6.82708E-1
5.56732E-1,6.39160E-1
6.23565E-1,5.93353E-1
6.67541E-1,5.20996E-1
6.97418E-1,4.68414E-1
7.34344E-1,4.06555E-1
7.53204E-1,3.52325E-1
7.90069E-1,3.01971E-1
8.21685E-1,2.28241E-1
8.35296E-1,1.60430E-1
8.53607E-1,0.88409E-1
8.55255E-1,0.11505E-1
8.54339E-1,-0.53588E-1
8.52722E-1,-1.27227E-1
8.39691E-1,-2.01355E-1
8.23303E-1,-2.71148E-1
8.02459E-1,-3.49823E-1
7.59613E-1,-4.21112E-1
7.17102E-1,-4.77447E-1
6.74774E-1,-5.32959E-1
6.28997E-1,-5.83587E-1
5.85601E-1,-6.31652E-1
5.30609E-1,-6.87927E-1
4.64050E-1,-7.25463E-1
4.09576E-1,-7.55096E-1
3.46771E-1,-7.92999E-1
2.86377E-1,-8.17321E-1
2.23327E-1,-8.61175E-1
1.20788E-1,-8.81591E-1
0.40771E-1,-8.70636E-1
-0.30578E-1,-8.66088E-1
-0.99090E-1,-8.45367E-1
-1.49475E-1,-8.39965E-1
-2.31201E-1,-8.35845E-1
-3.02215E-1,-7.98706E-1
-3.56903E-1,-7.68463E-1
END
BEGIN
-5.86639E-1,2.42736E-1
-5.88104E-1,3.20770E-1
-4.84314E-1,3.69720E-1
-4.97589E-1,3.30856E-1
-5.36621E-1,4.58862E-1
-4.24346E-1,5.25604E-1
-3.96698E-1,5.61218E-1
-2.83172E-1,6.23107E-1
-2.39593E-1,5.67749E-1
-2.69836E-1,6.48681E-1
-1.29394E-1,7.29003E-1
-0.46264E-1,7.04376E-1
0.60516E-1,7.08007E-1
1.15112E-1,6.19751E-1
0.95733E-1,6.4328E-1
2.19543E-1,6.84417E-1
2.90313E-1,6.16272E-1
3.66394E-1,5.97839E-1
4.17572E-1,4.73663E-1
3.51547E-1,4.50729E-1
4.14886E-1,5.07598E-1
4.95101E-1,4.36248E-1
5.24993E-1,4.14581E-1
6.06201E-1,3.25927E-1
5.55725E-1,2.52136E-1
5.81939E-1,2.92205E-1
6.72607E-1,2.20306E-1
6.84753E-1,1.52557E-1
7.40783E-1,0.54351E-1
6.63940E-1,-0.62805E-1
6.31805E-1,-0.31402E-1
7.0224E-1,-0.79345E-1
7.08465E-1,-1.59240E-1
7.43530E-1,-2.6828E-1
6.19110E-1,-4.11407E-1
5.26153E-1,-3.52356E-1
5.84137E-1,-3.66149E-1
5.74401E-1,-4.63714E-1
8.07067E-1,-0.72876E-1
4.25109E-1,-6.94793E-1
2.75665E-1,-6.11938E-1
3.17504E-1,-5.68817E-1
3.08502E-1,-6.45599E-1
2.74688E-1,-7.01782E-1
1.65802E-1,-8.29834E-1
-0.38970E-1,-7.63336E-1
-0.19653E-1,-6.69311E-1
-0.30242E-1,-7.21496E-1
-0.93536E-1,-7.33337E-1
-1.69982E-1,-8.01422E-1
-3.85223E-1,-7.40020E-1
-3.86322E-1,-5.74981E-1
-3.57971E-1,-5.80993E-1
-4.07409E-1,-5.71289E-1
-4.37408E-1,-5.92041E-1
-6.03790E-1,-5.74615E-1
-6.39862E-1,-3.78967E-1
-5.72937E-1,-3.46557E-1
-6.05712E-1,-3.34503E-1
-6.17645E-1,-3.17138E-1
-7.30102E-1,-3.13781E-1
-7.92022E-1,-1.18194E-1
-6.83319E-1,-0.46844E-1
-6.79779E-1,-0.48492E-1
-6.77764E-1,-0.15777E-1
-7.31964E-1,-0.19226E-1
-8.25347E-1,1.31713E-1
-7.07000E-1,2.63549E-1
-6.65100E-1,2.48596E-1
-6.67297E-1,2.93212E-1
-6.70623E-1,3.16619E-1
-7.27203E-1,4.35943E-1
-5.93139E-1,5.93353E-1
-4.85473E-1,5.62744E-1
-4.7052E-1,5.82672E-1
-4.30328E-1,6.06231E-1
-4.37957E-1,6.59637E-1
-3.40667E-1,7.78533E-1
-2.04620E-1,7.52471E-1
-1.67480E-1,7.31353E-1
-1.25427E-1,7.31140E-1
-1.17553E-1,7.65594E-1
-0.16784E-1,8.57788E-1
1.26831E-1,8.05847E-1
1.56585E-1,7.65350E-1
2.27142E-1,7.45971E-1
2.40448E-1,7.09869E-1
2.85064E-1,7.71789E-1
4.45465E-1,7.64251E-1
5.14709E-1,6.66839E-1
5.65612E-1,6.19171E-1
5.87982E-1,5.49255E-1
6.11877E-1,5.56366E-1
7.41607E-1,5.23071E-1
8.12103E-1,3.81958E-1
8.22479E-1,2.77160E-1
7.95318E-1,1.78222E-1
7.69134E-1,1.77002E-1
8.61419E-1,1.44165E-1
8.96911E-1,-0.16113E-1
8.40606E-1,-1.19995E-1
7.95867E-1,-2.05383E-1
7.27966E-1,-2.28088E-1
7.65716E-1,-2.43316E-1
7.73254E-1,-3.74664E-1
6.89544E-1,-4.49066E-1
6.41601E-1,-5.12298E-1
5.31890E-1,-5.50109E-1
5.07812E-1,-5.21514E-1
5.19531E-1,-5.96740E-1
4.31152E-1,-6.79077E-1
3.44696E-1,-7.06207E-1
2.36602E-1,-7.04956E-1
2.00897E-1,-6.40533E-1
2.15301E-1,-6.69067E-1
1.45813E-1,-7.29156E-1
0.57800E-1,-7.35351E-1
-0.32684E-1,-7.21069E-1
-0.80291E-1,-6.49627E-1
-0.60302E-1,-6.39221E-1
-0.95245E-1,-6.83593E-1
-1.75964E-1,-6.93512E-1
-2.64953E-1,-6.72637E-1
-3.30688E-1,-5.90789E-1
-3.13568E-1,-5.44952E-1
-3.32092E-1,-5.66101E-1
-3.94256E-1,-5.62927E-1
-4.64660E-1,-5.36804E-1
-5.27221E-1,-4.53186E-1
-4.99176E-1,-3.78967E-1
-4.93820E-1,-3.89068E-1
-5.46875E-1,-3.88793E-1
-6.10412E-1,-3.50799E-1
-6.61956E-1,-2.74993E-1
-6.44500E-1,-1.94641E-1
-6.31408E-1,-1.78619E-1
-6.61712E-1,-1.54541E-1
-6.92596E-1,-1.08215E-1
-7.28729E-1,-0.45227E-1
-7.25982E-1,0.49346E-1
-6.88232E-1,0.89386E-1
-6.92504E-1,1.14013E-1
-7.02850E-1,1.58813E-1
-7.18963E-1,2.20306E-1
-7.09411E-1,3.18237E-1
-6.54418E-1,3.77777E-1
-6.37115E-1,4.10553E-1
-6.23413E-1,4.63745E-1
-6.10687E-1,5.23437E-1
-5.73242E-1,6.21032E-1
-4.61944E-1,6.80847E-1
-4.02069E-1,6.72180E-1
-3.78753E-1,7.04467E-1
-3.39843E-1,7.51098E-1
-2.81463E-1,8.19641E-1
-1.62231E-1,8.62854E-1
-0.68725E-1,8.30902E-1
-0.17852E-1,8.26873E-1
0.44158E-1,8.33496E-1
1.13678E-1,8.50189E-1
2.20611E-1,8.51135E-1
3.04168E-1,7.92205E-1
3.45703E-1,7.56988E-1
3.94989E-1,7.29553E-1
4.45617E-1,7.12951E-1
5.28595E-1,6.91070E-1
6.01470E-1,6.22711E-1
6.40258E-1,5.61340E-1
6.79779E-1,5.04669E-1
7.07061E-1,4.56817E-1
7.55523E-1,4.13024E-1
8.05969E-1,3.39141E-1
8.24676E-1,2.55493E-1
8.35327E-1,1.82006E-1
8.40057E-1,1.14990E-1
8.50280E-1,0.55450E-1
8.64166E-1,-0.14770E-1
8.65448E-1,-0.96283E-1
8.51104E-1,-1.74591E-1
8.29254E-1,-2.48535E-1
7.96203E-1,-3.18481E-1
7.64343E-1,-3.74206E-1
7.42889E-1,-4.37896E-1
7.04498E-1,-5.05950E-1
6.61132E-1,-5.68725E-1
5.99395E-1,-6.28784E-1
5.30639E-1,-6.59393E-1
4.88708E-1,-6.87988E-1
4.36157E-1,-7.33337E-1
3.79791E-1,-7.70324E-1
3.15002E-1,-8.22082E-1
2.15850E-1,-8.43261E-1
1.44653E-1,-8.29101E-1
0.91796E-1,-8.33953E-1
0.29693E-1,-8.39477E-1
-0.30304E-1,-8.59375E-1
-1.34124E-1,-8.62823E-1
-2.11456E-1,-8.11676E-1
-2.47863E-1,-7.80029E-1
-2.95593E-1,-7.62390E-1
-3.38867E-1,-7.52319E-1
END
BEGIN
-7.02362E-1,-0.07019E-1
-7.01293E-1,0.70129E-1
-6.91192E-1,1.53350E-1
-6.75415E-1,2.29278E-1
-6.43371E-1,3.10394E-1
-6.00372E-1,3.79821E-1
-5.54687E-1,4.46319E-1
-5.07537E-1,5.06897E-1
-4.47509E-1,5.64727E-1
-3.79913E-1,6.08429E-1
-3.12927E-1,6.46362E-1
-2.37487E-1,6.74072E-1
-1.62994E-1,6.99859E-1
-0.71411E-1,7.16400E-1
0.04760E-1,7.14752E-1
0.83007E-1,7.11151E-1
1.5979E-1,6.92901E-1
2.33001E-1,6.72576E-1
3.12896E-1,6.44317E-1
3.72680E-1,5.95733E-1
4.28955E-1,5.51696E-1
4.80117E-1,4.97650E-1
5.29693E-1,4.41162E-1
5.73883E-1,3.69659E-1
6.05621E-1,2.99408E-1
6.39251E-1,2.28668E-1
6.54541E-1,1.53320E-1
6.66534E-1,0.79772E-1
6.59332E-1,0.00152E-1
6.56524E-1,-0.69671E-1
6.40838E-1,-1.47247E-1
6.12762E-1,-2.13287E-1
5.88012E-1,-2.66754E-1
5.51818E-1,-3.21899E-1
5.20568E-1,-3.72985E-1
4.60861E-1,-4.27093E-1
4.10629E-1,-4.61959E-1
3.68072E-1,-5.03631E-1
3.12622E-1,-5.05584E-1
2.42828E-1,-5.67138E-1
1.80542E-1,-5.85022E-1
1.19934E-1,-5.96191E-1
0.54870E-1,-6.00585E-1
-0.08514E-1,-6.06414E-1
-0.78277E-1,-5.91339E-1
-1.33178E-1,-5.83892E-1
-1.93664E-1,-5.60699E-1
-2.51159E-1,-5.3479E-1
-3.05938E-1,-5.06561E-1
-3.70147E-1,-4.67437E-1
-4.02969E-1,-4.16732E-1
-4.45694E-1,-3.81774E-1
-4.87396E-1,-3.35006E-1
-5.20599E-1,-2.83477E-1
-5.47027E-1,-2.31628E-1
-5.61523E-1,-1.76269E-1
-5.80719E-1,-1.23596E-1
-5.87219E-1,-0.58807E-1
-5.87860E-1,0.06805E-1
-5.81207E-1,0.68542E-1
-5.78674E-1,1.36535E-1
-5.56457E-1,1.93115E-1
-5.36682E-1,2.46765E-1
-5.11566E-1,3.06610E-1
-4.71740E-1,3.63555E-1
-4.35119E-1,4.08828E-1
-3.91769E-1,4.49737E-1
-3.51196E-1,4.91760E-1
-2.96508E-1,5.19195E-1
-2.36022E-1,5.39306E-1
-1.79870E-1,5.50842E-1
-1.10534E-1,5.74371E-1
-0.43762E-1,5.74829E-1
0.08850E-1,5.75927E-1
0.72448E-1,5.78430E-1
1.34765E-1,5.65673E-1
1.95404E-1,5.44189E-1
2.41973E-1,5.16845E-1
2.97241E-1,4.95849E-1
3.48220E-1,4.63638E-1
3.94226E-1,4.15908E-1
4.19357E-1,3.69842E-1
4.52774E-1,3.30139E-1
4.86526E-1,2.75924E-1
5.10101E-1,2.24639E-1
5.32836E-1,1.65954E-1
5.41564E-1,1.08856E-1
5.54351E-1,0.55694E-1
5.52459E-1,0.05798E-1
5.54016E-1,-0.44464E-1
5.42236E-1,-0.93780E-1
5.22613E-1,-1.43951E-1
5.01403E-1,-1.84356E-1
4.81384E-1,-2.36068E-1
4.54650E-1,-2.86727E-1
4.18838E-1,-3.30215E-1
3.85360E-1,-3.65615E-1
3.47412E-1,-4.01489E-1
2.98202E-1,-4.35882E-1
2.62390E-1,-4.54681E-1
2.25204E-1,-4.86419E-1
1.87286E-1,-5.09582E-1
1.42974E-1,-5.28472E-1
1.03820E-1,-5.31311E-1
0.67504E-1,-5.38848E-1
0.15716E-1,-5.47576E-1
-0.38269E-1,-5.43457E-1
-0.86792E-1,-5.35278E-1
-1.32843E-1,-5.26153E-1
-1.77856E-1,-5.18035E-1
-2.22412E-1,-5.05584E-1
-2.63641E-1,-4.83856E-1
-2.98507E-1,-4.64477E-1
-3.41491E-1,-4.41818E-1
-3.76220E-1,-4.13482E-1
-4.09423E-1,-3.85818E-1
-4.40856E-1,-3.54858E-1
-4.67910E-1,-3.17794E-1
-4.9263E-1,-2.78320E-1
-5.13946E-1,-2.37213E-1
-5.38085E-1,-1.89575E-1
-5.55053E-1,-1.42089E-1
-5.69000E-1,-0.97961E-1
-5.82336E-1,-0.56823E-1
-5.91278E-1,-0.10894E-1
-5.94757E-1,0.36651E-1
-5.88439E-1,0.82855E-1
-5.81817E-1,1.22833E-1
-5.76416E-1,1.67053E-1
-5.59814E-1,2.16400E-1
-5.43212E-1,2.57263E-1
-5.19805E-1,3.06030E-1
-4.92752E-1,3.45703E-1
-4.67651E-1,3.86077E-1
-4.37484E-1,4.28848E-1
-4.03213E-1,4.62646E-1
-3.68759E-1,4.99893E-1
-3.28064E-1,5.26092E-1
-2.95135E-1,5.45166E-1
-2.56927E-1,5.68573E-1
-2.08435E-1,5.83587E-1
-1.65008E-1,5.93444E-1
-1.12579E-1,6.03241E-1
-0.64880E-1,6.07513E-1
-0.12329E-1,6.14929E-1
0.41626E-1,6.11785E-1
0.91766E-1,6.04736E-1
1.48834E-1,5.92346E-1
2.03552E-1,5.66406E-1
2.47802E-1,5.43151E-1
2.88543E-1,5.25878E-1
3.33160E-1,4.99755E-1
3.66012E-1,4.70321E-1
3.99032E-1,4.30099E-1
4.26513E-1,3.86230E-1
4.5224E-1,3.38180E-1
4.84268E-1,2.88742E-1
5.05493E-1,2.34893E-1
5.21911E-1,1.85241E-1
5.28930E-1,1.33850E-1
5.27099E-1,0.87677E-1
5.32409E-1,0.43579E-1
5.28381E-1,-0.10528E-1
5.16967E-1,-0.52124E-1
5.03173E-1,-0.95031E-1
4.81170E-1,-1.31759E-1
4.55215E-1,-1.66122E-1
4.2453E-1,-2.03094E-1
3.87268E-1,-2.34603E-1
3.53088E-1,-2.64022E-1
3.10104E-1,-2.93701E-1
2.69012E-1,-3.13949E-1
2.32803E-1,-3.33465E-1
1.94610E-1,-3.51257E-1
1.59500E-1,-3.64242E-1
1.14471E-1,-3.69934E-1
0.75820E-1,-3.60061E-1
0.42373E-1,-3.54019E-1
0.03967E-1,-3.48892E-1
-0.33432E-1,-3.40057E-1
-0.73898E-1,-3.25286E-1
-1.05285E-1,-2.97470E-1
-1.29577E-1,-2.74093E-1
-1.57051E-1,-2.48062E-1
-1.80351E-1,-2.22839E-1
-2.03498E-1,-1.99722E-1
-2.22251E-1,-1.71798E-1
-2.26646E-1,-1.49467E-1
-2.32505E-1,-1.27052E-1
-2.32994E-1,-0.99258E-1
-2.34451E-1,-0.71632E-1
-2.38754E-1,-0.36605E-1
-2.28500E-1,0.00541E-1
-2.19451E-1,0.23895E-1
-2.09014E-1,0.48675E-1
-1.94633E-1,0.71456E-1
-1.79931E-1,0.94101E-1
-1.64093E-1,1.19522E-1
-1.43089E-1,1.30172E-1
-1.27784E-1,1.38420E-1
-1.06941E-1,1.41838E-1
END
