CITIFILE A.01.01
#NA VERSION HP8510C.08.10
NAME DATA
#NA REGISTER 4
VAR FREQ MAG 201
DATA S[1,1] RI
DATA S[2,1] RI
DATA S[1,2] RI
DATA S[2,2] RI
SEG_LIST_BEGIN
SEG 8000000000 12000000000 201
SEG_LIST_END
COMMENT       YEAR MONTH DAY HOUR MINUTE SECONDS
CONSTANT TIME 2013   12   09  20    21    46.0
BEGIN
-6.95404E-1,-1.62994E-1
-7.07946E-1,-0.92041E-1
-7.14965E-1,-0.11383E-1
-7.14721E-1,0.63446E-1
-7.05688E-1,1.41876E-1
-6.85485E-1,2.13287E-1
-6.60034E-1,2.82562E-1
-6.33483E-1,3.45306E-1
-5.93170E-1,4.16229E-1
-5.45501E-1,4.74426E-1
-4.96337E-1,5.29022E-1
-4.38537E-1,5.73028E-1
-3.83544E-1,6.16516E-1
-3.07861E-1,6.57104E-1
-2.41851E-1,6.80572E-1
-1.71783E-1,7.02697E-1
-0.97747E-1,7.09960E-1
-0.31768E-1,7.15789E-1
0.47149E-1,7.19390E-1
1.16912E-1,6.96380E-1
1.85821E-1,6.84387E-1
2.52899E-1,6.55944E-1
3.11615E-1,6.29089E-1
3.69567E-1,5.90850E-1
4.16046E-1,5.50537E-1
4.72198E-1,5.09063E-1
5.19561E-1,4.56085E-1
5.61340E-1,4.03076E-1
5.92468E-1,3.41033E-1
6.23352E-1,2.86529E-1
6.47369E-1,2.17926E-1
6.56707E-1,1.46667E-1
6.65924E-1,0.82885E-1
6.64001E-1,0.14068E-1
6.65466E-1,-0.47241E-1
6.42120E-1,-1.17736E-1
6.21429E-1,-1.70532E-1
6.05285E-1,-2.27783E-1
5.80383E-1,-2.96173E-1
5.35583E-1,-3.41033E-1
4.99801E-1,-3.87115E-1
4.62387E-1,-4.29473E-1
4.13909E-1,-4.69101E-1
3.68530E-1,-5.10131E-1
3.04473E-1,-5.36254E-1
2.62329E-1,-5.59936E-1
2.05596E-1,-5.75592E-1
1.51825E-1,-5.88806E-1
1.00311E-1,-6.00280E-1
0.30639E-1,-6.11724E-1
-0.17791E-1,-5.95001E-1
-0.66558E-1,-5.98083E-1
-1.23901E-1,-5.88684E-1
-1.75628E-1,-5.69274E-1
-2.26501E-1,-5.48187E-1
-2.71514E-1,-5.19348E-1
-3.16467E-1,-5.01983E-1
-3.56903E-1,-4.66278E-1
-3.89404E-1,-4.31320E-1
-4.17373E-1,-3.99169E-1
-4.59442E-1,-3.60794E-1
-4.83596E-1,-3.20373E-1
-5.10986E-1,-2.85003E-1
-5.36285E-1,-2.42797E-1
-5.51940E-1,-1.95587E-1
-5.67779E-1,-1.49047E-1
-5.80169E-1,-0.99456E-1
-6.01196E-1,-0.47454E-1
-5.97991E-1,0.05035E-1
-5.92712E-1,0.51422E-1
-5.86364E-1,0.96283E-1
-5.79132E-1,1.57745E-1
-5.61706E-1,2.10815E-1
-5.42633E-1,2.52014E-1
-5.25970E-1,2.96020E-1
-4.99221E-1,3.43475E-1
-4.62173E-1,3.89984E-1
-4.28802E-1,4.30496E-1
-3.89099E-1,4.81735E-1
-3.41796E-1,5.15655E-1
-2.88543E-1,5.44525E-1
-2.33429E-1,5.57220E-1
-1.80297E-1,5.82183E-1
-1.10107E-1,6.00280E-1
-0.56915E-1,6.03332E-1
-0.01739E-1,6.06750E-1
0.55206E-1,5.94696E-1
1.15264E-1,5.85418E-1
1.80206E-1,5.68664E-1
2.46307E-1,5.44952E-1
2.99499E-1,5.16998E-1
3.48632E-1,4.77401E-1
3.83773E-1,4.32861E-1
4.32586E-1,3.82782E-1
4.72381E-1,3.22250E-1
4.96734E-1,2.63961E-1
5.16204E-1,2.17407E-1
5.34362E-1,1.64367E-1
5.45257E-1,0.94574E-1
5.45806E-1,0.30853E-1
5.48400E-1,-0.36560E-1
5.43853E-1,-0.98938E-1
5.27496E-1,-1.67694E-1
4.91836E-1,-2.23739E-1
4.55062E-1,-2.79068E-1
4.1008E-1,-3.36441E-1
3.62167E-1,-3.79272E-1
3.18878E-1,-4.11621E-1
2.73712E-1,-4.35852E-1
2.19162E-1,-4.63836E-1
1.58950E-1,-4.82009E-1
1.02325E-1,-4.96566E-1
0.56976E-1,-5.08300E-1
0.01709E-1,-5.20477E-1
-0.55755E-1,-5.12542E-1
-1.1409E-1,-4.97360E-1
-1.70776E-1,-4.76898E-1
-2.18933E-1,-4.58404E-1
-2.58422E-1,-4.44015E-1
-2.92785E-1,-4.26101E-1
-3.38546E-1,-3.94577E-1
-3.76007E-1,-3.51364E-1
-4.11987E-1,-3.11508E-1
-4.45404E-1,-2.84713E-1
-4.78256E-1,-2.50930E-1
-5.01373E-1,-2.05261E-1
-5.14465E-1,-1.51001E-1
-5.22033E-1,-0.95947E-1
-5.35064E-1,-0.51086E-1
-5.47668E-1,-0.07598E-1
-5.49255E-1,0.29052E-1
-5.41412E-1,0.75103E-1
-5.26123E-1,1.23291E-1
-5.14038E-1,1.73889E-1
-5.08911E-1,2.20733E-1
-4.97695E-1,2.60543E-1
-4.75143E-1,2.96554E-1
-4.40078E-1,3.30032E-1
-4.07058E-1,3.65280E-1
-3.76983E-1,4.07104E-1
-3.44986E-1,4.40979E-1
-3.15612E-1,4.59854E-1
-2.79830E-1,4.73053E-1
-2.38678E-1,4.91409E-1
-1.81213E-1,5.14038E-1
-1.37695E-1,5.32440E-1
-1.00738E-1,5.47149E-1
-0.63537E-1,5.45715E-1
-0.24719E-1,5.38177E-1
0.2948E-1,5.30792E-1
0.81512E-1,5.28259E-1
1.34857E-1,5.25634E-1
1.73889E-1,5.11444E-1
2.02179E-1,4.87503E-1
2.39639E-1,4.53933E-1
2.80609E-1,4.14550E-1
3.25256E-1,3.81103E-1
3.55056E-1,3.44863E-1
3.65921E-1,3.14437E-1
3.79135E-1,2.79449E-1
3.93325E-1,2.28485E-1
4.16015E-1,1.77948E-1
4.30282E-1,1.20437E-1
4.2659E-1,0.75515E-1
4.12323E-1,0.38772E-1
3.89831E-1,-0.04974E-1
3.60488E-1,-0.50247E-1
3.34518E-1,-0.90469E-1
3.09631E-1,-1.16500E-1
2.87109E-1,-1.25976E-1
2.62771E-1,-1.34109E-1
2.31643E-1,-1.49574E-1
2.02285E-1,-1.69189E-1
1.76612E-1,-1.90383E-1
1.52687E-1,-2.01400E-1
1.29997E-1,-1.98104E-1
1.05072E-1,-1.93275E-1
0.68763E-1,-1.85974E-1
0.39772E-1,-1.82342E-1
0.18455E-1,-1.82586E-1
0.09300E-1,-1.72981E-1
0.10101E-1,-1.62475E-1
-0.06225E-1,-1.49154E-1
-0.23323E-1,-1.31034E-1
-0.41465E-1,-1.27212E-1
-5.63583E-2,-1.24954E-1
-5.80749E-2,-1.18743E-1
-5.66101E-2,-1.07662E-1
-5.55076E-2,-8.24585E-2
-5.62057E-2,-6.49871E-2
-6.43348E-2,-5.77697E-2
-6.05316E-2,-5.97038E-2
-4.66232E-2,-7.25097E-2
-3.78341E-2,-7.41119E-2
-2.81257E-2,-6.93931E-2
-3.71208E-2,-6.80007E-2
-5.10406E-2,-7.56607E-2
-6.66008E-2,-9.44328E-2
-7.76062E-2,-1.08196E-1
-7.24258E-2,-1.08596E-1
-7.55386E-2,-1.06372E-1
END
BEGIN
-6.37573E-1,3.33099E-1
-5.50628E-1,3.40698E-1
-5.70892E-1,3.91418E-1
-4.88113E-1,4.92263E-1
-4.26971E-1,5.09185E-1
-3.46618E-1,5.72082E-1
-2.52838E-1,5.27038E-1
-2.79998E-1,5.05889E-1
-2.57385E-1,5.83252E-1
-2.02880E-1,6.04919E-1
-1.46026E-1,6.66687E-1
-0.34759E-1,6.40625E-1
-0.53894E-1,6.17828E-1
-0.00427E-1,7.25921E-1
1.37268E-1,7.07611E-1
1.94915E-1,7.00347E-1
3.18206E-1,6.55426E-1
3.17047E-1,5.70037E-1
3.37432E-1,6.23138E-1
4.66857E-1,5.95764E-1
5.19683E-1,5.47607E-1
6.41021E-1,4.86755E-1
6.50085E-1,3.36395E-1
6.39129E-1,3.20037E-1
7.17498E-1,2.37670E-1
6.8927E-1,1.39984E-1
7.20489E-1,0.86639E-1
6.76910E-1,-0.49682E-1
5.84899E-1,-0.42144E-1
6.19598E-1,-0.30517E-1
6.23260E-1,-0.83709E-1
6.50512E-1,-0.98266E-1
6.81427E-1,-2.13043E-1
6.01379E-1,-2.55798E-1
6.44653E-1,-2.54455E-1
6.78649E-1,-3.82171E-1
6.42425E-1,-4.82238E-1
5.74707E-1,-6.42608E-1
3.69201E-1,-6.61254E-1
3.44604E-1,-5.88226E-1
3.28125E-1,-6.60553E-1
2.34985E-1,-6.68151E-1
2.08953E-1,-6.98608E-1
0.80505E-1,-7.21099E-1
0.52612E-1,-6.43920E-1
0.59082E-1,-7.02758E-1
-0.58166E-1,-7.27844E-1
-0.99853E-1,-7.13470E-1
-2.28485E-1,-7.43469E-1
-3.16864E-1,-6.05560E-1
-2.80029E-1,-5.66009E-1
-3.22021E-1,-5.68817E-1
-3.34869E-1,-5.37719E-1
-3.80676E-1,-5.71441E-1
-4.76715E-1,-5.13793E-1
-4.73754E-1,-4.67147E-1
-5.28595E-1,-4.72473E-1
-5.79223E-1,-4.21600E-1
-6.44622E-1,-4.16900E-1
-7.67028E-1,-2.91961E-1
-7.07611E-1,-1.53869E-1
-6.93176E-1,-1.38916E-1
-6.90216E-1,-0.69702E-1
-6.70074E-1,-0.75256E-1
-7.64526E-1,-0.39428E-1
-7.5354E-1,0.98205E-1
-7.22076E-1,1.15448E-1
-7.67608E-1,1.84753E-1
-7.45208E-1,2.71362E-1
-7.68829E-1,3.62762E-1
-6.78955E-1,5.26641E-1
-5.52673E-1,5.27404E-1
-5.22674E-1,5.58258E-1
-4.29077E-1,5.78643E-1
-4.20227E-1,5.54107E-1
-4.03320E-1,6.20330E-1
-3.38378E-1,6.34185E-1
-3.36242E-1,6.66870E-1
-2.64251E-1,7.3526E-1
-2.14325E-1,7.32940E-1
-1.83837E-1,8.15734E-1
-0.43701E-1,8.63647E-1
0.49774E-1,8.47564E-1
1.72637E-1,8.35144E-1
2.31048E-1,7.35534E-1
2.30011E-1,7.48535E-1
3.43963E-1,7.52166E-1
3.88305E-1,6.72302E-1
4.28619E-1,6.78527E-1
5.12023E-1,6.20208E-1
5.22674E-1,5.95001E-1
6.30859E-1,6.00647E-1
7.26318E-1,4.71099E-1
7.24182E-1,3.86016E-1
7.63031E-1,3.04473E-1
7.33062E-1,2.20336E-1
7.42004E-1,2.00927E-1
7.64556E-1,1.19873E-1
7.32330E-1,0.84106E-1
7.74597E-1,0.57891E-1
7.87017E-1,-0.31402E-1
7.82012E-1,-0.71380E-1
8.22204E-1,-1.50207E-1
7.96600E-1,-2.50396E-1
7.90832E-1,-3.14361E-1
7.61596E-1,-4.46991E-1
6.48529E-1,-5.07843E-1
6.07208E-1,-5.28015E-1
5.50659E-1,-5.86639E-1
4.91973E-1,-6.04736E-1
4.47387E-1,-6.54418E-1
3.60321E-1,-6.70776E-1
3.34716E-1,-6.61224E-1
3.04199E-1,-7.11547E-1
2.34680E-1,-7.44201E-1
1.78894E-1,-7.76916E-1
0.78094E-1,-7.97821E-1
0.06317E-1,-7.67822E-1
-0.48645E-1,-7.69683E-1
-1.28326E-1,-7.40417E-1
-1.55517E-1,-7.11486E-1
-2.09014E-1,-7.17742E-1
-2.69714E-1,-6.79199E-1
-2.98797E-1,-6.60095E-1
-3.52325E-1,-6.39526E-1
-3.82720E-1,-6.09527E-1
-4.26605E-1,-6.12884E-1
-5.02319E-1,-5.87188E-1
-5.59692E-1,-5.40954E-1
-6.18927E-1,-4.79797E-1
-6.32019E-1,-4.05426E-1
-6.49780E-1,-3.82537E-1
-7.05596E-1,-3.32641E-1
-7.24151E-1,-2.6474E-1
-7.51617E-1,-2.14721E-1
-7.60345E-1,-1.37573E-1
-7.52410E-1,-1.04614E-1
-7.98706E-1,-0.61279E-1
-8.17321E-1,0.32928E-1
-8.12927E-1,1.02020E-1
-8.10791E-1,1.88659E-1
-7.66876E-1,2.55920E-1
-7.57904E-1,3.06457E-1
-7.26043E-1,3.93951E-1
-6.73431E-1,4.36615E-1
-6.49017E-1,4.94903E-1
-5.79406E-1,5.46539E-1
-5.4953E-1,5.56030E-1
-5.31494E-1,6.10168E-1
-4.83123E-1,6.59271E-1
-4.47418E-1,7.15454E-1
-3.63220E-1,7.82959E-1
-2.77587E-1,7.87628E-1
-2.31018E-1,8.09417E-1
-1.59271E-1,8.31176E-1
-0.99731E-1,8.47229E-1
-0.07324E-1,8.69415E-1
0.72967E-1,8.36975E-1
1.11999E-1,8.32611E-1
1.86798E-1,8.42041E-1
2.52716E-1,8.27850E-1
3.32580E-1,8.30474E-1
4.30236E-1,7.87902E-1
4.86908E-1,7.36633E-1
5.55358E-1,7.03064E-1
6.15722E-1,6.41540E-1
6.62994E-1,5.93963E-1
7.24151E-1,5.3125E-1
7.57934E-1,4.58892E-1
7.88208E-1,4.03472E-1
8.21746E-1,3.35693E-1
8.44787E-1,2.72979E-1
8.77990E-1,2.06817E-1
8.97918E-1,1.21368E-1
9.03656E-1,0.44586E-1
9.09973E-1,-0.34820E-1
9.01397E-1,-1.18286E-1
8.88458E-1,-1.91711E-1
8.72375E-1,-2.69500E-1
8.46527E-1,-3.48205E-1
8.12622E-1,-4.22271E-1
7.72247E-1,-5.00793E-1
7.12249E-1,-5.64727E-1
6.58844E-1,-6.14318E-1
6.04309E-1,-6.65924E-1
5.43792E-1,-7.09381E-1
4.87762E-1,-7.51922E-1
4.16107E-1,-7.94891E-1
3.45031E-1,-8.14819E-1
2.86651E-1,-8.37524E-1
2.14904E-1,-8.64593E-1
1.47857E-1,-8.78082E-1
0.68908E-1,-9.05792E-1
-0.28137E-1,-8.99292E-1
-0.98907E-1,-8.81103E-1
-1.71020E-1,-8.69476E-1
-2.36633E-1,-8.42681E-1
-2.97363E-1,-8.31451E-1
-3.82659E-1,-8.02887E-1
-4.41894E-1,-7.55462E-1
-4.98016E-1,-7.19818E-1
END
BEGIN
-5.91491E-1,2.76275E-1
-5.91918E-1,3.53942E-1
-4.81399E-1,4.12124E-1
-4.79629E-1,3.68057E-1
-5.22888E-1,4.87274E-1
-4.06921E-1,5.61737E-1
-3.73962E-1,5.93383E-1
-2.57080E-1,6.60553E-1
-1.98486E-1,5.99517E-1
-2.30804E-1,6.65435E-1
-0.93780E-1,7.51190E-1
-0.02502E-1,7.23266E-1
1.07452E-1,7.24792E-1
1.74133E-1,6.27349E-1
1.51855E-1,6.35162E-1
2.68371E-1,6.76361E-1
3.43933E-1,6.02447E-1
4.16564E-1,5.80688E-1
4.75662E-1,4.47906E-1
4.03991E-1,4.07638E-1
4.53231E-1,4.57778E-1
5.30059E-1,3.86108E-1
5.51483E-1,3.58001E-1
6.28753E-1,2.72338E-1
5.73974E-1,1.86340E-1
5.81787E-1,2.22808E-1
6.63543E-1,1.60553E-1
6.67816E-1,0.94421E-1
7.20977E-1,0.06378E-1
6.46606E-1,-1.16821E-1
5.99487E-1,-0.86822E-1
6.58660E-1,-1.20513E-1
6.63482E-1,-1.90765E-1
7.01843E-1,-2.84210E-1
5.92071E-1,-4.37866E-1
4.81674E-1,-3.83102E-1
5.30456E-1,-3.80523E-1
5.27801E-1,-4.67407E-1
5.21362E-1,-5.47027E-1
4.05304E-1,-6.96685E-1
2.36419E-1,-6.25427E-1
2.6828E-1,-5.65643E-1
2.66540E-1,-6.30279E-1
2.38952E-1,-6.78314E-1
1.54571E-1,-8.09539E-1
-0.62194E-1,-7.68646E-1
-0.57159E-1,-6.57714E-1
-0.58502E-1,-6.99279E-1
-1.15661E-1,-7.08007E-1
-1.75933E-1,-7.75482E-1
-3.93890E-1,-7.45300E-1
-4.18853E-1,-5.65826E-1
-3.79974E-1,-5.59265E-1
-4.23858E-1,-5.50262E-1
-4.43389E-1,-5.68237E-1
-6.02600E-1,-5.7724E-1
-6.73278E-1,-3.80004E-1
-6.03118E-1,-3.25592E-1
-6.30127E-1,-3.11889E-1
-6.36077E-1,-2.88604E-1
-7.38861E-1,-3.00750E-1
-8.36090E-1,-1.10137E-1
-7.24182E-1,-0.01617E-1
-7.03552E-1,0.02044E-1
-6.91894E-1,0.40161E-1
-7.30682E-1,0.26855E-1
-8.46313E-1,1.61926E-1
-7.30926E-1,3.33648E-1
-6.60217E-1,3.22021E-1
-6.50268E-1,3.62609E-1
-6.37756E-1,3.78692E-1
-6.98577E-1,4.80224E-1
-5.74554E-1,6.62902E-1
-4.31640E-1,6.34491E-1
-4.05059E-1,6.36352E-1
-3.54431E-1,6.47308E-1
-3.62426E-1,6.78131E-1
-2.81219E-1,7.96783E-1
-1.27929E-1,7.77404E-1
-0.81634E-1,7.38006E-1
-0.37658E-1,7.21374E-1
-0.37414E-1,7.34222E-1
0.39398E-1,8.21655E-1
1.89086E-1,7.81097E-1
2.21893E-1,7.23053E-1
2.85125E-1,6.97662E-1
2.95196E-1,6.43554E-1
3.11798E-1,6.92443E-1
4.50073E-1,7.06451E-1
5.27954E-1,6.14807E-1
5.72265E-1,5.65002E-1
5.95092E-1,4.89807E-1
5.98480E-1,4.87823E-1
7.05902E-1,4.77752E-1
7.90618E-1,3.58001E-1
8.09387E-1,2.52685E-1
7.89764E-1,1.44989E-1
7.40783E-1,1.33544E-1
8.14544E-1,1.26251E-1
8.73535E-1,-0.10437E-1
8.31756E-1,-1.22985E-1
7.93762E-1,-2.14782E-1
7.16033E-1,-2.49694E-1
7.40051E-1,-2.47650E-1
7.67150E-1,-3.60290E-1
6.95312E-1,-4.47723E-1
6.53045E-1,-5.13855E-1
5.44525E-1,-5.73638E-1
5.00518E-1,-5.40435E-1
5.20996E-1,-5.98602E-1
4.49523E-1,-6.90734E-1
3.63739E-1,-7.30102E-1
2.47985E-1,-7.47131E-1
1.87866E-1,-6.78680E-1
2.04925E-1,-6.91284E-1
1.47247E-1,-7.57782E-1
0.57098E-1,-7.76031E-1
-0.4245E-1,-7.74475E-1
-1.14624E-1,-6.98974E-1
-0.96984E-1,-6.71234E-1
-1.25457E-1,-7.14141E-1
-2.06237E-1,-7.27844E-1
-3.01025E-1,-7.13989E-1
-3.84765E-1,-6.30615E-1
-3.71826E-1,-5.66650E-1
-3.84368E-1,-5.82153E-1
-4.45159E-1,-5.79742E-1
-5.19775E-1,-5.57189E-1
-5.98602E-1,-4.73297E-1
-5.78430E-1,-3.77655E-1
-5.63781E-1,-3.77105E-1
-6.13983E-1,-3.74725E-1
-6.77307E-1,-3.36242E-1
-7.36206E-1,-2.57507E-1
-7.23541E-1,-1.61377E-1
-7.01843E-1,-1.34735E-1
-7.29187E-1,-1.05651E-1
-7.55767E-1,-0.53436E-1
-7.91626E-1,0.12237E-1
-7.90802E-1,1.16943E-1
-7.46124E-1,1.70257E-1
-7.41668E-1,2.03216E-1
-7.41119E-1,2.56134E-1
-7.47711E-1,3.21502E-1
-7.30468E-1,4.23797E-1
-6.65924E-1,4.91699E-1
-6.35650E-1,5.29541E-1
-6.06048E-1,5.83892E-1
-5.75897E-1,6.39892E-1
-5.27038E-1,7.30621E-1
-4.12384E-1,7.88024E-1
-3.38806E-1,7.82836E-1
-2.97149E-1,8.12957E-1
-2.40905E-1,8.49121E-1
-1.69067E-1,8.99749E-1
-0.48889E-1,9.24133E-1
0.47149E-1,8.89343E-1
1.08795E-1,8.75274E-1
1.80725E-1,8.67401E-1
2.53143E-1,8.63891E-1
3.52081E-1,8.47473E-1
4.30084E-1,7.84210E-1
4.75585E-1,7.39105E-1
5.27832E-1,7.00012E-1
5.80902E-1,6.65130E-1
6.52557E-1,6.23748E-1
7.11639E-1,5.50262E-1
7.46765E-1,4.83215E-1
7.81738E-1,4.17724E-1
8.06152E-1,3.54278E-1
8.37799E-1,2.95013E-1
8.71276E-1,2.19390E-1
8.82110E-1,1.34429E-1
8.85162E-1,0.57312E-1
8.81286E-1,-0.18096E-1
8.71826E-1,-0.85845E-1
8.71154E-1,-1.52038E-1
8.61694E-1,-2.32757E-1
8.37066E-1,-3.10241E-1
8.03588E-1,-3.86016E-1
7.53173E-1,-4.52850E-1
7.10845E-1,-4.97039E-1
6.81182E-1,-5.56976E-1
6.32080E-1,-6.18774E-1
5.79193E-1,-6.75415E-1
5.04913E-1,-7.26867E-1
4.30297E-1,-7.43103E-1
3.86718E-1,-7.65899E-1
3.25897E-1,-8.03314E-1
2.65991E-1,-8.3078E-1
1.93084E-1,-8.71765E-1
0.95306E-1,-8.76831E-1
0.31066E-1,-8.57299E-1
-0.27191E-1,-8.61999E-1
-0.93414E-1,-8.60870E-1
-1.62597E-1,-8.73077E-1
-2.63427E-1,-8.59130E-1
-3.33557E-1,-8.07128E-1
-3.77716E-1,-7.76458E-1
-4.36645E-1,-7.47528E-1
-4.92187E-1,-7.20825E-1
END
BEGIN
-7.12921E-1,1.68792E-1
-6.90887E-1,2.47741E-1
-6.57196E-1,3.31970E-1
-6.19110E-1,4.07470E-1
-5.62255E-1,4.81231E-1
-4.99054E-1,5.40069E-1
-4.31610E-1,5.95001E-1
-3.65509E-1,6.43341E-1
-2.84942E-1,6.83990E-1
-2.01873E-1,7.07397E-1
-1.22314E-1,7.24884E-1
-0.38421E-1,7.28881E-1
0.43090E-1,7.30712E-1
1.39373E-1,7.14843E-1
2.15057E-1,6.87652E-1
2.91656E-1,6.57714E-1
3.60809E-1,6.14196E-1
4.25567E-1,5.69915E-1
4.94049E-1,5.13763E-1
5.33172E-1,4.45983E-1
5.73669E-1,3.82171E-1
6.05682E-1,3.11035E-1
6.34521E-1,2.37731E-1
6.52557E-1,1.53656E-1
6.58233E-1,0.74371E-1
6.65130E-1,-0.04699E-1
6.53167E-1,-0.82702E-1
6.38092E-1,-1.57226E-1
6.06079E-1,-2.28790E-1
5.80383E-1,-2.93212E-1
5.39581E-1,-3.58734E-1
4.91790E-1,-4.10003E-1
4.50851E-1,-4.51950E-1
3.99139E-1,-4.91806E-1
3.52081E-1,-5.30944E-1
2.78564E-1,-5.59539E-1
2.21588E-1,-5.76599E-1
1.65802E-1,-6.03454E-1
0.91339E-1,-6.25244E-1
0.24383E-1,-6.19964E-1
-0.41626E-1,-6.15936E-1
-1.04126E-1,-6.07177E-1
-1.68365E-1,-5.89691E-1
-2.33093E-1,-5.73516E-1
-2.94281E-1,-5.35247E-1
-3.46405E-1,-5.08636E-1
-3.95019E-1,-4.65560E-1
-4.42382E-1,-4.19067E-1
-4.85778E-1,-3.70025E-1
-5.31890E-1,-3.07830E-1
-5.44433E-1,-2.48413E-1
-5.70648E-1,-1.99859E-1
-5.91461E-1,-1.43859E-1
-6.04187E-1,-0.85571E-1
-6.10809E-1,-0.28411E-1
-6.05957E-1,0.29205E-1
-6.06842E-1,0.86486E-1
-5.91827E-1,1.51672E-1
-5.70648E-1,2.15576E-1
-5.43518E-1,2.73010E-1
-5.14923E-1,3.39508E-1
-4.73068E-1,3.85192E-1
-4.36630E-1,4.31182E-1
-3.90518E-1,4.82681E-1
-3.32153E-1,5.23071E-1
-2.80365E-1,5.54748E-1
-2.23693E-1,5.77148E-1
-1.67694E-1,6.03576E-1
-1.01532E-1,6.11114E-1
-0.31951E-1,6.08825E-1
0.30609E-1,6.01470E-1
1.14166E-1,5.94146E-1
1.78802E-1,5.68084E-1
2.34283E-1,5.49591E-1
3.00506E-1,5.23742E-1
3.58032E-1,4.84695E-1
4.07745E-1,4.36004E-1
4.40063E-1,3.90426E-1
4.83871E-1,3.46389E-1
5.18585E-1,2.92297E-1
5.41137E-1,2.25158E-1
5.45562E-1,1.69158E-1
5.57220E-1,1.15783E-1
5.64880E-1,0.51757E-1
5.64331E-1,-0.08026E-1
5.59204E-1,-0.71807E-1
5.43731E-1,-1.29211E-1
5.30975E-1,-1.83075E-1
5.07049E-1,-2.23236E-1
4.88174E-1,-2.68722E-1
4.54803E-1,-3.10073E-1
4.16320E-1,-3.49441E-1
3.78952E-1,-3.80142E-1
3.38272E-1,-4.18167E-1
2.95394E-1,-4.52682E-1
2.44506E-1,-4.77478E-1
1.98455E-1,-4.95956E-1
1.48101E-1,-5.13519E-1
0.92041E-1,-5.23162E-1
0.57647E-1,-5.27099E-1
0.15686E-1,-5.41992E-1
-0.24444E-1,-5.47241E-1
-0.70007E-1,-5.45166E-1
-1.03546E-1,-5.29693E-1
-1.34735E-1,-5.23162E-1
-1.84448E-1,-5.15930E-1
-2.31231E-1,-4.94384E-1
-2.72430E-1,-4.71084E-1
-3.10089E-1,-4.46762E-1
-3.46344E-1,-4.24194E-1
-3.81424E-1,-3.99795E-1
-4.10720E-1,-3.67050E-1
-4.34875E-1,-3.38302E-1
-4.65271E-1,-3.03237E-1
-4.86923E-1,-2.67440E-1
-5.07751E-1,-2.32513E-1
-5.25909E-1,-1.94274E-1
-5.37780E-1,-1.52526E-1
-5.45806E-1,-1.08642E-1
-5.52917E-1,-0.65887E-1
-5.61889E-1,-0.14617E-1
-5.65063E-1,0.32745E-1
-5.65918E-1,0.77270E-1
-5.65124E-1,1.17065E-1
-5.59143E-1,1.5979E-1
-5.48065E-1,2.04559E-1
-5.26733E-1,2.45636E-1
-5.07476E-1,2.80853E-1
-4.87930E-1,3.20465E-1
-4.56314E-1,3.59283E-1
-4.30023E-1,3.91311E-1
-3.91326E-1,4.30374E-1
-3.52661E-1,4.57748E-1
-3.15582E-1,4.86618E-1
-2.73773E-1,5.14373E-1
-2.33062E-1,5.33111E-1
-1.88262E-1,5.54809E-1
-1.41479E-1,5.62042E-1
-1.04339E-1,5.66192E-1
-0.60577E-1,5.70678E-1
-0.11230E-1,5.64025E-1
0.33111E-1,5.55694E-1
0.85327E-1,5.43090E-1
1.31927E-1,5.26214E-1
1.82281E-1,5.07965E-1
2.26226E-1,4.82833E-1
2.67684E-1,4.56405E-1
3.13171E-1,4.18731E-1
3.46756E-1,3.71582E-1
3.71475E-1,3.29116E-1
3.92349E-1,2.98843E-1
4.17556E-1,2.58865E-1
4.29702E-1,2.17437E-1
4.34265E-1,1.65893E-1
4.29901E-1,1.13357E-1
4.21752E-1,0.65261E-1
4.25140E-1,0.15884E-1
4.17144E-1,-0.34072E-1
4.04586E-1,-0.76873E-1
3.81073E-1,-1.15341E-1
3.54293E-1,-1.41479E-1
3.40026E-1,-1.69204E-1
3.12866E-1,-2.04528E-1
2.84103E-1,-2.24945E-1
2.51480E-1,-2.44751E-1
2.14035E-1,-2.51876E-1
1.78894E-1,-2.55096E-1
1.40121E-1,-2.63107E-1
0.98861E-1,-2.64083E-1
0.60241E-1,-2.67318E-1
0.14587E-1,-2.62313E-1
-0.17913E-1,-2.50106E-1
-0.44982E-1,-2.45941E-1
-0.74066E-1,-2.37953E-1
-1.00181E-1,-2.26791E-1
-1.29959E-1,-2.01499E-1
-1.42707E-1,-1.69952E-1
-1.54014E-1,-1.47254E-1
-1.71180E-1,-1.23474E-1
-1.85890E-1,-0.97549E-1
-1.98982E-1,-0.63331E-1
-1.95022E-1,-0.27862E-1
-1.91108E-1,-0.02105E-1
-1.89437E-1,0.27023E-1
-1.84082E-1,0.52795E-1
-1.78688E-1,0.77316E-1
-1.63673E-1,0.99464E-1
-1.41525E-1,1.08482E-1
-1.19716E-1,1.18255E-1
-0.90904E-1,1.27685E-1
-0.65216E-1,1.36444E-1
-0.41801E-1,1.48231E-1
-0.11611E-1,1.53251E-1
0.07965E-1,1.47621E-1
0.27153E-1,1.43165E-1
0.46814E-1,1.35726E-1
0.62538E-1,1.28639E-1
0.76576E-1,1.26785E-1
8.83903E-2,1.12617E-1
9.63935E-2,1.00460E-1
1.08058E-1,8.02879E-2
END
