CITIFILE A.01.01
#NA VERSION HP8510C.08.10
NAME DATA
#NA REGISTER 4
VAR FREQ MAG 201
DATA S[1,1] RI
DATA S[2,1] RI
DATA S[1,2] RI
DATA S[2,2] RI
SEG_LIST_BEGIN
SEG 8000000000 12000000000 201
SEG_LIST_END
COMMENT       YEAR MONTH DAY HOUR MINUTE SECONDS
CONSTANT TIME 2013   12   09  20    05    31.0
BEGIN
-6.80725E-1,-1.24298E-1
-6.89788E-1,-0.54473E-1
-6.92474E-1,0.25512E-1
-6.88171E-1,1.00524E-1
-6.74926E-1,1.77215E-1
-6.52648E-1,2.46337E-1
-6.23657E-1,3.13415E-1
-5.94421E-1,3.73809E-1
-5.49469E-1,4.40094E-1
-5.00976E-1,4.95178E-1
-4.50866E-1,5.44799E-1
-3.92303E-1,5.86181E-1
-3.37646E-1,6.25793E-1
-2.63641E-1,6.60919E-1
-1.98089E-1,6.82647E-1
-1.28356E-1,7.00866E-1
-0.56091E-1,7.07305E-1
0.09338E-1,7.11364E-1
0.84747E-1,7.11364E-1
1.52038E-1,6.88781E-1
2.21252E-1,6.74163E-1
2.85095E-1,6.4505E-1
3.42376E-1,6.16363E-1
3.98254E-1,5.78796E-1
4.44793E-1,5.36865E-1
4.99435E-1,4.94766E-1
5.44006E-1,4.39910E-1
5.83618E-1,3.862E-1
6.12457E-1,3.24218E-1
6.41143E-1,2.69866E-1
6.62872E-1,2.00866E-1
6.68975E-1,1.30981E-1
6.75659E-1,0.67596E-1
6.70806E-1,0.00762E-1
6.70929E-1,-0.59173E-1
6.46484E-1,-1.26647E-1
6.25885E-1,-1.77368E-1
6.08398E-1,-2.34649E-1
5.80078E-1,-3.00872E-1
5.35003E-1,-3.44146E-1
4.98413E-1,-3.87146E-1
4.60922E-1,-4.27963E-1
4.13803E-1,-4.63394E-1
3.67309E-1,-5.01220E-1
3.07403E-1,-5.23132E-1
2.66204E-1,-5.45501E-1
2.14111E-1,-5.6073E-1
1.62078E-1,-5.74493E-1
1.11633E-1,-5.86822E-1
0.44738E-1,-5.96954E-1
-0.02105E-1,-5.82824E-1
-0.51055E-1,-5.87158E-1
-1.08123E-1,-5.78826E-1
-1.59942E-1,-5.61584E-1
-2.12066E-1,-5.41259E-1
-2.59521E-1,-5.14373E-1
-3.06671E-1,-4.94766E-1
-3.49182E-1,-4.58465E-1
-3.83911E-1,-4.21737E-1
-4.16091E-1,-3.86383E-1
-4.56253E-1,-3.42285E-1
-4.79217E-1,-3.00033E-1
-5.05462E-1,-2.60894E-1
-5.2948E-1,-2.15606E-1
-5.44525E-1,-1.64581E-1
-5.57800E-1,-1.12793E-1
-5.65307E-1,-0.59600E-1
-5.78277E-1,-0.04486E-1
-5.69793E-1,0.47882E-1
-5.59753E-1,0.95764E-1
-5.48645E-1,1.41143E-1
-5.32775E-1,1.99340E-1
-5.09796E-1,2.48046E-1
-4.87045E-1,2.86666E-1
-4.64248E-1,3.26431E-1
-4.33715E-1,3.68209E-1
-3.95370E-1,4.08630E-1
-3.60626E-1,4.44168E-1
-3.18466E-1,4.87915E-1
-2.72491E-1,5.15319E-1
-2.21496E-1,5.39642E-1
-1.69128E-1,5.49774E-1
-1.16973E-1,5.71167E-1
-0.49743E-1,5.83740E-1
0.01068E-1,5.85418E-1
0.54595E-1,5.85388E-1
1.09161E-1,5.71502E-1
1.67358E-1,5.60241E-1
2.28607E-1,5.41564E-1
2.90313E-1,5.15228E-1
3.40271E-1,4.86633E-1
3.87039E-1,4.45724E-1
4.2099E-1,4.02053E-1
4.66705E-1,3.52066E-1
5.02319E-1,2.91473E-1
5.24841E-1,2.34375E-1
5.44006E-1,1.85424E-1
5.60272E-1,1.30920E-1
5.67627E-1,0.59051E-1
5.65124E-1,-0.01709E-1
5.64392E-1,-0.68908E-1
5.55847E-1,-1.30767E-1
5.35369E-1,-1.97326E-1
4.98260E-1,-2.50732E-1
4.61532E-1,-3.03115E-1
4.15344E-1,-3.57116E-1
3.67187E-1,-3.96789E-1
3.23440E-1,-4.27963E-1
2.76916E-1,-4.53125E-1
2.21832E-1,-4.78973E-1
1.60659E-1,-4.96154E-1
1.04339E-1,-5.07476E-1
0.57189E-1,-5.17303E-1
-0.00762E-1,-5.25421E-1
-0.57006E-1,-5.15075E-1
-1.12991E-1,-4.98565E-1
-1.68167E-1,-4.76455E-1
-2.15576E-1,-4.56283E-1
-2.55813E-1,-4.38949E-1
-2.92404E-1,-4.16900E-1
-3.34686E-1,-3.81362E-1
-3.69506E-1,-3.38836E-1
-4.02236E-1,-2.97744E-1
-4.32586E-1,-2.66021E-1
-4.61685E-1,-2.29141E-1
-4.80361E-1,-1.82708E-1
-4.89196E-1,-1.30661E-1
-4.95544E-1,-0.78765E-1
-5.05188E-1,-0.33477E-1
-5.12664E-1,0.09521E-1
-5.12298E-1,0.47393E-1
-5.01709E-1,0.93078E-1
-4.86709E-1,1.38137E-1
-4.71435E-1,1.84860E-1
-4.61761E-1,2.28851E-1
-4.46487E-1,2.66189E-1
-4.22744E-1,3.00186E-1
-3.87939E-1,3.31512E-1
-3.55529E-1,3.63983E-1
-3.24340E-1,4.01763E-1
-2.92221E-1,4.30633E-1
-2.612E-1,4.49005E-1
-2.23815E-1,4.62310E-1
-1.80770E-1,4.78530E-1
-1.26785E-1,4.96551E-1
-0.84289E-1,5.10009E-1
-0.45745E-1,5.20202E-1
-0.09582E-1,5.15045E-1
0.30273E-1,5.05065E-1
0.81314E-1,4.95666E-1
1.29303E-1,4.88922E-1
1.79382E-1,4.81231E-1
2.15393E-1,4.63317E-1
2.43377E-1,4.37744E-1
2.77465E-1,4.03518E-1
3.14498E-1,3.65783E-1
3.52050E-1,3.29162E-1
3.75839E-1,2.91122E-1
3.84689E-1,2.59216E-1
3.96469E-1,2.22915E-1
4.06189E-1,1.74499E-1
4.23461E-1,1.24130E-1
4.28726E-1,0.70144E-1
4.19723E-1,0.29571E-1
4.03274E-1,-0.05386E-1
3.80004E-1,-0.45074E-1
3.51593E-1,-0.85495E-1
3.24295E-1,-1.20971E-1
2.97821E-1,-1.42379E-1
2.74200E-1,-1.50451E-1
2.48275E-1,-1.57562E-1
2.16331E-1,-1.68510E-1
1.87576E-1,-1.82716E-1
1.62010E-1,-1.96106E-1
1.40739E-1,-2.00302E-1
1.21940E-1,-1.94000E-1
1.00959E-1,-1.86050E-1
0.72807E-1,-1.76902E-1
0.49591E-1,-1.73278E-1
0.33615E-1,-1.72378E-1
0.27999E-1,-1.64604E-1
0.29914E-1,-1.56059E-1
0.18981E-1,-1.45507E-1
0.06729E-1,-1.32072E-1
-0.08506E-1,-1.31240E-1
-0.21202E-1,-1.32354E-1
-0.23803E-1,-1.30561E-1
-0.23803E-1,-1.25244E-1
-2.57568E-2,-1.09508E-1
-3.09410E-2,-9.86938E-2
-4.39491E-2,-9.45434E-2
-4.83894E-2,-9.62486E-2
-4.58984E-2,-1.04713E-1
-4.64897E-2,-1.01841E-1
-4.62951E-2,-9.11750E-2
-5.89523E-2,-8.13560E-2
-7.34939E-2,-7.72476E-2
-8.64639E-2,-8.08754E-2
-9.21897E-2,-7.99522E-2
-8.27179E-2,-7.00378E-2
-7.86819E-2,-5.82656E-2
END
BEGIN
-5.58166E-1,3.41308E-1
-4.83413E-1,3.39370E-1
-4.98474E-1,3.89083E-1
-4.1716E-1,4.70962E-1
-3.64395E-1,4.8172E-1
-2.88543E-1,5.32135E-1
-2.11242E-1,4.85107E-1
-2.41378E-1,4.70733E-1
-2.16857E-1,5.42816E-1
-1.68487E-1,5.61828E-1
-1.12182E-1,6.17614E-1
-0.14831E-1,5.87127E-1
-0.37841E-1,5.72876E-1
0.20996E-1,6.74621E-1
1.46606E-1,6.50604E-1
1.99249E-1,6.45446E-1
3.12744E-1,5.97320E-1
3.03619E-1,5.22979E-1
3.28643E-1,5.78155E-1
4.52667E-1,5.47180E-1
5.01800E-1,5.02136E-1
6.17981E-1,4.38079E-1
6.16973E-1,2.97149E-1
6.08978E-1,2.86804E-1
6.83075E-1,2.03613E-1
6.52252E-1,1.14624E-1
6.84112E-1,0.62133E-1
6.35650E-1,-0.66253E-1
5.51147E-1,-0.52124E-1
5.89752E-1,-0.43548E-1
5.92590E-1,-0.96649E-1
6.21826E-1,-1.13555E-1
6.45690E-1,-2.29370E-1
5.67840E-1,-2.66387E-1
6.11846E-1,-2.71362E-1
6.33361E-1,-4.00482E-1
5.91033E-1,-4.94049E-1
5.12786E-1,-6.41876E-1
3.18450E-1,-6.42364E-1
3.02490E-1,-5.75561E-1
2.80609E-1,-6.44073E-1
1.92962E-1,-6.46667E-1
1.64611E-1,-6.75811E-1
0.42297E-1,-6.88964E-1
0.20507E-1,-6.18530E-1
0.18798E-1,-6.75354E-1
-0.94512E-1,-6.90795E-1
-1.34613E-1,-6.75811E-1
-2.59063E-1,-6.92718E-1
-3.33984E-1,-5.60058E-1
-3.00109E-1,-5.26763E-1
-3.42742E-1,-5.23803E-1
-3.55102E-1,-4.92645E-1
-4.03900E-1,-5.18096E-1
-4.87991E-1,-4.52728E-1
-4.81613E-1,-4.07989E-1
-5.34271E-1,-4.04907E-1
-5.7547E-1,-3.50830E-1
-6.35040E-1,-3.38623E-1
-7.30438E-1,-2.09045E-1
-6.60186E-1,-0.94238E-1
-6.47705E-1,-0.83160E-1
-6.38855E-1,-0.20843E-1
-6.23077E-1,-0.29235E-1
-7.06817E-1,0.14282E-1
-6.80267E-1,1.36138E-1
-6.53167E-1,1.44866E-1
-6.90643E-1,2.12493E-1
-6.63848E-1,2.86560E-1
-6.80938E-1,3.69934E-1
-5.87066E-1,5.08087E-1
-4.79766E-1,4.95727E-1
-4.57977E-1,5.23315E-1
-3.75640E-1,5.37200E-1
-3.73870E-1,5.17028E-1
-3.59008E-1,5.81359E-1
-3.00842E-1,5.93383E-1
-3.01574E-1,6.28051E-1
-2.31384E-1,6.93389E-1
-1.86492E-1,6.92749E-1
-1.55334E-1,7.74993E-1
-0.15930E-1,8.18054E-1
0.73761E-1,7.9953E-1
1.92169E-1,7.83264E-1
2.40234E-1,6.85394E-1
2.38983E-1,7.01751E-1
3.51348E-1,7.02362E-1
3.90472E-1,6.24511E-1
4.30053E-1,6.31591E-1
5.09124E-1,5.72052E-1
5.18951E-1,5.49713E-1
6.27319E-1,5.49224E-1
7.13836E-1,4.18518E-1
7.08557E-1,3.37005E-1
7.42157E-1,2.57690E-1
7.10510E-1,1.77032E-1
7.19848E-1,1.56829E-1
7.37609E-1,0.76782E-1
7.05596E-1,0.42053E-1
7.43591E-1,0.12420E-1
7.49816E-1,-0.74096E-1
7.42767E-1,-1.14959E-1
7.75787E-1,-1.92413E-1
7.44476E-1,-2.89245E-1
7.31750E-1,-3.52905E-1
6.92260E-1,-4.75280E-1
5.79071E-1,-5.25970E-1
5.35858E-1,-5.41839E-1
4.76989E-1,-5.90972E-1
4.18792E-1,-6.03485E-1
3.71612E-1,-6.44226E-1
2.87567E-1,-6.51794E-1
2.62451E-1,-6.40869E-1
2.29980E-1,-6.82251E-1
1.64001E-1,-7.05139E-1
1.08459E-1,-7.27905E-1
0.17242E-1,-7.37426E-1
-0.46264E-1,-7.03887E-1
-0.94329E-1,-6.99768E-1
-1.61560E-1,-6.66717E-1
-1.83105E-1,-6.3974E-1
-2.30773E-1,-6.40258E-1
-2.79998E-1,-6.03088E-1
-3.04687E-1,-5.85632E-1
-3.50860E-1,-5.65063E-1
-3.76586E-1,-5.37933E-1
-4.16351E-1,-5.39520E-1
-4.82666E-1,-5.12512E-1
-5.32653E-1,-4.68902E-1
-5.81054E-1,-4.12658E-1
-5.89965E-1,-3.47412E-1
-6.07025E-1,-3.28552E-1
-6.54815E-1,-2.80792E-1
-6.70135E-1,-2.21862E-1
-6.94976E-1,-1.76025E-1
-7.01568E-1,-1.07696E-1
-6.97876E-1,-0.78643E-1
-7.40997E-1,-0.34423E-1
-7.55157E-1,0.51574E-1
-7.50854E-1,1.16638E-1
-7.45239E-1,1.97265E-1
-7.04559E-1,2.55737E-1
-6.96868E-1,3.04809E-1
-6.63299E-1,3.83209E-1
-6.18225E-1,4.20776E-1
-5.93627E-1,4.77294E-1
-5.30975E-1,5.20904E-1
-5.06103E-1,5.33325E-1
-4.8703E-1,5.88134E-1
-4.40063E-1,6.34887E-1
-4.03686E-1,6.90734E-1
-3.18420E-1,7.50885E-1
-2.38494E-1,7.53173E-1
-1.91589E-1,7.73193E-1
-1.22253E-1,7.90466E-1
-0.63537E-1,8.06304E-1
0.26092E-1,8.21899E-1
0.98907E-1,7.88879E-1
1.40197E-1,7.84454E-1
2.13073E-1,7.86804E-1
2.74932E-1,7.70080E-1
3.52874E-1,7.64526E-1
4.38629E-1,7.17041E-1
4.88189E-1,6.66473E-1
5.47912E-1,6.28356E-1
5.98877E-1,5.69854E-1
6.39556E-1,5.22491E-1
6.88598E-1,4.62860E-1
7.15484E-1,3.97735E-1
7.42340E-1,3.46252E-1
7.69622E-1,2.84668E-1
7.87933E-1,2.27966E-1
8.16101E-1,1.66656E-1
8.33129E-1,0.93231E-1
8.39355E-1,0.22552E-1
8.45001E-1,-0.49804E-1
8.38531E-1,-1.25854E-1
8.26232E-1,-1.94458E-1
8.125E-1,-2.65808E-1
7.89367E-1,-3.39996E-1
7.58728E-1,-4.09820E-1
7.22778E-1,-4.84039E-1
6.65863E-1,-5.47302E-1
6.14502E-1,-5.95733E-1
5.63507E-1,-6.47369E-1
5.04028E-1,-6.90918E-1
4.47662E-1,-7.32513E-1
3.75335E-1,-7.75878E-1
3.02459E-1,-7.94403E-1
2.41455E-1,-8.14788E-1
1.66656E-1,-8.36975E-1
0.98327E-1,-8.45916E-1
0.16601E-1,-8.64044E-1
-0.76202E-1,-8.46862E-1
-1.42272E-1,-8.21411E-1
-2.09686E-1,-8.01055E-1
-2.66540E-1,-7.67700E-1
-3.20251E-1,-7.50701E-1
-3.92242E-1,-7.13989E-1
-4.39453E-1,-6.64215E-1
-4.81018E-1,-6.28479E-1
END
BEGIN
-5.26336E-1,2.84881E-1
-5.21087E-1,3.54461E-1
-4.19677E-1,3.97293E-1
-4.24163E-1,3.59756E-1
-4.52636E-1,4.71054E-1
-3.45459E-1,5.28106E-1
-3.15979E-1,5.55969E-1
-2.09472E-1,6.08154E-1
-1.64703E-1,5.53253E-1
-1.88385E-1,6.19812E-1
-0.59539E-1,6.88385E-1
0.19439E-1,6.60827E-1
1.18866E-1,6.57928E-1
1.71081E-1,5.70587E-1
1.52832E-1,5.84045E-1
2.64160E-1,6.16882E-1
3.29711E-1,5.48797E-1
3.97125E-1,5.26794E-1
4.44946E-1,4.05059E-1
3.79653E-1,3.75732E-1
4.31366E-1,4.23141E-1
5.02655E-1,3.52905E-1
5.24444E-1,3.27941E-1
5.96527E-1,2.43438E-1
5.42114E-1,1.67388E-1
5.55450E-1,2.02850E-1
6.34246E-1,1.39495E-1
6.37878E-1,0.75897E-1
6.87530E-1,-0.12481E-1
6.11694E-1,-1.27044E-1
5.70404E-1,-0.96313E-1
6.28845E-1,-1.34094E-1
6.31042E-1,-2.03735E-1
6.63360E-1,-2.98065E-1
5.48584E-1,-4.41101E-1
4.45312E-1,-3.83316E-1
4.9263E-1,-3.83590E-1
4.85168E-1,-4.67025E-1
4.75555E-1,-5.43823E-1
3.56811E-1,-6.80999E-1
1.98944E-1,-6.06079E-1
2.31506E-1,-5.51757E-1
2.26470E-1,-6.12823E-1
1.96594E-1,-6.57806E-1
1.10992E-1,-7.77893E-1
-0.92956E-1,-7.31475E-1
-0.86975E-1,-6.27044E-1
-0.91125E-1,-6.64123E-1
-1.47796E-1,-6.69036E-1
-2.08099E-1,-7.28302E-1
-4.13543E-1,-6.91650E-1
-4.33166E-1,-5.19104E-1
-3.98803E-1,-5.10009E-1
-4.39666E-1,-4.95224E-1
-4.58740E-1,-5.06591E-1
-6.05896E-1,-5.01709E-1
-6.58660E-1,-3.12103E-1
-5.87921E-1,-2.63275E-1
-6.09130E-1,-2.47283E-1
-6.10931E-1,-2.24945E-1
-7.03521E-1,-2.27081E-1
-7.74871E-1,-0.49255E-1
-6.67083E-1,0.40618E-1
-6.47125E-1,0.43487E-1
-6.33209E-1,0.76293E-1
-6.68914E-1,0.67932E-1
-7.57324E-1,1.97692E-1
-6.43341E-1,3.34259E-1
-5.86639E-1,3.17962E-1
-5.77819E-1,3.53363E-1
-5.70648E-1,3.67462E-1
-6.18560E-1,4.65271E-1
-4.97680E-1,6.13769E-1
-3.84368E-1,5.82305E-1
-3.64288E-1,5.90972E-1
-3.21533E-1,6.04156E-1
-3.26049E-1,6.41082E-1
-2.42095E-1,7.45147E-1
-1.09649E-1,7.21008E-1
-0.70129E-1,6.90826E-1
-0.28839E-1,6.81060E-1
-0.23162E-1,6.99340E-1
0.59356E-1,7.76916E-1
1.94763E-1,7.29644E-1
2.22351E-1,6.79687E-1
2.83386E-1,6.55426E-1
2.92083E-1,6.09344E-1
3.17443E-1,6.58783E-1
4.54345E-1,6.61651E-1
5.22430E-1,5.69610E-1
5.64361E-1,5.21881E-1
5.83038E-1,4.50531E-1
5.90637E-1,4.51477E-1
6.99188E-1,4.33532E-1
7.74658E-1,3.10546E-1
7.86590E-1,2.0755E-1
7.60253E-1,1.04980E-1
7.15881E-1,0.98846E-1
7.92205E-1,0.86608E-1
8.40484E-1,-0.55297E-1
7.89794E-1,-1.62231E-1
7.47131E-1,-2.47924E-1
6.70715E-1,-2.75604E-1
6.96075E-1,-2.77496E-1
7.13653E-1,-3.92211E-1
6.34124E-1,-4.71923E-1
5.86883E-1,-5.31524E-1
4.75128E-1,-5.79071E-1
4.35424E-1,-5.41412E-1
4.51202E-1,-5.98327E-1
3.74908E-1,-6.79107E-1
2.89459E-1,-7.07489E-1
1.79321E-1,-7.11547E-1
1.30035E-1,-6.41601E-1
1.45843E-1,-6.53808E-1
0.87585E-1,-7.09320E-1
0.04119E-1,-7.17254E-1
-0.85205E-1,-7.07061E-1
-1.43524E-1,-6.33331E-1
-1.24847E-1,-6.09039E-1
-1.52496E-1,-6.44775E-1
-2.24975E-1,-6.51855E-1
-3.06884E-1,-6.32995E-1
-3.74389E-1,-5.57556E-1
-3.61724E-1,-5.03692E-1
-3.73779E-1,-5.16449E-1
-4.27276E-1,-5.10833E-1
-4.91775E-1,-4.87442E-1
-5.55694E-1,-4.13024E-1
-5.38635E-1,-3.33404E-1
-5.29510E-1,-3.32183E-1
-5.74340E-1,-3.26507E-1
-6.28387E-1,-2.89917E-1
-6.77337E-1,-2.19482E-1
-6.66961E-1,-1.38610E-1
-6.53228E-1,-1.13464E-1
-6.78131E-1,-0.83648E-1
-7.02362E-1,-0.35339E-1
-7.33367E-1,0.26794E-1
-7.30773E-1,1.19598E-1
-6.94915E-1,1.67236E-1
-6.92779E-1,2.01690E-1
-6.92260E-1,2.53295E-1
-6.97143E-1,3.16955E-1
-6.75781E-1,4.11377E-1
-6.18499E-1,4.70642E-1
-5.91064E-1,5.09674E-1
-5.61676E-1,5.64300E-1
-5.31585E-1,6.21215E-1
-4.77508E-1,7.06085E-1
-3.68469E-1,7.51495E-1
-3.03039E-1,7.48657E-1
-2.59979E-1,7.7948E-1
-2.03277E-1,8.13751E-1
-1.28265E-1,8.61022E-1
-0.10925E-1,8.74176E-1
0.74737E-1,8.35907E-1
1.33178E-1,8.22082E-1
2.01049E-1,8.10394E-1
2.70874E-1,8.03436E-1
3.64959E-1,7.79663E-1
4.31610E-1,7.14080E-1
4.71252E-1,6.71234E-1
5.18249E-1,6.30188E-1
5.62774E-1,5.95214E-1
6.25885E-1,5.53375E-1
6.7453E-1,4.83093E-1
7.01355E-1,4.21051E-1
7.28637E-1,3.61633E-1
7.45971E-1,3.07251E-1
7.74108E-1,2.57049E-1
8.04962E-1,1.89788E-1
8.15185E-1,1.15051E-1
8.20373E-1,0.4599E-1
8.17840E-1,-0.22033E-1
8.12316E-1,-0.81939E-1
8.15673E-1,-1.44989E-1
8.08685E-1,-2.21069E-1
7.88055E-1,-2.9599E-1
7.57904E-1,-3.68286E-1
7.12127E-1,-4.31488E-1
6.74194E-1,-4.77935E-1
6.45202E-1,-5.36682E-1
5.98266E-1,-5.98602E-1
5.45776E-1,-6.55792E-1
4.72625E-1,-7.06573E-1
3.98925E-1,-7.22595E-1
3.52691E-1,-7.46917E-1
2.90313E-1,-7.80456E-1
2.27874E-1,-8.05633E-1
1.52313E-1,-8.39904E-1
0.57098E-1,-8.38562E-1
-0.05432E-1,-8.15979E-1
-0.63812E-1,-8.14056E-1
-1.26251E-1,-8.06366E-1
-1.91497E-1,-8.08563E-1
-2.81982E-1,-7.88574E-1
-3.43658E-1,-7.34832E-1
-3.83300E-1,-7.00561E-1
-4.30694E-1,-6.67877E-1
-4.76409E-1,-6.39007E-1
END
BEGIN
-6.86615E-1,2.14386E-1
-6.60827E-1,2.92327E-1
-6.24145E-1,3.72894E-1
-5.82305E-1,4.45770E-1
-5.23223E-1,5.15167E-1
-4.58465E-1,5.71502E-1
-3.88824E-1,6.23199E-1
-3.20922E-1,6.68823E-1
-2.39013E-1,7.04620E-1
-1.55151E-1,7.24578E-1
-0.72113E-1,7.388E-1
0.14709E-1,7.39837E-1
0.99853E-1,7.37213E-1
1.95861E-1,7.16491E-1
2.71087E-1,6.85882E-1
3.47168E-1,6.51458E-1
4.15283E-1,6.03851E-1
4.79736E-1,5.54138E-1
5.45043E-1,4.93072E-1
5.82611E-1,4.21844E-1
6.20025E-1,3.54248E-1
6.48254E-1,2.80365E-1
6.73004E-1,2.02789E-1
6.85363E-1,1.17004E-1
6.86737E-1,0.36499E-1
6.86828E-1,-0.44006E-1
6.70654E-1,-1.19995E-1
6.49719E-1,-1.93115E-1
6.12121E-1,-2.62298E-1
5.8078E-1,-3.25439E-1
5.34820E-1,-3.87573E-1
4.83078E-1,-4.34509E-1
4.37454E-1,-4.74472E-1
3.81134E-1,-5.11474E-1
3.28460E-1,-5.48004E-1
2.52288E-1,-5.70434E-1
1.92596E-1,-5.84350E-1
1.34918E-1,-6.05438E-1
0.61523E-1,-6.19293E-1
-0.01617E-1,-6.09344E-1
-0.64544E-1,-6.00433E-1
-1.23657E-1,-5.87890E-1
-1.8396E-1,-5.67627E-1
-2.44110E-1,-5.47393E-1
-3.00598E-1,-5.08178E-1
-3.49868E-1,-4.79217E-1
-3.95233E-1,-4.35379E-1
-4.39498E-1,-3.89999E-1
-4.80728E-1,-3.43460E-1
-5.22766E-1,-2.82897E-1
-5.36377E-1,-2.27813E-1
-5.63934E-1,-1.78405E-1
-5.85205E-1,-1.19506E-1
-5.97168E-1,-0.59387E-1
-6.02325E-1,-0.00457E-1
-5.94940E-1,0.59082E-1
-5.91888E-1,1.20758E-1
-5.73272E-1,1.86401E-1
-5.49285E-1,2.50946E-1
-5.21392E-1,3.07495E-1
-4.89639E-1,3.72070E-1
-4.48684E-1,4.16824E-1
-4.10263E-1,4.64538E-1
-3.57849E-1,5.16754E-1
-2.95776E-1,5.54443E-1
-2.38739E-1,5.84564E-1
-1.77581E-1,6.03820E-1
-1.15753E-1,6.24847E-1
-0.47241E-1,6.27227E-1
0.22918E-1,6.20727E-1
0.84838E-1,6.11175E-1
1.62963E-1,5.98785E-1
2.23205E-1,5.72418E-1
2.78198E-1,5.53222E-1
3.42254E-1,5.25482E-1
3.98391E-1,4.86068E-1
4.47006E-1,4.36584E-1
4.80407E-1,3.89282E-1
5.23956E-1,3.4021E-1
5.58807E-1,2.82226E-1
5.80444E-1,2.12066E-1
5.84991E-1,1.52069E-1
5.95764E-1,0.94451E-1
6.00402E-1,0.27404E-1
5.97625E-1,-0.34210E-1
5.87829E-1,-1.00250E-1
5.69274E-1,-1.57226E-1
5.50781E-1,-2.12005E-1
5.22369E-1,-2.51464E-1
4.97711E-1,-2.96981E-1
4.60266E-1,-3.36227E-1
4.17968E-1,-3.73092E-1
3.77746E-1,-4.01535E-1
3.34899E-1,-4.35974E-1
2.90267E-1,-4.65713E-1
2.39959E-1,-4.86022E-1
1.94488E-1,-5.01739E-1
1.44592E-1,-5.15472E-1
0.91003E-1,-5.20782E-1
0.57983E-1,-5.21545E-1
0.18676E-1,-5.32226E-1
-0.20843E-1,-5.36895E-1
-0.6604E-1,-5.34149E-1
-1.00677E-1,-5.19866E-1
-1.35345E-1,-5.12146E-1
-1.84249E-1,-4.99969E-1
-2.27951E-1,-4.76806E-1
-2.66876E-1,-4.53643E-1
-3.02749E-1,-4.30267E-1
-3.38104E-1,-4.08752E-1
-3.71933E-1,-3.84399E-1
-3.99581E-1,-3.52447E-1
-4.23690E-1,-3.24356E-1
-4.52789E-1,-2.89001E-1
-4.73938E-1,-2.53356E-1
-4.94567E-1,-2.17208E-1
-5.12176E-1,-1.78436E-1
-5.23895E-1,-1.36261E-1
-5.31982E-1,-0.92071E-1
-5.39672E-1,-0.49408E-1
-5.47149E-1,0.01159E-1
-5.49224E-1,0.48553E-1
-5.48431E-1,0.93261E-1
-5.46600E-1,1.34277E-1
-5.39184E-1,1.77368E-1
-5.26153E-1,2.21893E-1
-5.04394E-1,2.62786E-1
-4.83902E-1,2.99774E-1
-4.60586E-1,3.39096E-1
-4.27764E-1,3.77639E-1
-3.98284E-1,4.10400E-1
-3.57284E-1,4.47952E-1
-3.17367E-1,4.75921E-1
-2.76916E-1,5.03814E-1
-2.32727E-1,5.28900E-1
-1.89025E-1,5.46356E-1
-1.41662E-1,5.64544E-1
-0.92742E-1,5.69885E-1
-0.52093E-1,5.72570E-1
-0.04638E-1,5.72723E-1
0.46020E-1,5.62164E-1
0.92529E-1,5.50384E-1
1.45690E-1,5.31921E-1
1.92657E-1,5.11016E-1
2.41058E-1,4.86480E-1
2.82424E-1,4.55810E-1
3.21197E-1,4.23797E-1
3.60519E-1,3.80233E-1
3.88107E-1,3.29864E-1
4.06875E-1,2.84194E-1
4.22103E-1,2.49435E-1
4.39651E-1,2.05932E-1
4.45129E-1,1.62109E-1
4.41955E-1,1.11007E-1
4.31076E-1,0.60867E-1
4.16091E-1,0.14419E-1
4.10690E-1,-0.31295E-1
3.9505E-1,-0.76278E-1
3.76159E-1,-1.13876E-1
3.48114E-1,-1.44958E-1
3.17764E-1,-1.64520E-1
2.97943E-1,-1.86538E-1
2.65701E-1,-2.12081E-1
2.33871E-1,-2.24136E-1
1.99371E-1,-2.34085E-1
1.64253E-1,-2.32666E-1
1.32675E-1,-2.28622E-1
0.98762E-1,-2.2686E-1
0.65803E-1,-2.19474E-1
0.36369E-1,-2.14042E-1
0.05455E-1,-2.03041E-1
-0.14793E-1,-1.90063E-1
-0.30754E-1,-1.84036E-1
-0.47454E-1,-1.76490E-1
-0.62553E-1,-1.67358E-1
-0.79711E-1,-1.49284E-1
-0.87051E-1,-1.27433E-1
-9.48867E-2,-1.12743E-1
-1.07715E-1,-9.79080E-2
-1.20437E-1,-8.16841E-2
-1.32598E-1,-0.58853E-1
-1.32835E-1,-0.33561E-1
-1.33308E-1,-0.14961E-1
-1.35894E-1,0.07453E-1
-1.36962E-1,0.27923E-1
-1.37283E-1,0.48660E-1
-1.29760E-1,0.68641E-1
-1.15589E-1,8.04138E-2
-1.00181E-1,9.40589E-2
-7.87696E-2,1.08848E-1
-5.78537E-2,1.24824E-1
-0.35987E-1,1.42791E-1
-0.07659E-1,1.52618E-1
0.13023E-1,1.54380E-1
0.35621E-1,1.56532E-1
0.60646E-1,1.54289E-1
0.83625E-1,1.49299E-1
1.04888E-1,1.45896E-1
1.23672E-1,1.31622E-1
1.42211E-1,1.16294E-1
1.63291E-1,0.91651E-1
END
