CITIFILE A.01.01
#NA VERSION HP8510C.08.10
NAME DATA
#NA REGISTER 4
VAR FREQ MAG 201
DATA S[1,1] RI
DATA S[2,1] RI
DATA S[1,2] RI
DATA S[2,2] RI
SEG_LIST_BEGIN
SEG 8000000000 12000000000 201
SEG_LIST_END
COMMENT       YEAR MONTH DAY HOUR MINUTE SECONDS
CONSTANT TIME 2013   12   09  20    09    37.0
BEGIN
-6.13311E-1,-2.66479E-1
-6.37207E-1,-2.03796E-1
-6.57287E-1,-1.30096E-1
-6.69097E-1,-0.63171E-1
-6.75781E-1,0.13305E-1
-6.6922E-1,0.84045E-1
-6.56951E-1,1.52832E-1
-6.41784E-1,2.13287E-1
-6.18316E-1,2.87017E-1
-5.82489E-1,3.49517E-1
-5.46386E-1,4.07012E-1
-4.98504E-1,4.59121E-1
-4.54834E-1,5.04974E-1
-3.95690E-1,5.58654E-1
-3.35388E-1,5.91064E-1
-2.75604E-1,6.23077E-1
-2.06268E-1,6.43554E-1
-1.46331E-1,6.57348E-1
-0.77179E-1,6.77429E-1
-0.04394E-1,6.68335E-1
0.61096E-1,6.66900E-1
1.29638E-1,6.51397E-1
1.88690E-1,6.33880E-1
2.48992E-1,6.09802E-1
3.02063E-1,5.76019E-1
3.58276E-1,5.47241E-1
4.10980E-1,5.02868E-1
4.56298E-1,4.59365E-1
4.95819E-1,4.05090E-1
5.27679E-1,3.6203E-1
5.62896E-1,3.04229E-1
5.84411E-1,2.38342E-1
5.99243E-1,1.80908E-1
6.0849E-1,1.16577E-1
6.16607E-1,0.65429E-1
6.12548E-1,-0.06134E-1
5.98297E-1,-0.58319E-1
5.90271E-1,-1.09314E-1
5.83313E-1,-1.73431E-1
5.48522E-1,-2.27294E-1
5.23529E-1,-2.74658E-1
4.97009E-1,-3.15795E-1
4.61425E-1,-3.61190E-1
4.27520E-1,-4.05273E-1
3.72421E-1,-4.46304E-1
3.37661E-1,-4.71115E-1
2.88864E-1,-4.97589E-1
2.43347E-1,-5.19287E-1
1.99523E-1,-5.37475E-1
1.42913E-1,-5.65673E-1
0.86914E-1,-5.58715E-1
0.4776E-1,-5.70922E-1
-0.06408E-1,-5.78613E-1
-0.61065E-1,-5.73425E-1
-1.15661E-1,-5.63293E-1
-1.66961E-1,-5.43640E-1
-2.09655E-1,-5.36590E-1
-2.59674E-1,-5.13824E-1
-3.00918E-1,-4.85824E-1
-3.34732E-1,-4.57519E-1
-3.82186E-1,-4.31762E-1
-4.16381E-1,-3.93112E-1
-4.49432E-1,-3.63052E-1
-4.83093E-1,-3.28887E-1
-5.12268E-1,-2.81799E-1
-5.31799E-1,-2.33551E-1
-5.48187E-1,-1.84814E-1
-5.74859E-1,-1.42059E-1
-5.82366E-1,-0.87738E-1
-5.84564E-1,-0.40283E-1
-5.80932E-1,0.03875E-1
-5.87616E-1,0.59478E-1
-5.78949E-1,1.16607E-1
-5.63720E-1,1.62811E-1
-5.52551E-1,2.05169E-1
-5.34332E-1,2.52166E-1
-5.08056E-1,3.01330E-1
-4.77203E-1,3.43689E-1
-4.51583E-1,3.94897E-1
-4.12475E-1,4.36004E-1
-3.67553E-1,4.72091E-1
-3.14910E-1,4.91607E-1
-2.71209E-1,5.17608E-1
-2.10449E-1,5.46966E-1
-1.59088E-1,5.53649E-1
-1.15631E-1,5.59387E-1
-0.68512E-1,5.58075E-1
-0.25482E-1,5.62316E-1
0.30426E-1,5.68145E-1
0.95336E-1,5.71441E-1
1.55181E-1,5.63537E-1
2.16247E-1,5.44128E-1
2.64038E-1,5.07049E-1
3.20617E-1,4.72930E-1
3.74694E-1,4.23385E-1
4.12628E-1,3.68454E-1
4.35012E-1,3.23471E-1
4.54467E-1,2.80761E-1
4.76486E-1,2.30987E-1
4.93850E-1,1.80191E-1
5.19409E-1,1.23657E-1
5.35644E-1,0.62133E-1
5.41381E-1,-0.08453E-1
5.18951E-1,-0.70159E-1
4.96337E-1,-1.21673E-1
4.77310E-1,-1.76986E-1
4.53399E-1,-2.29110E-1
4.28787E-1,-2.74612E-1
3.99322E-1,-3.13629E-1
3.65631E-1,-3.57849E-1
3.18969E-1,-4.00192E-1
2.68554E-1,-4.37606E-1
2.25402E-1,-4.65026E-1
1.80755E-1,-4.99054E-1
1.23413E-1,-5.16998E-1
0.61584E-1,-5.26794E-1
-0.03356E-1,-5.29388E-1
-0.63140E-1,-5.27648E-1
-1.11633E-1,-5.25543E-1
-1.54785E-1,-5.19928E-1
-2.09747E-1,-5.10833E-1
-2.65472E-1,-4.83520E-1
-3.19427E-1,-4.52789E-1
-3.63449E-1,-4.30908E-1
-4.11026E-1,-4.09439E-1
-4.55688E-1,-3.73092E-1
-4.93850E-1,-3.24462E-1
-5.24169E-1,-2.66204E-1
-5.51849E-1,-2.17346E-1
-5.81024E-1,-1.72149E-1
-5.97045E-1,-1.29028E-1
-6.10900E-1,-0.77270E-1
-6.11267E-1,-0.18768E-1
-6.10900E-1,0.41961E-1
-6.16607E-1,0.96710E-1
-6.16455E-1,1.47064E-1
-6.07971E-1,1.95739E-1
-5.85052E-1,2.48107E-1
-5.54595E-1,2.98980E-1
-5.3125E-1,3.49884E-1
-5.06134E-1,4.00543E-1
-4.77951E-1,4.36447E-1
-4.43542E-1,4.67849E-1
-4.01931E-1,4.98275E-1
-3.50921E-1,5.37994E-1
-3.04840E-1,5.72479E-1
-2.64251E-1,6.00524E-1
-2.22137E-1,6.18621E-1
-1.71417E-1,6.27838E-1
-1.09985E-1,6.35498E-1
-0.53253E-1,6.41052E-1
0.03753E-1,6.56372E-1
0.54107E-1,6.57287E-1
0.98968E-1,6.47460E-1
1.52740E-1,6.28601E-1
2.10632E-1,6.01348E-1
2.68066E-1,5.84716E-1
3.27209E-1,5.58807E-1
3.64379E-1,5.26428E-1
3.98483E-1,4.93621E-1
4.34982E-1,4.43908E-1
4.74212E-1,4.00863E-1
5.22979E-1,3.50982E-1
5.54718E-1,2.94769E-1
5.70129E-1,2.43621E-1
5.79803E-1,1.85363E-1
5.82855E-1,1.15356E-1
5.87219E-1,0.45715E-1
5.79895E-1,-0.25970E-1
5.58898E-1,-0.72570E-1
5.38085E-1,-1.15692E-1
5.05157E-1,-1.62902E-1
4.77356E-1,-2.07260E-1
4.49829E-1,-2.63626E-1
4.16915E-1,-3.06884E-1
3.82202E-1,-3.40866E-1
3.38256E-1,-3.64349E-1
2.85858E-1,-3.85772E-1
2.32269E-1,-4.14230E-1
1.77963E-1,-4.3573E-1
1.33422E-1,-4.45220E-1
0.93261E-1,-4.41619E-1
0.52795E-1,-4.33212E-1
0.03982E-1,-4.27368E-1
-0.48111E-1,-4.23385E-1
-0.95001E-1,-4.18640E-1
-1.34918E-1,-4.07638E-1
-1.64367E-1,-3.83453E-1
-1.97006E-1,-3.53241E-1
-2.35092E-1,-3.17245E-1
-2.69088E-1,-2.86422E-1
-2.95074E-1,-2.59017E-1
-3.01727E-1,-2.28683E-1
-3.01269E-1,-2.03628E-1
-3.09433E-1,-1.70944E-1
-3.25119E-1,-1.34521E-1
-3.38897E-1,-1.03439E-1
-3.46893E-1,-0.89141E-1
-3.44909E-1,-0.75271E-1
-3.42727E-1,-0.53558E-1
-3.40988E-1,-0.12878E-1
END
BEGIN
-7.48291E-1,2.00408E-1
-6.58081E-1,2.42889E-1
-6.80603E-1,2.82653E-1
-6.30004E-1,4.03839E-1
-5.66894E-1,4.42291E-1
-5.03845E-1,5.26641E-1
-3.88458E-1,5.16937E-1
-3.92395E-1,4.83367E-1
-3.89160E-1,5.54473E-1
-3.37097E-1,5.88287E-1
-2.98309E-1,6.56372E-1
-1.77612E-1,6.67083E-1
-1.76086E-1,6.28692E-1
-1.61468E-1,7.31292E-1
-0.26275E-1,7.58422E-1
0.33447E-1,7.61383E-1
1.66931E-1,7.58514E-1
2.04498E-1,6.66259E-1
2.02179E-1,7.03826E-1
3.2547E-1,7.18811E-1
3.90747E-1,6.81488E-1
5.16632E-1,6.64733E-1
5.85693E-1,5.23468E-1
5.74066E-1,4.86969E-1
6.66534E-1,4.41772E-1
6.79870E-1,3.34045E-1
7.21649E-1,2.93396E-1
7.46063E-1,1.41662E-1
6.46789E-1,0.87493E-1
6.55609E-1,1.04309E-1
6.69158E-1,0.50659E-1
6.82556E-1,0.43396E-1
7.47802E-1,-0.44250E-1
6.82678E-1,-1.27288E-1
6.98974E-1,-1.09558E-1
7.68859E-1,-2.00317E-1
7.68707E-1,-3.01940E-1
7.77832E-1,-4.62951E-1
5.95123E-1,-5.91827E-1
5.11871E-1,-5.33569E-1
5.16479E-1,-5.93139E-1
4.23187E-1,-6.37512E-1
3.99902E-1,-6.64917E-1
2.87017E-1,-7.39074E-1
2.06268E-1,-6.71295E-1
2.28851E-1,-7.01049E-1
1.31378E-1,-7.65594E-1
0.77911E-1,-7.56835E-1
-0.21728E-1,-8.29772E-1
-1.79748E-1,-7.40753E-1
-1.70837E-1,-6.63970E-1
-2.08831E-1,-6.66687E-1
-2.35717E-1,-6.25946E-1
-2.57202E-1,-6.55517E-1
-3.60321E-1,-6.35986E-1
-3.79272E-1,-5.77575E-1
-4.18579E-1,-5.89111E-1
-4.80529E-1,-5.51116E-1
-5.27832E-1,-5.58044E-1
-6.77764E-1,-5.01007E-1
-6.86248E-1,-3.36822E-1
-6.65527E-1,-3.00231E-1
-6.80267E-1,-2.27722E-1
-6.42761E-1,-2.10754E-1
-7.14569E-1,-2.14691E-1
-7.54638E-1,-0.98297E-1
-7.22625E-1,-0.61767E-1
-7.75085E-1,-0.22979E-1
-7.82012E-1,0.61950E-1
-8.26873E-1,1.22833E-1
-8.24768E-1,3.01025E-1
-7.00286E-1,3.7146E-1
-6.71478E-1,4.06707E-1
-5.84930E-1,4.67407E-1
-5.44555E-1,4.42657E-1
-5.48034E-1,4.95575E-1
-4.84802E-1,5.30090E-1
-4.85931E-1,5.45593E-1
-4.48547E-1,6.26068E-1
-3.92425E-1,6.35650E-1
-4.00268E-1,7.02514E-1
-3.00109E-1,8.00415E-1
-2.05658E-1,8.18695E-1
-0.89660E-1,8.56475E-1
0.17730E-1,7.81799E-1
0.07843E-1,7.69226E-1
0.97961E-1,8.18512E-1
1.79626E-1,7.58972E-1
2.06329E-1,7.69104E-1
3.07495E-1,7.48748E-1
3.26232E-1,7.12493E-1
4.08233E-1,7.56134E-1
5.52520E-1,6.81152E-1
5.84869E-1,5.86517E-1
6.46240E-1,5.21057E-1
6.47460E-1,4.17388E-1
6.44989E-1,3.96606E-1
6.89422E-1,3.34777E-1
6.66168E-1,2.83508E-1
7.03918E-1,2.80456E-1
7.49664E-1,2.03979E-1
7.49145E-1,1.57043E-1
8.02246E-1,1.07757E-1
8.11615E-1,0.12329E-1
8.23761E-1,-0.39520E-1
8.56140E-1,-1.58660E-1
7.82531E-1,-2.68035E-1
7.44232E-1,-3.04687E-1
7.12951E-1,-3.80584E-1
6.58416E-1,-4.23370E-1
6.31164E-1,-4.82025E-1
5.51269E-1,-5.34179E-1
5.10772E-1,-5.31066E-1
4.96734E-1,-5.78979E-1
4.42047E-1,-6.29303E-1
3.99597E-1,-6.71752E-1
3.17321E-1,-7.25769E-1
2.32574E-1,-7.22381E-1
1.79779E-1,-7.34710E-1
0.95184E-1,-7.34649E-1
0.51971E-1,-7.05963E-1
0.09887E-1,-7.19757E-1
-0.57800E-1,-7.01171E-1
-0.89996E-1,-6.82251E-1
-1.40319E-1,-6.76452E-1
-1.75506E-1,-6.50177E-1
-2.03277E-1,-6.5979E-1
-2.69592E-1,-6.62292E-1
-3.30413E-1,-6.40533E-1
-3.97949E-1,-6.10534E-1
-4.38781E-1,-5.44342E-1
-4.51538E-1,-5.22552E-1
-5.07659E-1,-5.02410E-1
-5.44799E-1,-4.49523E-1
-5.77880E-1,-4.17083E-1
-6.11846E-1,-3.55499E-1
-6.07116E-1,-3.17840E-1
-6.47796E-1,-3.04687E-1
-6.95739E-1,-2.43438E-1
-7.14233E-1,-1.85913E-1
-7.46490E-1,-1.20666E-1
-7.35687E-1,-0.43670E-1
-7.38586E-1,-0.02471E-1
-7.51861E-1,0.76507E-1
-7.18536E-1,1.38183E-1
-7.17193E-1,1.87713E-1
-6.81243E-1,2.64709E-1
-6.41296E-1,2.78961E-1
-6.44348E-1,3.15704E-1
-6.25152E-1,3.66516E-1
-6.21795E-1,4.11743E-1
-5.98602E-1,4.99633E-1
-5.24902E-1,5.49224E-1
-4.91455E-1,5.75073E-1
-4.44213E-1,6.19354E-1
-4.05578E-1,6.48590E-1
-3.54278E-1,7.09014E-1
-2.57782E-1,7.24365E-1
-2.22473E-1,7.15393E-1
-1.79168E-1,7.48901E-1
-1.25244E-1,7.59124E-1
-0.80810E-1,7.93426E-1
0.12634E-1,8.20556E-1
0.89538E-1,7.99102E-1
1.50390E-1,8.03924E-1
2.34344E-1,7.84210E-1
2.85278E-1,7.59399E-1
3.62579E-1,7.47711E-1
4.31427E-1,6.90490E-1
4.68292E-1,6.52069E-1
5.18768E-1,6.10595E-1
5.47790E-1,5.71594E-1
5.96954E-1,5.50109E-1
6.59301E-1,4.95605E-1
6.93878E-1,4.37286E-1
7.34863E-1,3.82965E-1
7.60986E-1,3.16131E-1
7.85064E-1,2.63671E-1
8.18237E-1,1.97265E-1
8.31207E-1,1.21765E-1
8.40911E-1,0.56335E-1
8.51440E-1,-0.19958E-1
8.41369E-1,-0.95947E-1
8.30352E-1,-1.62017E-1
8.14086E-1,-2.32543E-1
7.87780E-1,-2.95227E-1
7.66876E-1,-3.53698E-1
7.38952E-1,-4.23278E-1
6.94976E-1,-4.78729E-1
6.59637E-1,-5.26214E-1
6.19110E-1,-5.82244E-1
5.77850E-1,-6.23443E-1
5.47424E-1,-6.86248E-1
4.69574E-1,-7.56622E-1
3.92272E-1,-7.85583E-1
3.23394E-1,-8.16467E-1
2.45819E-1,-8.27697E-1
1.97814E-1,-8.40423E-1
1.21429E-1,-8.80004E-1
0.28106E-1,-8.73962E-1
-0.38055E-1,-8.64563E-1
END
BEGIN
-6.81976E-1,1.67358E-1
-6.99432E-1,2.39868E-1
-6.02264E-1,3.35876E-1
-5.73303E-1,2.93060E-1
-6.44439E-1,3.83789E-1
-5.52215E-1,4.93011E-1
-5.22186E-1,5.28808E-1
-4.28741E-1,6.28784E-1
-3.41644E-1,5.86364E-1
-3.86444E-1,6.28387E-1
-2.85980E-1,7.50549E-1
-1.82220E-1,7.51525E-1
-0.75225E-1,7.85430E-1
0.31219E-1,7.09777E-1
0.12237E-1,6.97052E-1
1.07421E-1,7.68768E-1
2.09014E-1,7.18231E-1
2.85797E-1,7.13867E-1
3.93981E-1,6.01654E-1
3.40972E-1,5.23864E-1
3.65203E-1,5.76782E-1
4.60174E-1,5.27862E-1
4.84497E-1,4.99343E-1
5.80413E-1,4.41497E-1
5.55816E-1,3.34747E-1
5.44647E-1,3.64502E-1
6.36993E-1,3.33587E-1
6.62323E-1,2.68188E-1
7.39318E-1,2.02087E-1
7.14813E-1,0.52673E-1
6.51458E-1,0.53527E-1
7.10357E-1,0.38330E-1
7.32147E-1,-0.31127E-1
7.91626E-1,-1.05957E-1
7.42218E-1,-2.91748E-1
6.06323E-1,-2.89428E-1
6.38153E-1,-2.70294E-1
6.54937E-1,-3.50402E-1
6.67083E-1,-4.23828E-1
6.10565E-1,-6.01135E-1
4.13970E-1,-6.02478E-1
4.08935E-1,-5.28808E-1
4.21264E-1,-5.81695E-1
4.04083E-1,-6.28845E-1
3.70819E-1,-7.71209E-1
1.47979E-1,-8.15979E-1
0.98449E-1,-7.00103E-1
1.08276E-1,-7.27050E-1
0.53100E-1,-7.46398E-1
0.22949E-1,-8.18084E-1
-1.91345E-1,-8.71307E-1
-2.95867E-1,-6.99585E-1
-2.60192E-1,-6.60644E-1
-3.00659E-1,-6.56189E-1
-3.05908E-1,-6.6922E-1
-4.43389E-1,-7.34466E-1
-5.9198E-1,-5.68908E-1
-5.39917E-1,-4.73449E-1
-5.61157E-1,-4.60754E-1
-5.65734E-1,-4.31488E-1
-6.44134E-1,-4.76593E-1
-8.04260E-1,-3.33190E-1
-7.29370E-1,-1.75170E-1
-6.94763E-1,-1.59027E-1
-6.79840E-1,-1.19415E-1
-6.99768E-1,-1.53869E-1
-8.52142E-1,-0.79162E-1
-8.09112E-1,1.26922E-1
-7.25433E-1,1.43249E-1
-7.22503E-1,1.80999E-1
-7.06878E-1,1.95556E-1
-7.95715E-1,2.54730E-1
-7.53753E-1,4.7052E-1
-6.01348E-1,4.99115E-1
-5.70129E-1,5.04333E-1
-5.20660E-1,5.28228E-1
-5.33447E-1,5.45349E-1
-5.05798E-1,6.78680E-1
-3.53576E-1,7.21099E-1
-2.88177E-1,6.96411E-1
-2.35504E-1,6.90979E-1
-2.35443E-1,6.91589E-1
-2.01629E-1,7.89032E-1
-0.50293E-1,8.06579E-1
0.05096E-1,7.59552E-1
0.71106E-1,7.55188E-1
1.06231E-1,7.04376E-1
1.00097E-1,7.39959E-1
2.08038E-1,8.02032E-1
3.19213E-1,7.50274E-1
3.80432E-1,7.13836E-1
4.34082E-1,6.44134E-1
4.32952E-1,6.27563E-1
5.19531E-1,6.51214E-1
6.34185E-1,5.76843E-1
6.85638E-1,4.85412E-1
7.06848E-1,3.78479E-1
6.62262E-1,3.39752E-1
7.14050E-1,3.58978E-1
8.13232E-1,2.71850E-1
8.27301E-1,1.51825E-1
8.26110E-1,0.48706E-1
7.61413E-1,-0.26825E-1
7.60253E-1,-0.15319E-1
8.16894E-1,-0.89233E-1
7.93243E-1,-1.88842E-1
7.81860E-1,-2.61077E-1
7.16308E-1,-3.66546E-1
6.45111E-1,-3.66333E-1
6.73797E-1,-3.97338E-1
6.50360E-1,-5.01129E-1
5.87036E-1,-5.72845E-1
4.88739E-1,-6.42517E-1
3.80920E-1,-6.08612E-1
3.89221E-1,-5.92895E-1
3.66668E-1,-6.63909E-1
2.91961E-1,-7.13317E-1
1.99585E-1,-7.51281E-1
0.87127E-1,-7.0755E-1
0.84381E-1,-6.50909E-1
0.84014E-1,-6.83380E-1
0.23834E-1,-7.20397E-1
-0.60180E-1,-7.42981E-1
-1.74987E-1,-7.03186E-1
-1.93481E-1,-6.18469E-1
-1.83807E-1,-6.22528E-1
-2.26013E-1,-6.39373E-1
-2.90618E-1,-6.47827E-1
-3.95324E-1,-6.10046E-1
-4.21249E-1,-4.98153E-1
-3.88900E-1,-4.78088E-1
-4.15435E-1,-4.96017E-1
-4.73602E-1,-4.92126E-1
-5.51910E-1,-4.54589E-1
-5.82946E-1,-3.58551E-1
-5.59143E-1,-3.16925E-1
-5.76690E-1,-3.05877E-1
-6.09130E-1,-2.78808E-1
-6.57928E-1,-2.47650E-1
-7.04467E-1,-1.65313E-1
-6.79657E-1,-0.92834E-1
-6.72668E-1,-0.67657E-1
-6.82342E-1,-0.34729E-1
-7.06481E-1,0.01190E-1
-7.41485E-1,0.78002E-1
-7.18444E-1,1.63970E-1
-6.98211E-1,2.01202E-1
-6.92871E-1,2.44506E-1
-6.91986E-1,2.86773E-1
-7.06451E-1,3.63525E-1
-6.57806E-1,4.74639E-1
-5.78064E-1,5.08453E-1
-5.53466E-1,5.33721E-1
-5.29602E-1,5.74554E-1
-5.13458E-1,6.35009E-1
-4.50225E-1,7.23815E-1
-3.43627E-1,7.56561E-1
-2.79205E-1,7.64526E-1
-2.19665E-1,7.84362E-1
-1.68975E-1,8.09692E-1
-0.91796E-1,8.55499E-1
0.16479E-1,8.51501E-1
0.81756E-1,8.21807E-1
1.39709E-1,8.05481E-1
1.88324E-1,7.92358E-1
2.55889E-1,8.03009E-1
3.50830E-1,7.80242E-1
4.16381E-1,7.30651E-1
4.71008E-1,6.85607E-1
5.08331E-1,6.38549E-1
5.52093E-1,6.14257E-1
6.22924E-1,5.72540E-1
6.74713E-1,4.98565E-1
7.04040E-1,4.30816E-1
7.23999E-1,3.68988E-1
7.42340E-1,3.25195E-1
7.79693E-1,2.73498E-1
8.0896E-1,1.99462E-1
8.16925E-1,1.24389E-1
8.18908E-1,0.56274E-1
8.15033E-1,-0.08972E-1
8.10974E-1,-0.68725E-1
8.10821E-1,-1.32415E-1
7.98339E-1,-2.00622E-1
7.81372E-1,-2.63641E-1
7.56408E-1,-3.31207E-1
7.13012E-1,-3.87939E-1
6.81610E-1,-4.28924E-1
6.53015E-1,-4.81079E-1
6.20117E-1,-5.28503E-1
5.95886E-1,-5.85968E-1
5.35858E-1,-6.55517E-1
4.63317E-1,-6.82739E-1
4.15771E-1,-7.08068E-1
3.63678E-1,-7.37304E-1
3.25958E-1,-7.73498E-1
2.53509E-1,-8.39294E-1
1.44378E-1,-8.44818E-1
0.84014E-1,-8.25164E-1
0.30059E-1,-8.21533E-1
-0.13214E-1,-8.18847E-1
END
BEGIN
-6.55700E-1,0.24261E-1
-6.50909E-1,0.97198E-1
-6.36444E-1,1.75415E-1
-6.17279E-1,2.45086E-1
-5.84594E-1,3.20373E-1
-5.39459E-1,3.83392E-1
-4.92645E-1,4.43344E-1
-4.44686E-1,4.95117E-1
-3.86596E-1,5.49011E-1
-3.18573E-1,5.87188E-1
-2.54486E-1,6.17797E-1
-1.81884E-1,6.39068E-1
-1.13616E-1,6.56585E-1
-0.25665E-1,6.69738E-1
0.48919E-1,6.60644E-1
1.21429E-1,6.53045E-1
1.92840E-1,6.30035E-1
2.57263E-1,6.05621E-1
3.28887E-1,5.75866E-1
3.81530E-1,5.20538E-1
4.27719E-1,4.72198E-1
4.68215E-1,4.16458E-1
5.03112E-1,3.6203E-1
5.33752E-1,2.97515E-1
5.53192E-1,2.36328E-1
5.77026E-1,1.80877E-1
5.92102E-1,1.17675E-1
6.06079E-1,0.54901E-1
6.04583E-1,-0.18676E-1
6.03790E-1,-0.81451E-1
5.92865E-1,-1.53869E-1
5.65734E-1,-2.17956E-1
5.39886E-1,-2.67730E-1
5.05615E-1,-3.20159E-1
4.75387E-1,-3.65890E-1
4.18228E-1,-4.20013E-1
3.65783E-1,-4.50302E-1
3.25149E-1,-4.84741E-1
2.71911E-1,-5.28778E-1
2.06115E-1,-5.46417E-1
1.45721E-1,-5.61157E-1
0.87738E-1,-5.67474E-1
0.24841E-1,-5.69244E-1
-0.34423E-1,-5.73059E-1
-1.04797E-1,-5.59295E-1
-1.55578E-1,-5.48065E-1
-2.12951E-1,-5.23162E-1
-2.67547E-1,-4.94262E-1
-3.18756E-1,-4.63043E-1
-3.80767E-1,-4.24697E-1
-4.15176E-1,-3.66653E-1
-4.49859E-1,-3.28460E-1
-4.82330E-1,-2.81341E-1
-5.03387E-1,-2.31109E-1
-5.20324E-1,-1.87988E-1
-5.35186E-1,-1.38458E-1
-5.53131E-1,-0.91430E-1
-5.62774E-1,-0.29205E-1
-5.64239E-1,0.35461E-1
-5.55358E-1,0.96954E-1
-5.51910E-1,1.61895E-1
-5.24932E-1,2.21405E-1
-5.00701E-1,2.74322E-1
-4.71878E-1,3.33129E-1
-4.25323E-1,3.77807E-1
-3.99139E-1,4.12612E-1
-3.60534E-1,4.54666E-1
-3.24050E-1,4.95697E-1
-2.69043E-1,5.26306E-1
-2.06909E-1,5.48980E-1
-1.47003E-1,5.60058E-1
-0.77911E-1,5.84259E-1
-0.07263E-1,5.84503E-1
0.49713E-1,5.8078E-1
1.13647E-1,5.82397E-1
1.79657E-1,5.68512E-1
2.43591E-1,5.44769E-1
2.94372E-1,5.10253E-1
3.48465E-1,4.86846E-1
4.01825E-1,4.52255E-1
4.52163E-1,4.01504E-1
4.79461E-1,3.44940E-1
5.07507E-1,2.95745E-1
5.39642E-1,2.37152E-1
5.59021E-1,1.75994E-1
5.77728E-1,1.10809E-1
5.82031E-1,0.45654E-1
5.84564E-1,-0.09063E-1
5.70861E-1,-0.60150E-1
5.66314E-1,-1.08123E-1
5.48339E-1,-1.60461E-1
5.25939E-1,-2.13592E-1
4.96154E-1,-2.57675E-1
4.69345E-1,-3.07205E-1
4.36996E-1,-3.53851E-1
3.91540E-1,-3.96637E-1
3.45764E-1,-4.28009E-1
2.96875E-1,-4.58786E-1
2.42309E-1,-4.85672E-1
2.03064E-1,-4.93484E-1
1.71112E-1,-5.17852E-1
1.34674E-1,-5.34637E-1
0.89202E-1,-5.51635E-1
0.40222E-1,-5.46905E-1
0.01739E-1,-5.40069E-1
-0.44128E-1,-5.42053E-1
-0.93963E-1,-5.32623E-1
-1.38732E-1,-5.20111E-1
-1.81549E-1,-5.03021E-1
-2.19543E-1,-4.88418E-1
-2.57476E-1,-4.73175E-1
-2.96920E-1,-4.49493E-1
-3.27468E-1,-4.25140E-1
-3.64440E-1,-4.02679E-1
-3.9505E-1,-3.73138E-1
-4.22226E-1,-3.46664E-1
-4.49508E-1,-3.17459E-1
-4.72122E-1,-2.80410E-1
-4.91165E-1,-2.40646E-1
-5.06103E-1,-2.01599E-1
-5.28350E-1,-1.59759E-1
-5.46234E-1,-1.15631E-1
-5.60913E-1,-0.73059E-1
-5.70190E-1,-0.34088E-1
-5.77636E-1,0.06835E-1
-5.81756E-1,0.51696E-1
-5.76782E-1,0.99426E-1
-5.70282E-1,1.40197E-1
-5.64636E-1,1.82342E-1
-5.49804E-1,2.29858E-1
-5.32745E-1,2.66479E-1
-5.11535E-1,3.15307E-1
-4.82849E-1,3.56765E-1
-4.56543E-1,3.98254E-1
-4.27337E-1,4.40338E-1
-3.95553E-1,4.74578E-1
-3.65020E-1,5.112E-1
-3.24249E-1,5.40100E-1
-2.87689E-1,5.58807E-1
-2.48718E-1,5.82397E-1
-2.01110E-1,6.00402E-1
-1.56341E-1,6.12396E-1
-1.04583E-1,6.25335E-1
-0.54351E-1,6.29516E-1
-0.00824E-1,6.37085E-1
0.55786E-1,6.34429E-1
1.0849E-1,6.28326E-1
1.68762E-1,6.21002E-1
2.29797E-1,5.99823E-1
2.81738E-1,5.75836E-1
3.25836E-1,5.52032E-1
3.72375E-1,5.28137E-1
4.10934E-1,4.98245E-1
4.52011E-1,4.56604E-1
4.84924E-1,4.08630E-1
5.16143E-1,3.53302E-1
5.47790E-1,3.02215E-1
5.75927E-1,2.44201E-1
5.96496E-1,1.87988E-1
6.06750E-1,1.26983E-1
6.05133E-1,0.69824E-1
6.03973E-1,0.19836E-1
6.05773E-1,-0.37872E-1
5.96984E-1,-0.88714E-1
5.85510E-1,-1.40045E-1
5.59509E-1,-1.84021E-1
5.28533E-1,-2.25769E-1
4.95330E-1,-2.69348E-1
4.52667E-1,-3.12332E-1
4.12796E-1,-3.50967E-1
3.65097E-1,-3.90350E-1
3.14636E-1,-4.17373E-1
2.69561E-1,-4.36019E-1
2.24395E-1,-4.56054E-1
1.80572E-1,-4.72915E-1
1.24237E-1,-4.87442E-1
0.71868E-1,-4.80224E-1
0.29174E-1,-4.72396E-1
-0.15197E-1,-4.66522E-1
-0.60028E-1,-4.55535E-1
-1.12503E-1,-4.42138E-1
-1.61224E-1,-4.08721E-1
-1.96121E-1,-3.78875E-1
-2.34863E-1,-3.50555E-1
-2.67684E-1,-3.19976E-1
-3.01315E-1,-2.91595E-1
-3.31344E-1,-2.52471E-1
-3.40683E-1,-2.16384E-1
-3.50952E-1,-1.84478E-1
-3.54980E-1,-1.46331E-1
-3.58123E-1,-1.11770E-1
-3.66653E-1,-0.70510E-1
-3.64440E-1,-0.23223E-1
-3.54629E-1,0.10269E-1
-3.46862E-1,0.43090E-1
-3.37219E-1,0.74783E-1
-3.25622E-1,1.12701E-1
-3.12789E-1,1.50299E-1
-2.92251E-1,1.78939E-1
-2.79724E-1,1.99615E-1
-2.61215E-1,2.20443E-1
END
