CITIFILE A.01.01
#NA VERSION HP8510C.08.10
NAME DATA
#NA REGISTER 1
VAR FREQ MAG 201
DATA S[1,1] RI
DATA S[2,1] RI
DATA S[1,2] RI
DATA S[2,2] RI
SEG_LIST_BEGIN
SEG 8000000000 12000000000 201
SEG_LIST_END
COMMENT       YEAR MONTH DAY HOUR MINUTE SECONDS
CONSTANT TIME 2013   09   26  19    41    54.0
BEGIN
-4.87960E-1,-2.58071E-1
-5.10894E-1,-2.05261E-1
-5.31311E-1,-1.41906E-1
-5.47058E-1,-0.93536E-1
-5.60363E-1,-0.36865E-1
-5.52673E-1,0.13519E-1
-5.45379E-1,0.68237E-1
-5.30120E-1,1.23046E-1
-5.23712E-1,1.85974E-1
-5.04486E-1,2.42767E-1
-4.79400E-1,2.80868E-1
-4.44351E-1,3.20877E-1
-4.05914E-1,3.58032E-1
-3.67141E-1,4.12811E-1
-3.1987E-1,4.51919E-1
-2.80700E-1,4.80423E-1
-2.33963E-1,4.99862E-1
-1.83837E-1,5.08056E-1
-1.33361E-1,5.33691E-1
-0.59387E-1,5.45471E-1
-0.07232E-1,5.49743E-1
0.40161E-1,5.48248E-1
0.84533E-1,5.34362E-1
1.34063E-1,5.16326E-1
1.89529E-1,4.96536E-1
2.37411E-1,4.82833E-1
2.81463E-1,4.61410E-1
3.16833E-1,4.35195E-1
3.51699E-1,3.93127E-1
3.82385E-1,3.61480E-1
4.29901E-1,3.20114E-1
4.63928E-1,2.70477E-1
4.80865E-1,2.33032E-1
4.91867E-1,1.85134E-1
5.00122E-1,1.46514E-1
5.22338E-1,0.73242E-1
5.17272E-1,0.16296E-1
5.20629E-1,-0.20752E-1
5.23132E-1,-0.61004E-1
5.02838E-1,-1.09100E-1
4.82315E-1,-1.62490E-1
4.54177E-1,-2.07931E-1
4.38064E-1,-2.53204E-1
4.22714E-1,-2.88543E-1
3.94729E-1,-3.24096E-1
3.62854E-1,-3.47076E-1
3.10195E-1,-3.77670E-1
2.73147E-1,-4.03381E-1
2.39837E-1,-4.30465E-1
2.12814E-1,-4.56024E-1
1.61773E-1,-4.60250E-1
1.22177E-1,-4.58633E-1
0.80291E-1,-4.65087E-1
0.34072E-1,-4.76364E-1
-0.05828E-1,-4.81246E-1
-0.44769E-1,-4.79797E-1
-0.78186E-1,-4.68505E-1
-1.20880E-1,-4.46929E-1
-1.64932E-1,-4.29763E-1
-2.01446E-1,-4.11071E-1
-2.28866E-1,-4.07775E-1
-2.59399E-1,-3.81927E-1
-2.74383E-1,-3.47305E-1
-2.97561E-1,-3.23638E-1
-3.35556E-1,-2.94769E-1
-3.59481E-1,-2.70172E-1
-3.81378E-1,-2.45010E-1
-3.88961E-1,-2.20932E-1
-3.92746E-1,-1.78482E-1
-4.01962E-1,-1.36215E-1
-4.08828E-1,-0.99365E-1
-4.27139E-1,-0.79788E-1
-4.27383E-1,-0.49011E-1
-4.04205E-1,-0.26321E-1
-3.97674E-1,-0.05233E-1
-3.98651E-1,0.35797E-1
-4.05258E-1,0.71792E-1
-4.03427E-1,0.99487E-1
-4.00177E-1,1.14746E-1
-3.86322E-1,1.35406E-1
-3.68728E-1,1.75720E-1
-3.36639E-1,2.16171E-1
-3.26278E-1,2.41455E-1
-3.20861E-1,2.68997E-1
-2.98553E-1,2.76519E-1
-2.78900E-1,2.92053E-1
-2.37045E-1,3.20632E-1
-2.08099E-1,3.42880E-1
-1.83197E-1,3.71551E-1
-1.62033E-1,3.86184E-1
-1.39434E-1,3.93402E-1
-0.94757E-1,4.04327E-1
-0.40969E-1,3.96728E-1
-0.10147E-1,4.08630E-1
0.28015E-1,4.20730E-1
0.53939E-1,4.12918E-1
0.83541E-1,4.05578E-1
1.30355E-1,3.82049E-1
1.74316E-1,3.71627E-1
2.23877E-1,3.59817E-1
2.57583E-1,3.47763E-1
2.83035E-1,3.30658E-1
3.25637E-1,2.90496E-1
3.53546E-1,2.25555E-1
3.85391E-1,1.81564E-1
4.18197E-1,1.41815E-1
4.25888E-1,1.05636E-1
4.30374E-1,0.61615E-1
4.15145E-1,-0.03219E-1
4.12185E-1,-0.58517E-1
4.18930E-1,-1.20132E-1
4.13147E-1,-1.62033E-1
4.00772E-1,-1.92230E-1
3.67782E-1,-2.39379E-1
3.16238E-1,-2.90039E-1
2.74887E-1,-3.44543E-1
2.41760E-1,-3.86901E-1
2.13760E-1,-4.10018E-1
1.67022E-1,-4.23095E-1
1.05224E-1,-4.22470E-1
0.44754E-1,-4.45953E-1
-0.17593E-1,-4.66354E-1
-0.56320E-1,-4.78836E-1
-0.92758E-1,-4.75082E-1
-1.39663E-1,-4.53537E-1
-2.07229E-1,-4.34143E-1
-2.81585E-1,-4.05853E-1
-3.24310E-1,-3.91922E-1
-3.56369E-1,-3.77349E-1
-3.84079E-1,-3.35739E-1
-4.12384E-1,-2.79739E-1
-4.63012E-1,-2.16522E-1
-4.94796E-1,-1.73919E-1
-5.18951E-1,-1.52893E-1
-5.29571E-1,-1.17981E-1
-5.23681E-1,-0.61523E-1
-5.32196E-1,0.13641E-1
-5.35614E-1,0.91522E-1
-5.47546E-1,1.26220E-1
-5.51879E-1,1.56066E-1
-5.24780E-1,1.92260E-1
-4.83840E-1,2.51510E-1
-4.40689E-1,3.26782E-1
-4.20715E-1,3.75885E-1
-4.17205E-1,4.11163E-1
-3.89907E-1,4.30191E-1
-3.36135E-1,4.44839E-1
-2.68356E-1,4.80484E-1
-2.00714E-1,5.25207E-1
-1.75445E-1,5.51116E-1
-1.61987E-1,5.71960E-1
-1.26159E-1,5.70434E-1
-0.52917E-1,5.58288E-1
0.35217E-1,5.51086E-1
0.96008E-1,5.52276E-1
1.28082E-1,5.69702E-1
1.59088E-1,5.69152E-1
1.98333E-1,5.27252E-1
2.43042E-1,4.7995E-1
3.03543E-1,4.41925E-1
3.45901E-1,4.25643E-1
3.80523E-1,4.27276E-1
4.08676E-1,3.92852E-1
4.27505E-1,3.30505E-1
4.55596E-1,2.62298E-1
4.91149E-1,2.05474E-1
5.18829E-1,1.65863E-1
5.29632E-1,1.29791E-1
5.1474E-1,0.75744E-1
4.86145E-1,0.18936E-1
4.80255E-1,-0.41198E-1
4.73922E-1,-0.88089E-1
4.8172E-1,-1.13082E-1
4.66384E-1,-1.44546E-1
4.25674E-1,-1.76498E-1
3.87588E-1,-2.25936E-1
3.53759E-1,-2.80471E-1
3.41064E-1,-3.14193E-1
3.28704E-1,-3.41644E-1
2.86529E-1,-3.48220E-1
2.35626E-1,-3.48068E-1
1.75811E-1,-3.73489E-1
1.30722E-1,-3.94363E-1
1.19094E-1,-4.25094E-1
0.98022E-1,-4.30725E-1
0.74768E-1,-4.06524E-1
0.25116E-1,-3.95980E-1
-0.49972E-1,-3.92150E-1
-0.96221E-1,-4.04586E-1
-1.27166E-1,-4.20776E-1
-1.35650E-1,-4.04464E-1
-1.42684E-1,-3.77273E-1
-1.99752E-1,-3.37036E-1
-2.49404E-1,-2.84744E-1
-2.87185E-1,-2.86346E-1
-3.06671E-1,-2.84469E-1
-2.91244E-1,-2.73544E-1
-3.01269E-1,-2.45117E-1
-3.33999E-1,-1.64047E-1
-3.53912E-1,-1.21093E-1
-3.88732E-1,-1.07559E-1
END
BEGIN
-8.68713E-1,0.95550E-1
-7.88452E-1,1.79412E-1
-7.95562E-1,2.14660E-1
-7.77648E-1,3.45489E-1
-7.10601E-1,4.09118E-1
-6.65222E-1,5.05371E-1
-5.34362E-1,5.46722E-1
-4.97833E-1,5.10833E-1
-4.97650E-1,5.66955E-1
-4.40673E-1,6.08306E-1
-4.11193E-1,6.64428E-1
-2.96661E-1,7.08282E-1
-2.56012E-1,6.61773E-1
-2.70019E-1,7.25769E-1
-1.60797E-1,7.90832E-1
-0.96649E-1,7.9776E-1
0.18035E-1,8.34045E-1
1.04797E-1,7.52441E-1
0.89111E-1,7.54089E-1
1.82006E-1,8.04412E-1
2.58300E-1,7.81982E-1
3.60412E-1,8.10089E-1
4.92553E-1,7.10632E-1
4.94384E-1,6.47766E-1
5.86151E-1,6.45446E-1
6.54724E-1,5.38543E-1
6.96594E-1,5.01495E-1
7.87994E-1,3.64929E-1
7.10510E-1,2.43743E-1
6.91101E-1,2.55035E-1
7.19024E-1,2.03491E-1
7.17010E-1,1.85180E-1
7.95410E-1,1.34491E-1
7.65319E-1,0.19653E-1
7.4646E-1,0.34301E-1
8.31451E-1,-0.05462E-1
8.65387E-1,-0.99090E-1
9.33685E-1,-2.20336E-1
8.50921E-1,-4.31793E-1
7.17529E-1,-4.39575E-1
7.32910E-1,-4.77569E-1
6.63330E-1,-5.72784E-1
6.27624E-1,-6.05255E-1
5.59509E-1,-7.23541E-1
4.22729E-1,-7.11425E-1
4.36218E-1,-7.02880E-1
3.77899E-1,-7.97882E-1
3.02307E-1,-8.09478E-1
2.4823E-1,-9.01092E-1
0.50689E-1,-9.22119E-1
-0.16540E-1,-8.25836E-1
-0.54412E-1,-8.30383E-1
-1.22741E-1,-7.92999E-1
-1.38763E-1,-7.96844E-1
-2.42706E-1,-8.14117E-1
-3.04779E-1,-7.44232E-1
-3.32000E-1,-7.44079E-1
-4.06036E-1,-7.20886E-1
-4.43420E-1,-7.16949E-1
-5.74554E-1,-7.21283E-1
-6.73858E-1,-5.78430E-1
-6.67419E-1,-5.02441E-1
-7.06695E-1,-4.37194E-1
-6.86187E-1,-3.71368E-1
-7.23663E-1,-3.81408E-1
-7.98339E-1,-2.91137E-1
-7.74322E-1,-2.18231E-1
-8.09234E-1,-1.94519E-1
-8.39141E-1,-1.18103E-1
-8.75E-1,-0.65856E-1
-9.28314E-1,0.66589E-1
-8.56109E-1,1.90399E-1
-8.23211E-1,2.39105E-1
-7.73712E-1,3.24707E-1
-7.13043E-1,3.42010E-1
-7.12890E-1,3.82476E-1
-6.66107E-1,4.37805E-1
-6.51306E-1,4.56909E-1
-6.37420E-1,5.28045E-1
-5.90271E-1,5.65948E-1
-5.94116E-1,6.21124E-1
-5.40344E-1,7.24029E-1
-4.59747E-1,7.78015E-1
-3.70361E-1,8.42559E-1
-2.51861E-1,8.31543E-1
-2.30163E-1,8.26416E-1
-1.56738E-1,8.91082E-1
-0.56457E-1,8.71673E-1
-0.16937E-1,8.79333E-1
0.70159E-1,8.85925E-1
1.12609E-1,8.71246E-1
1.89910E-1,9.27215E-1
3.41583E-1,9.04937E-1
4.18518E-1,8.37921E-1
5.00427E-1,7.89215E-1
5.44799E-1,7.01965E-1
5.74615E-1,6.73004E-1
6.46087E-1,6.13311E-1
6.58783E-1,5.49652E-1
7.00347E-1,5.32836E-1
7.59277E-1,4.77478E-1
7.90649E-1,4.33746E-1
8.64593E-1,3.84521E-1
9.12689E-1,2.84820E-1
9.47235E-1,2.06268E-1
9.97894E-1,0.86242E-1
9.62951E-1,-0.45440E-1
9.31976E-1,-1.12640E-1
9.15344E-1,-1.99615E-1
8.74511E-1,-2.75604E-1
8.44146E-1,-3.50708E-1
7.82226E-1,-4.24346E-1
7.37731E-1,-4.50103E-1
7.27508E-1,-5.03692E-1
6.87316E-1,-5.76690E-1
6.30523E-1,-6.39312E-1
5.59448E-1,-7.03704E-1
4.76409E-1,-7.36755E-1
4.13757E-1,-7.66479E-1
3.32855E-1,-8.00720E-1
2.54699E-1,-7.95196E-1
1.99676E-1,-7.95410E-1
1.33056E-1,-7.98034E-1
0.75347E-1,-7.90344E-1
0.20019E-1,-7.90649E-1
-0.39093E-1,-7.83111E-1
-0.82580E-1,-7.69897E-1
-1.28509E-1,-7.75726E-1
-1.97967E-1,-7.73559E-1
-2.72460E-1,-7.53814E-1
-3.42956E-1,-7.10937E-1
-3.84094E-1,-6.65222E-1
-4.14856E-1,-6.40289E-1
-4.60601E-1,-6.12976E-1
-5.06408E-1,-5.76263E-1
-5.46905E-1,-5.28961E-1
-5.73089E-1,-4.80346E-1
-5.95062E-1,-4.48181E-1
-6.36261E-1,-4.24011E-1
-6.82067E-1,-3.74725E-1
-7.14141E-1,-3.21533E-1
-7.44720E-1,-2.57385E-1
-7.56988E-1,-1.87774E-1
-7.6474E-1,-1.31591E-1
-7.71270E-1,-0.73577E-1
-7.75482E-1,-0.15533E-1
-7.72857E-1,0.53222E-1
-7.51251E-1,1.06292E-1
-7.30041E-1,1.48834E-1
-7.29217E-1,1.76605E-1
-7.41210E-1,2.32208E-1
-7.39715E-1,3.00018E-1
-7.18872E-1,3.76892E-1
-6.73614E-1,4.37622E-1
-6.35620E-1,4.68536E-1
-6.23565E-1,5.17181E-1
-5.82763E-1,5.86029E-1
-5.22216E-1,6.36169E-1
-4.73297E-1,6.71203E-1
-4.21112E-1,6.97723E-1
-3.91632E-1,7.2995E-1
-3.43505E-1,7.90039E-1
-2.72277E-1,8.27850E-1
-1.95587E-1,8.62609E-1
-1.07513E-1,8.80340E-1
-0.35797E-1,8.85253E-1
0.36560E-1,8.97247E-1
1.27380E-1,8.93798E-1
2.06665E-1,8.69079E-1
2.79785E-1,8.37677E-1
3.43933E-1,7.97149E-1
3.80615E-1,7.70019E-1
4.52484E-1,7.59582E-1
5.15594E-1,7.23938E-1
5.81756E-1,6.84112E-1
6.39556E-1,6.17004E-1
6.71722E-1,5.62530E-1
7.30133E-1,5.15716E-1
7.69104E-1,4.43267E-1
8.05633E-1,3.85284E-1
8.37707E-1,3.10760E-1
8.46862E-1,2.42126E-1
8.69415E-1,1.84478E-1
8.81012E-1,0.92620E-1
8.77044E-1,0.35583E-1
8.94561E-1,-0.43518E-1
8.70544E-1,-1.16363E-1
8.73443E-1,-1.71173E-1
8.54553E-1,-2.64495E-1
7.99957E-1,-3.10913E-1
7.93090E-1,-3.64959E-1
7.55004E-1,-4.33044E-1
7.46978E-1,-4.79888E-1
7.19207E-1,-5.79742E-1
6.28173E-1,-6.39648E-1
5.87799E-1,-6.62658E-1
5.19897E-1,-7.20703E-1
4.65942E-1,-7.24304E-1
4.40490E-1,-8.01910E-1
3.13476E-1,-8.56536E-1
2.47375E-1,-8.22784E-1
END
BEGIN
-7.62023E-1,0.87707E-1
-7.85186E-1,1.51275E-1
-7.11547E-1,2.65167E-1
-6.66137E-1,2.34680E-1
-7.43408E-1,3.01330E-1
-6.80389E-1,4.25415E-1
-6.54754E-1,4.65820E-1
-5.90332E-1,5.83587E-1
-4.88006E-1,5.69244E-1
-5.32775E-1,5.90850E-1
-4.71130E-1,7.29858E-1
-3.69232E-1,7.59857E-1
-2.75451E-1,8.23516E-1
-1.42059E-1,7.87414E-1
-1.48742E-1,7.61444E-1
-0.80444E-1,8.54766E-1
0.39093E-1,8.40179E-1
1.16394E-1,8.57513E-1
2.69683E-1,7.91626E-1
2.58300E-1,6.83105E-1
2.64495E-1,7.33062E-1
3.77868E-1,7.16095E-1
4.17327E-1,6.87469E-1
5.35949E-1,6.63116E-1
5.66772E-1,5.33752E-1
5.43609E-1,5.36041E-1
6.40594E-1,5.23773E-1
6.86828E-1,4.53125E-1
7.73407E-1,4.06616E-1
8.11248E-1,2.43133E-1
7.40387E-1,1.92627E-1
7.83691E-1,1.87561E-1
8.14819E-1,1.18377E-1
8.76007E-1,0.64941E-1
9.00787E-1,-1.23321E-1
7.61291E-1,-1.99798E-1
7.57476E-1,-1.74682E-1
7.8479E-1,-2.44384E-1
8.01391E-1,-3.07342E-1
8.10150E-1,-4.75463E-1
6.28784E-1,-5.69824E-1
5.67688E-1,-5.08514E-1
5.79345E-1,-5.44921E-1
5.59448E-1,-5.87860E-1
5.69274E-1,-7.04467E-1
3.96026E-1,-8.29528E-1
2.82348E-1,-7.47680E-1
2.85308E-1,-7.53356E-1
2.32299E-1,-7.82409E-1
2.20367E-1,-8.35632E-1
0.66497E-1,-9.53338E-1
-1.06811E-1,-8.54339E-1
-1.08642E-1,-7.91137E-1
-1.55029E-1,-7.91229E-1
-1.6922E-1,-7.81921E-1
-2.52380E-1,-8.65753E-1
-4.43267E-1,-7.90313E-1
-4.50897E-1,-6.69281E-1
-4.72351E-1,-6.51458E-1
-4.94171E-1,-6.13555E-1
-5.33416E-1,-6.57318E-1
-7.10632E-1,-6.06811E-1
-7.28393E-1,-4.36828E-1
-7.03857E-1,-3.91387E-1
-7.15118E-1,-3.36456E-1
-7.09747E-1,-3.42285E-1
-8.40850E-1,-3.36792E-1
-9.02038E-1,-1.50299E-1
-8.32702E-1,-0.72784E-1
-8.35388E-1,-0.28991E-1
-8.17749E-1,0.09857E-1
-8.86932E-1,0.26489E-1
-9.51385E-1,2.07366E-1
-8.39538E-1,3.32214E-1
-7.93487E-1,3.61206E-1
-7.47131E-1,4.19525E-1
-7.28637E-1,4.28222E-1
-7.60620E-1,5.31951E-1
-6.59118E-1,6.60644E-1
-5.61523E-1,6.81549E-1
-4.92889E-1,7.06237E-1
-4.52331E-1,6.97937E-1
-4.61303E-1,7.59979E-1
-3.54461E-1,8.62823E-1
-2.43804E-1,8.53698E-1
-1.70318E-1,8.72406E-1
-0.72906E-1,8.41064E-1
-0.72296E-1,8.17352E-1
-0.28259E-1,8.93371E-1
0.96710E-1,9.01886E-1
1.72210E-1,8.79180E-1
2.68554E-1,8.46008E-1
2.98248E-1,7.87475E-1
3.28064E-1,8.16650E-1
4.44824E-1,8.19549E-1
5.35888E-1,7.66357E-1
6.31439E-1,6.92749E-1
6.47827E-1,5.79193E-1
6.37390E-1,5.70587E-1
7.32818E-1,5.55511E-1
8.04412E-1,4.59808E-1
8.51348E-1,3.75671E-1
8.64105E-1,2.54699E-1
8.24462E-1,2.10388E-1
8.72528E-1,1.87439E-1
9.09973E-1,0.88439E-1
9.14856E-1,0.10376E-1
9.19708E-1,-1.11877E-1
8.38043E-1,-1.92230E-1
8.27026E-1,-2.01568E-1
8.49304E-1,-2.85247E-1
8.20037E-1,-3.72741E-1
7.83935E-1,-4.72717E-1
6.67785E-1,-5.39550E-1
6.14410E-1,-5.19226E-1
6.18469E-1,-5.64147E-1
5.73822E-1,-6.39190E-1
5.13397E-1,-7.08435E-1
3.99719E-1,-7.50701E-1
3.27941E-1,-7.11181E-1
3.22418E-1,-7.11059E-1
2.86987E-1,-7.63702E-1
2.14263E-1,-8.08593E-1
1.07879E-1,-8.34686E-1
0.16662E-1,-7.86438E-1
0.03784E-1,-7.55889E-1
-0.21392E-1,-7.8125E-1
-0.91095E-1,-8.06457E-1
-1.90582E-1,-8.06976E-1
-2.84027E-1,-7.37182E-1
-2.93151E-1,-6.78497E-1
-3.02032E-1,-6.83319E-1
-3.61084E-1,-6.99340E-1
-4.48089E-1,-6.77185E-1
-5.17486E-1,-6.05560E-1
-5.35247E-1,-5.40802E-1
-5.48492E-1,-5.09399E-1
-5.81359E-1,-4.96856E-1
-6.42944E-1,-4.68170E-1
-6.98333E-1,-4.01336E-1
-7.17041E-1,-3.21624E-1
-7.19329E-1,-2.65136E-1
-7.24884E-1,-2.30682E-1
-7.61261E-1,-2.02911E-1
-8.00872E-1,-1.34765E-1
-8.06549E-1,-0.53985E-1
-7.97149E-1,0.10406E-1
-7.85461E-1,0.66070E-1
-8.00140E-1,1.05316E-1
-8.25103E-1,1.85943E-1
-8.05450E-1,2.76641E-1
-7.58056E-1,3.41857E-1
-7.14111E-1,3.88702E-1
-6.86889E-1,4.17511E-1
-6.90307E-1,4.83337E-1
-6.47888E-1,5.70465E-1
-5.90179E-1,6.26342E-1
-5.29205E-1,6.70593E-1
-4.64050E-1,6.91986E-1
-4.28863E-1,7.23815E-1
-3.58734E-1,7.89367E-1
-2.71850E-1,8.11157E-1
-2.10601E-1,8.25256E-1
-1.37085E-1,8.32611E-1
-0.92041E-1,8.16925E-1
-0.45074E-1,8.45886E-1
0.47149E-1,8.50677E-1
1.10534E-1,8.37249E-1
1.83166E-1,8.31024E-1
2.40509E-1,8.01727E-1
2.84149E-1,7.95623E-1
3.65234E-1,7.79968E-1
4.25872E-1,7.36541E-1
4.89929E-1,7.04528E-1
5.44464E-1,6.51275E-1
5.75958E-1,6.15448E-1
6.35009E-1,5.86151E-1
6.81762E-1,5.18798E-1
7.15454E-1,4.68872E-1
7.59094E-1,4.08844E-1
7.89245E-1,3.45703E-1
8.18267E-1,2.93518E-1
8.47229E-1,2.19726E-1
8.52783E-1,1.56341E-1
8.71795E-1,0.87097E-1
8.77716E-1,0.08911E-1
8.75427E-1,-0.63354E-1
8.74420E-1,-1.35101E-1
8.53088E-1,-2.00012E-1
8.38043E-1,-2.57934E-1
8.16070E-1,-3.24096E-1
7.95532E-1,-3.99993E-1
7.56958E-1,-4.70825E-1
7.16369E-1,-5.35369E-1
6.71020E-1,-5.85144E-1
6.25915E-1,-6.26312E-1
5.91644E-1,-6.76178E-1
5.21637E-1,-7.44232E-1
4.39758E-1,-7.90466E-1
3.60778E-1,-8.09692E-1
3.07128E-1,-8.18359E-1
END
BEGIN
-5.32379E-1,-1.13586E-1
-5.50598E-1,-0.53710E-1
-5.57952E-1,0.06713E-1
-5.61462E-1,0.56610E-1
-5.57342E-1,1.25030E-1
-5.38330E-1,1.86981E-1
-5.20263E-1,2.56225E-1
-4.92462E-1,3.10821E-1
-4.67956E-1,3.65936E-1
-4.28665E-1,4.14550E-1
-3.88382E-1,4.53277E-1
-3.37432E-1,4.95056E-1
-2.85766E-1,5.27038E-1
-2.30896E-1,5.66772E-1
-1.72271E-1,5.84777E-1
-1.11663E-1,5.99914E-1
-0.4599E-1,6.10046E-1
0.20629E-1,6.10626E-1
0.82397E-1,6.14196E-1
1.47430E-1,5.95001E-1
1.98822E-1,5.74707E-1
2.54547E-1,5.46875E-1
3.09631E-1,5.14007E-1
3.67004E-1,4.67086E-1
4.12017E-1,4.15878E-1
4.51080E-1,3.73931E-1
4.85824E-1,3.14331E-1
5.12512E-1,2.54821E-1
5.32928E-1,1.77825E-1
5.43029E-1,1.19445E-1
5.57098E-1,0.56488E-1
5.57525E-1,-0.06927E-1
5.46905E-1,-0.56793E-1
5.30334E-1,-1.12670E-1
5.10437E-1,-1.55395E-1
4.85809E-1,-2.23495E-1
4.45694E-1,-2.66555E-1
4.13421E-1,-3.02169E-1
3.82858E-1,-3.42590E-1
3.23440E-1,-3.79959E-1
2.71270E-1,-4.04373E-1
2.23022E-1,-4.21371E-1
1.71234E-1,-4.42047E-1
1.26968E-1,-4.52865E-1
0.65200E-1,-4.68917E-1
0.16159E-1,-4.60159E-1
-0.33172E-1,-4.51446E-1
-0.80246E-1,-4.43481E-1
-1.24038E-1,-4.20517E-1
-1.69158E-1,-4.13604E-1
-2.30072E-1,-3.64624E-1
-2.54303E-1,-3.35052E-1
-2.92175E-1,-3.19366E-1
-3.29452E-1,-2.86499E-1
-3.52157E-1,-2.56195E-1
-3.82217E-1,-2.10907E-1
-3.89282E-1,-1.68350E-1
-4.06127E-1,-1.32309E-1
-4.21661E-1,-0.84793E-1
-4.15786E-1,-0.41671E-1
-4.30114E-1,-0.05294E-1
-4.13345E-1,0.59234E-1
-4.00039E-1,0.88836E-1
-4.05792E-1,1.35131E-1
-3.87878E-1,1.88262E-1
-3.72085E-1,2.22839E-1
-3.48388E-1,2.73422E-1
-3.19702E-1,2.94876E-1
-2.97439E-1,3.23898E-1
-2.56088E-1,3.50418E-1
-2.15881E-1,3.55835E-1
-1.78314E-1,3.93325E-1
-1.0849E-1,4.06753E-1
-0.71517E-1,4.09286E-1
-0.29525E-1,4.30160E-1
0.21102E-1,4.26849E-1
0.68527E-1,4.22958E-1
1.25640E-1,4.06768E-1
1.65100E-1,3.96606E-1
2.07992E-1,3.93188E-1
2.49969E-1,3.73153E-1
2.72735E-1,3.36105E-1
2.98263E-1,3.03405E-1
3.32046E-1,2.61611E-1
3.61892E-1,2.21786E-1
3.95538E-1,1.77963E-1
4.07608E-1,1.28097E-1
4.16839E-1,0.93887E-1
4.24484E-1,0.40405E-1
4.25048E-1,-0.06530E-1
4.28787E-1,-0.49942E-1
4.23660E-1,-0.95047E-1
3.98666E-1,-1.24343E-1
3.88580E-1,-1.59439E-1
3.63891E-1,-2.09686E-1
3.34655E-1,-2.55081E-1
3.04046E-1,-2.97882E-1
2.65396E-1,-3.21853E-1
2.36160E-1,-3.47213E-1
1.89621E-1,-3.73291E-1
1.51168E-1,-3.96621E-1
1.24221E-1,-4.26330E-1
0.88577E-1,-4.51736E-1
0.58532E-1,-4.42016E-1
0.34637E-1,-4.39437E-1
-0.12115E-1,-4.38552E-1
-0.61874E-1,-4.41528E-1
-1.25442E-1,-4.42794E-1
-1.60446E-1,-4.16290E-1
-1.74728E-1,-4.10705E-1
-2.16049E-1,-3.95523E-1
-2.54821E-1,-3.66256E-1
-3.01330E-1,-3.44039E-1
-3.36349E-1,-3.14651E-1
-3.46313E-1,-3.00399E-1
-3.67706E-1,-2.90329E-1
-3.86459E-1,-2.59033E-1
-4.08981E-1,-2.24075E-1
-4.25048E-1,-1.71630E-1
-4.19082E-1,-1.42898E-1
-4.37271E-1,-1.31729E-1
-4.60754E-1,-0.96679E-1
-4.71939E-1,-0.56839E-1
-4.78744E-1,-0.13397E-1
-4.75662E-1,0.14343E-1
-4.83505E-1,0.32486E-1
-4.95285E-1,0.60653E-1
-4.97253E-1,1.00921E-1
-4.89791E-1,1.37603E-1
-4.71252E-1,1.67205E-1
-4.64340E-1,1.83288E-1
-4.64904E-1,2.11837E-1
-4.58816E-1,2.56210E-1
-4.35363E-1,3.00918E-1
-4.11727E-1,3.27102E-1
-4.02877E-1,3.53134E-1
-3.82278E-1,3.85070E-1
-3.66455E-1,4.13208E-1
-3.40683E-1,4.53369E-1
-3.09768E-1,4.73724E-1
-2.92999E-1,4.83718E-1
-2.66967E-1,5.00549E-1
-2.35076E-1,5.07965E-1
-2.04834E-1,5.34881E-1
-1.53259E-1,5.60577E-1
-1.16363E-1,5.65582E-1
-0.85662E-1,5.75744E-1
-0.39367E-1,5.73577E-1
0.06500E-1,5.82855E-1
0.83740E-1,5.91339E-1
1.27105E-1,5.76843E-1
1.44622E-1,5.85205E-1
1.78985E-1,5.82916E-1
2.05017E-1,5.56793E-1
2.53692E-1,5.45684E-1
3.10638E-1,5.04699E-1
3.41674E-1,4.84176E-1
3.80920E-1,4.70733E-1
4.11315E-1,4.26223E-1
4.36706E-1,3.87069E-1
4.84512E-1,3.27163E-1
5.08270E-1,2.79449E-1
5.42388E-1,2.58789E-1
5.78186E-1,2.16918E-1
5.65368E-1,1.70257E-1
5.71167E-1,1.41540E-1
5.84442E-1,0.74188E-1
5.79559E-1,0.23071E-1
5.89141E-1,-0.23834E-1
5.55603E-1,-0.81695E-1
5.19561E-1,-1.03576E-1
5.01190E-1,-1.66015E-1
4.61837E-1,-2.28012E-1
4.44595E-1,-2.82074E-1
4.09591E-1,-3.37036E-1
3.63678E-1,-3.37158E-1
3.48846E-1,-3.55087E-1
2.88497E-1,-3.92578E-1
2.34069E-1,-4.13375E-1
1.85974E-1,-4.48043E-1
1.31698E-1,-4.40383E-1
1.20681E-1,-4.27063E-1
0.64666E-1,-4.31091E-1
-0.03662E-1,-4.09301E-1
-0.65734E-1,-4.16275E-1
-1.38366E-1,-4.03900E-1
-1.42089E-1,-3.78799E-1
-1.63879E-1,-3.84689E-1
-2.0224E-1,-3.38821E-1
-2.27020E-1,-3.13919E-1
-2.92327E-1,-2.91427E-1
-3.09738E-1,-2.42172E-1
-3.02047E-1,-2.36434E-1
-3.11676E-1,-1.95144E-1
-3.06823E-1,-1.46774E-1
-3.52020E-1,-1.00494E-1
-3.75747E-1,-0.23605E-1
-3.55026E-1,-0.19546E-1
-3.63723E-1,-0.05783E-1
-3.33389E-1,0.23376E-1
-3.47488E-1,0.56686E-1
END
