CITIFILE A.01.01
#NA VERSION HP8510C.08.10
NAME DATA
#NA REGISTER 1
VAR FREQ MAG 201
DATA S[1,1] RI
DATA S[2,1] RI
DATA S[1,2] RI
DATA S[2,2] RI
SEG_LIST_BEGIN
SEG 8000000000 12000000000 201
SEG_LIST_END
COMMENT       YEAR MONTH DAY HOUR MINUTE SECONDS
CONSTANT TIME 2013   09   26  19    49    27.0
BEGIN
-4.8172E-1,-2.54699E-1
-5.04394E-1,-2.02789E-1
-5.23712E-1,-1.40258E-1
-5.39733E-1,-0.93322E-1
-5.53527E-1,-0.37109E-1
-5.46142E-1,0.11627E-1
-5.40161E-1,0.65094E-1
-5.25878E-1,1.19110E-1
-5.20233E-1,1.82861E-1
-5.01373E-1,2.38952E-1
-4.78271E-1,2.78183E-1
-4.44625E-1,3.18267E-1
-4.07577E-1,3.55606E-1
-3.68881E-1,4.11163E-1
-3.21273E-1,4.50668E-1
-2.83142E-1,4.79827E-1
-2.35748E-1,5.00793E-1
-1.86004E-1,5.10009E-1
-1.362E-1,5.35827E-1
-0.62530E-1,5.47821E-1
-0.08941E-1,5.51788E-1
0.38818E-1,5.50994E-1
0.83374E-1,5.37689E-1
1.33422E-1,5.19958E-1
1.87347E-1,5.00122E-1
2.35961E-1,4.85900E-1
2.79022E-1,4.65133E-1
3.15307E-1,4.39559E-1
3.50830E-1,3.98040E-1
3.82217E-1,3.68499E-1
4.30175E-1,3.26416E-1
4.63897E-1,2.77328E-1
4.83596E-1,2.39166E-1
4.95300E-1,1.90368E-1
5.04943E-1,1.51489E-1
5.27343E-1,0.77819E-1
5.21667E-1,0.20233E-1
5.24505E-1,-0.17852E-1
5.26733E-1,-0.59570E-1
5.06195E-1,-1.08520E-1
4.85336E-1,-1.61636E-1
4.56970E-1,-2.05902E-1
4.41299E-1,-2.51113E-1
4.24423E-1,-2.86987E-1
3.96316E-1,-3.24066E-1
3.64563E-1,-3.47671E-1
3.12118E-1,-3.77777E-1
2.74627E-1,-4.02572E-1
2.40417E-1,-4.28543E-1
2.12326E-1,-4.54437E-1
1.61544E-1,-4.58206E-1
1.22512E-1,-4.56558E-1
0.81039E-1,-4.62966E-1
0.34118E-1,-4.73739E-1
-0.04303E-1,-4.78454E-1
-0.44311E-1,-4.77478E-1
-0.78323E-1,-4.66461E-1
-1.21414E-1,-4.44595E-1
-1.64306E-1,-4.27429E-1
-2.00347E-1,-4.07135E-1
-2.28866E-1,-4.04022E-1
-2.59048E-1,-3.77410E-1
-2.73117E-1,-3.42392E-1
-3.67263E-1,-3.60534E-1
-3.52966E-1,-2.65319E-1
-3.56597E-1,-2.66769E-1
-3.79257E-1,-2.41439E-1
-3.87756E-1,-2.16857E-1
-3.90945E-1,-1.75201E-1
-4.00054E-1,-1.33300E-1
-4.05441E-1,-0.96069E-1
-4.23111E-1,-0.76095E-1
-4.22348E-1,-0.46478E-1
-3.99749E-1,-0.24917E-1
-3.94378E-1,-0.04409E-1
-3.94958E-1,0.34988E-1
-4.01763E-1,0.70114E-1
-4.00543E-1,0.98327E-1
-3.99459E-1,1.14120E-1
-3.86749E-1,1.34796E-1
-3.69323E-1,1.75994E-1
-3.36624E-1,2.15194E-1
-3.26141E-1,2.41226E-1
-3.19747E-1,2.68768E-1
-2.97912E-1,2.76672E-1
-2.79327E-1,2.92907E-1
-2.37365E-1,3.20846E-1
-2.09579E-1,3.42117E-1
-1.84982E-1,3.70407E-1
-1.63162E-1,3.86276E-1
-1.41159E-1,3.94546E-1
-0.96862E-1,4.06478E-1
-0.44418E-1,3.98330E-1
-0.13214E-1,4.10644E-1
0.24536E-1,4.21447E-1
0.50827E-1,4.14657E-1
0.79849E-1,4.08309E-1
1.25442E-1,3.87115E-1
1.69342E-1,3.78692E-1
2.19375E-1,3.67553E-1
2.54348E-1,3.55819E-1
2.82379E-1,3.40179E-1
3.27392E-1,3.00537E-1
3.55850E-1,2.35366E-1
3.88977E-1,1.90719E-1
4.22393E-1,1.49871E-1
4.30892E-1,1.12106E-1
4.35913E-1,0.67459E-1
4.21096E-1,0.02441E-1
4.18823E-1,-0.52291E-1
4.25903E-1,-1.14807E-1
4.20425E-1,-1.58233E-1
4.07791E-1,-1.89682E-1
3.75E-1,-2.38006E-1
3.23745E-1,-2.89245E-1
2.82196E-1,-3.44467E-1
2.47299E-1,-3.86840E-1
2.18505E-1,-4.10583E-1
1.70562E-1,-4.24133E-1
1.09695E-1,-4.23004E-1
0.48660E-1,-4.47097E-1
-0.14480E-1,-4.66125E-1
-0.53649E-1,-4.78485E-1
-0.89996E-1,-4.75585E-1
-1.38076E-1,-4.54467E-1
-2.05322E-1,-4.35348E-1
-2.80395E-1,-4.07302E-1
-3.22753E-1,-3.91830E-1
-3.56277E-1,-3.76800E-1
-3.85177E-1,-3.34030E-1
-4.13650E-1,-2.77740E-1
-4.64050E-1,-2.14767E-1
-4.94720E-1,-1.70944E-1
-5.18249E-1,-1.50390E-1
-5.29083E-1,-1.15234E-1
-5.23712E-1,-0.58013E-1
-5.32531E-1,0.16754E-1
-5.35095E-1,0.93536E-1
-5.47882E-1,1.28967E-1
-5.51940E-1,1.60217E-1
-5.23437E-1,1.98761E-1
-4.81582E-1,2.58697E-1
-4.37927E-1,3.31787E-1
-4.15573E-1,3.80050E-1
-4.11590E-1,4.14093E-1
-3.84017E-1,4.32525E-1
-3.30078E-1,4.47143E-1
-2.63122E-1,4.81170E-1
-1.94824E-1,5.24261E-1
-1.70867E-1,5.49652E-1
-1.59088E-1,5.70282E-1
-1.22222E-1,5.69335E-1
-0.48980E-1,5.58075E-1
0.37750E-1,5.50140E-1
0.98144E-1,5.50140E-1
1.28936E-1,5.67352E-1
1.60064E-1,5.66650E-1
1.97814E-1,5.25024E-1
2.41516E-1,4.79675E-1
3.01391E-1,4.43237E-1
3.42468E-1,4.26284E-1
3.78524E-1,4.28680E-1
4.06387E-1,3.94058E-1
4.27291E-1,3.32916E-1
4.55764E-1,2.64816E-1
4.90737E-1,2.08816E-1
5.18219E-1,1.68548E-1
5.29174E-1,1.30371E-1
5.12756E-1,0.75775E-1
4.83718E-1,0.20675E-1
4.77874E-1,-0.38147E-1
4.70687E-1,-0.83648E-1
4.78775E-1,-1.07284E-1
4.62905E-1,-1.38061E-1
4.22790E-1,-1.69174E-1
3.86688E-1,-2.18719E-1
3.52493E-1,-2.73117E-1
3.41827E-1,-3.05252E-1
3.28842E-1,-3.34030E-1
2.86254E-1,-3.39416E-1
2.36755E-1,-3.39798E-1
1.76834E-1,-3.65234E-1
1.32766E-1,-3.84155E-1
1.23489E-1,-4.16259E-1
1.02706E-1,-4.21142E-1
0.80520E-1,-3.98300E-1
0.31158E-1,-3.89617E-1
-0.42785E-1,-3.85818E-1
-0.89309E-1,-3.99459E-1
-1.20758E-1,-4.15542E-1
-1.29898E-1,-3.98437E-1
-1.37985E-1,-3.72528E-1
-1.94183E-1,-3.31405E-1
-2.40737E-1,-2.80288E-1
-2.78732E-1,-2.81997E-1
-2.98080E-1,-2.79144E-1
-2.82211E-1,-2.69790E-1
-2.93640E-1,-2.42172E-1
-3.24325E-1,-1.63421E-1
-3.45611E-1,-1.23123E-1
-3.82263E-1,-1.08673E-1
END
BEGIN
-8.73352E-1,1.18286E-1
-7.88879E-1,1.98883E-1
-7.97027E-1,2.34832E-1
-7.73651E-1,3.66790E-1
-7.03613E-1,4.27368E-1
-6.53686E-1,5.23498E-1
-5.21087E-1,5.58319E-1
-4.87731E-1,5.20568E-1
-4.86785E-1,5.78430E-1
-4.27703E-1,6.18469E-1
-3.97338E-1,6.74346E-1
-2.80334E-1,7.13562E-1
-2.44323E-1,6.65222E-1
-2.57141E-1,7.33184E-1
-1.43951E-1,7.94860E-1
-0.81176E-1,8.00903E-1
0.36010E-1,8.33282E-1
1.18133E-1,7.48138E-1
1.01470E-1,7.53662E-1
1.96991E-1,8.02398E-1
2.72247E-1,7.78747E-1
3.76586E-1,8.04718E-1
5.05950E-1,6.99981E-1
5.05157E-1,6.39984E-1
5.99151E-1,6.34918E-1
6.63604E-1,5.25054E-1
7.06420E-1,4.87457E-1
7.91778E-1,3.47869E-1
7.09777E-1,2.33795E-1
6.94000E-1,2.45575E-1
7.22015E-1,1.93450E-1
7.20916E-1,1.76940E-1
7.99194E-1,1.21948E-1
7.65167E-1,0.09246E-1
7.49969E-1,0.25909E-1
8.35784E-1,-0.18585E-1
8.67919E-1,-1.14074E-1
9.33349E-1,-2.40051E-1
8.42804E-1,-4.49737E-1
7.10907E-1,-4.50897E-1
7.26409E-1,-4.91546E-1
6.54693E-1,-5.84594E-1
6.19201E-1,-6.17828E-1
5.46112E-1,-7.34222E-1
4.12048E-1,-7.18658E-1
4.27154E-1,-7.12524E-1
3.66699E-1,-8.06884E-1
2.89794E-1,-8.17535E-1
2.32116E-1,-9.09088E-1
0.32775E-1,-9.22027E-1
-0.28839E-1,-8.25744E-1
-0.69061E-1,-8.30078E-1
-1.34216E-1,-7.93029E-1
-1.52618E-1,-7.98126E-1
-2.57812E-1,-8.11554E-1
-3.17291E-1,-7.41119E-1
-3.45916E-1,-7.41210E-1
-4.19738E-1,-7.16461E-1
-4.58892E-1,-7.12524E-1
-5.91949E-1,-7.12371E-1
-6.84600E-1,-5.65856E-1
-6.76696E-1,-4.91699E-1
-7.15942E-1,-4.24682E-1
-6.87530E-1,-3.59954E-1
-7.32757E-1,-3.73504E-1
-8.05358E-1,-2.75787E-1
-7.7948E-1,-2.05719E-1
-8.15033E-1,-1.80328E-1
-8.43689E-1,-1.02813E-1
-8.80340E-1,-0.49835E-1
-9.28649E-1,0.88073E-1
-8.51684E-1,2.07855E-1
-8.18481E-1,2.54974E-1
-7.66052E-1,3.39202E-1
-7.07122E-1,3.53302E-1
-7.06817E-1,3.95355E-1
-6.58294E-1,4.48913E-1
-6.45477E-1,4.67346E-1
-6.30065E-1,5.39642E-1
-5.82611E-1,5.75378E-1
-5.86486E-1,6.33117E-1
-5.29693E-1,7.35961E-1
-4.47174E-1,7.88024E-1
-3.54370E-1,8.51501E-1
-2.37060E-1,8.35876E-1
-2.17804E-1,8.31695E-1
-1.41449E-1,8.96362E-1
-0.42816E-1,8.73443E-1
-0.03051E-1,8.81286E-1
0.85296E-1,8.86657E-1
1.26434E-1,8.72222E-1
2.06848E-1,9.29321E-1
3.60137E-1,9.02130E-1
4.33929E-1,8.33129E-1
5.16998E-1,7.82074E-1
5.59143E-1,6.92932E-1
5.88043E-1,6.65130E-1
6.59332E-1,6.02722E-1
6.69555E-1,5.39032E-1
7.12524E-1,5.22277E-1
7.71026E-1,4.65881E-1
8.01422E-1,4.22210E-1
8.76464E-1,3.70086E-1
9.21844E-1,2.68402E-1
9.55566E-1,1.88781E-1
1.00457E0,0.65612E-1
9.64569E-1,-0.65521E-1
9.32403E-1,-1.31256E-1
9.14276E-1,-2.16857E-1
8.71246E-1,-2.93121E-1
8.38928E-1,-3.69232E-1
7.75878E-1,-4.40521E-1
7.33001E-1,-4.65026E-1
7.2052E-1,-5.20111E-1
6.79168E-1,-5.91918E-1
6.21093E-1,-6.54266E-1
5.46966E-1,-7.17437E-1
4.63317E-1,-7.47894E-1
4.01580E-1,-7.77313E-1
3.18450E-1,-8.09539E-1
2.40600E-1,-8.03192E-1
1.84326E-1,-8.02764E-1
1.18927E-1,-8.03344E-1
0.60241E-1,-7.95166E-1
0.04303E-1,-7.94433E-1
-0.55450E-1,-7.85553E-1
-0.99060E-1,-7.72033E-1
-1.45752E-1,-7.76641E-1
-2.15454E-1,-7.71972E-1
-2.89398E-1,-7.49572E-1
-3.58154E-1,-7.05841E-1
-3.99200E-1,-6.59179E-1
-4.30267E-1,-6.34185E-1
-4.74548E-1,-6.06048E-1
-5.21026E-1,-5.67321E-1
-5.59936E-1,-5.18310E-1
-5.84747E-1,-4.71038E-1
-6.06994E-1,-4.37286E-1
-6.48651E-1,-4.10186E-1
-6.91711E-1,-3.60595E-1
-7.23449E-1,-3.06060E-1
-7.51190E-1,-2.40539E-1
-7.61779E-1,-1.73492E-1
-7.69317E-1,-1.16241E-1
-7.74169E-1,-0.58349E-1
-7.77435E-1,0.01281E-1
-7.72918E-1,0.68298E-1
-7.50946E-1,1.20086E-1
-7.30835E-1,1.62414E-1
-7.29583E-1,1.91955E-1
-7.40600E-1,2.48443E-1
-7.37274E-1,3.17810E-1
-7.12188E-1,3.94287E-1
-6.66290E-1,4.53552E-1
-6.27960E-1,4.83154E-1
-6.15875E-1,5.32196E-1
-5.73852E-1,6.01532E-1
-5.09552E-1,6.50238E-1
-4.60540E-1,6.83197E-1
-4.09729E-1,7.09960E-1
-3.78875E-1,7.42706E-1
-3.27911E-1,8.02887E-1
-2.5354E-1,8.40301E-1
-1.74499E-1,8.71673E-1
-0.86364E-1,8.87329E-1
-0.14373E-1,8.89770E-1
0.57739E-1,9.00543E-1
1.48529E-1,8.94866E-1
2.28942E-1,8.66272E-1
2.98919E-1,8.34198E-1
3.63098E-1,7.93121E-1
3.99292E-1,7.66204E-1
4.72168E-1,7.54547E-1
5.35797E-1,7.16186E-1
6.01806E-1,6.73858E-1
6.57348E-1,6.05011E-1
6.88995E-1,5.49499E-1
7.46154E-1,5.00305E-1
7.84393E-1,4.27093E-1
8.19122E-1,3.67858E-1
8.49578E-1,2.91961E-1
8.58612E-1,2.23297E-1
8.80615E-1,1.63513E-1
8.88580E-1,0.70159E-1
8.83606E-1,0.13000E-1
8.97705E-1,-0.67810E-1
8.72039E-1,-1.39831E-1
8.73260E-1,-1.96289E-1
8.50311E-1,-2.88604E-1
7.94738E-1,-3.33404E-1
7.87139E-1,-3.87451E-1
7.46612E-1,-4.54650E-1
7.38403E-1,-5.02075E-1
7.06848E-1,-6.03820E-1
6.1203E-1,-6.60308E-1
5.71014E-1,-6.83075E-1
4.99969E-1,-7.38861E-1
4.46838E-1,-7.40844E-1
4.17968E-1,-8.18512E-1
2.87994E-1,-8.67248E-1
2.23175E-1,-8.31054E-1
END
BEGIN
-7.66967E-1,1.02935E-1
-7.88391E-1,1.68060E-1
-7.12158E-1,2.80487E-1
-6.67022E-1,2.50915E-1
-7.41455E-1,3.19488E-1
-6.76025E-1,4.43267E-1
-6.48132E-1,4.83856E-1
-5.79986E-1,6.00585E-1
-4.77081E-1,5.83801E-1
-5.19989E-1,6.05926E-1
-4.54895E-1,7.42553E-1
-3.53149E-1,7.69470E-1
-2.58117E-1,8.30963E-1
-1.24481E-1,7.92236E-1
-1.31622E-1,7.65502E-1
-0.62042E-1,8.56567E-1
0.56640E-1,8.38958E-1
1.34033E-1,8.55133E-1
2.86071E-1,7.85980E-1
2.72460E-1,6.77185E-1
2.78442E-1,7.26959E-1
3.90960E-1,7.08313E-1
4.28955E-1,6.79565E-1
5.48645E-1,6.53411E-1
5.76416E-1,5.23315E-1
5.53222E-1,5.25360E-1
6.50299E-1,5.11535E-1
6.94397E-1,4.39575E-1
7.80670E-1,3.92120E-1
8.16558E-1,2.26959E-1
7.42553E-1,1.78222E-1
7.85553E-1,1.72485E-1
8.15551E-1,1.03576E-1
8.76434E-1,0.50872E-1
8.98284E-1,-1.39038E-1
7.56439E-1,-2.12982E-1
7.52655E-1,-1.86828E-1
7.80487E-1,-2.56958E-1
7.96844E-1,-3.19274E-1
8.04229E-1,-4.88159E-1
6.19598E-1,-5.80139E-1
5.59814E-1,-5.17334E-1
5.71258E-1,-5.54138E-1
5.50994E-1,-5.96038E-1
5.59906E-1,-7.13684E-1
3.84002E-1,-8.37280E-1
2.71667E-1,-7.53753E-1
2.74169E-1,-7.59857E-1
2.2052E-1,-7.88024E-1
2.07489E-1,-8.41613E-1
0.51452E-1,-9.57000E-1
-1.20147E-1,-8.55255E-1
-1.22192E-1,-7.92083E-1
-1.69097E-1,-7.91351E-1
-1.83563E-1,-7.81890E-1
-2.68249E-1,-8.63891E-1
-4.57702E-1,-7.8479E-1
-4.63531E-1,-6.63543E-1
-4.85351E-1,-6.45874E-1
-5.06744E-1,-6.07513E-1
-5.47607E-1,-6.50970E-1
-7.24273E-1,-5.96069E-1
-7.39685E-1,-4.24987E-1
1.38793E-1,-8.29437E-1
1.03302E-1,-8.36486E-1
-7.18841E-1,-3.29193E-1
-8.50158E-1,-3.19763E-1
-9.06829E-1,-1.32720E-1
-8.36639E-1,-0.57067E-1
-8.37738E-1,-0.13580E-1
-8.19824E-1,0.25604E-1
-8.89587E-1,0.45471E-1
-9.48364E-1,2.26898E-1
-8.35205E-1,3.48785E-1
-7.89611E-1,3.77441E-1
-7.40173E-1,4.36126E-1
-7.21038E-1,4.45282E-1
-7.50457E-1,5.48614E-1
-6.45141E-1,6.74926E-1
-5.47882E-1,6.93817E-1
-4.78576E-1,7.17620E-1
-4.39117E-1,7.07580E-1
-4.47601E-1,7.68951E-1
-3.38195E-1,8.70422E-1
-2.28546E-1,8.59680E-1
-1.54205E-1,8.76953E-1
-0.56701E-1,8.4375E-1
-0.56304E-1,8.19641E-1
-0.11718E-1,8.94653E-1
1.14105E-1,9.00695E-1
1.89514E-1,8.77380E-1
2.85217E-1,8.42315E-1
3.13415E-1,7.82379E-1
3.43658E-1,8.11370E-1
4.61181E-1,8.12866E-1
5.51239E-1,7.58850E-1
6.46972E-1,6.83227E-1
6.62200E-1,5.67443E-1
6.49353E-1,5.58258E-1
7.44964E-1,5.41717E-1
8.13659E-1,4.45678E-1
8.59497E-1,3.61114E-1
8.70086E-1,2.37152E-1
8.28643E-1,1.93695E-1
8.76525E-1,1.71661E-1
9.13757E-1,0.72143E-1
9.1745E-1,-0.06805E-1
9.22119E-1,-1.29913E-1
8.36975E-1,-2.09594E-1
8.25042E-1,-2.17712E-1
8.47320E-1,-3.02063E-1
8.16650E-1,-3.89862E-1
7.78747E-1,-4.89257E-1
6.60369E-1,-5.56091E-1
6.05499E-1,-5.3302E-1
6.09527E-1,-5.77697E-1
5.63324E-1,-6.52587E-1
5.02044E-1,-7.21283E-1
3.86261E-1,-7.62542E-1
3.14483E-1,-7.21588E-1
3.09326E-1,-7.21923E-1
2.72064E-1,-7.73345E-1
1.97814E-1,-8.16497E-1
0.90301E-1,-8.41583E-1
-0.00854E-1,-7.90344E-1
-0.12268E-1,-7.58911E-1
-0.38970E-1,-7.82959E-1
-1.09039E-1,-8.06854E-1
-2.07916E-1,-8.05603E-1
-3.00537E-1,-7.33062E-1
-3.08471E-1,-6.74163E-1
-3.18298E-1,-6.79168E-1
-3.78448E-1,-6.94549E-1
-4.64477E-1,-6.69433E-1
-5.32592E-1,-5.96313E-1
-5.48889E-1,-5.30944E-1
-5.61370E-1,-4.98901E-1
-5.94299E-1,-4.85595E-1
-6.55853E-1,-4.54376E-1
-7.09106E-1,-3.85620E-1
-7.25555E-1,-3.06152E-1
-7.26196E-1,-2.49450E-1
-7.31842E-1,-2.16613E-1
-7.68127E-1,-1.87561E-1
-8.06793E-1,-1.17919E-1
-8.10546E-1,-0.37200E-1
-7.99987E-1,0.28320E-1
-7.86926E-1,0.83435E-1
-8.01544E-1,1.23992E-1
-8.23730E-1,2.06878E-1
-8.02337E-1,2.96112E-1
-7.53509E-1,3.60565E-1
-7.07366E-1,4.05731E-1
-6.80236E-1,4.33227E-1
-6.82739E-1,5.00610E-1
-6.37268E-1,5.86853E-1
-5.78613E-1,6.43463E-1
-5.16418E-1,6.86035E-1
-4.49951E-1,7.06420E-1
-4.13726E-1,7.37762E-1
-3.41095E-1,8.00750E-1
-2.53875E-1,8.21136E-1
-1.90704E-1,8.34503E-1
-1.16577E-1,8.39355E-1
-0.72448E-1,8.22540E-1
-0.23742E-1,8.50311E-1
0.67413E-1,8.52386E-1
1.31042E-1,8.38043E-1
2.04193E-1,8.31268E-1
2.61138E-1,8.00445E-1
3.05023E-1,7.94006E-1
3.86749E-1,7.75360E-1
4.47265E-1,7.30835E-1
5.10620E-1,6.95892E-1
5.63781E-1,6.41113E-1
5.95764E-1,6.04187E-1
6.54785E-1,5.71807E-1
6.99462E-1,5.02777E-1
7.32147E-1,4.52453E-1
7.74139E-1,3.89801E-1
8.02673E-1,3.25531E-1
8.32061E-1,2.72155E-1
8.57025E-1,1.95800E-1
8.60565E-1,1.32415E-1
8.79730E-1,0.61126E-1
8.80676E-1,-0.16693E-1
8.76281E-1,-0.89019E-1
8.72375E-1,-1.62445E-1
8.48297E-1,-2.25280E-1
8.32672E-1,-2.82684E-1
8.08532E-1,-3.48114E-1
7.85064E-1,-4.23309E-1
7.44873E-1,-4.93835E-1
7.01751E-1,-5.56732E-1
6.55609E-1,-6.05560E-1
6.09191E-1,-6.47033E-1
5.71289E-1,-6.94976E-1
5.01281E-1,-7.60589E-1
4.17083E-1,-8.04321E-1
3.38012E-1,-8.19885E-1
2.83935E-1,-8.28155E-1
END
BEGIN
-5.45898E-1,-0.97839E-1
-5.62133E-1,-0.36346E-1
-5.67535E-1,0.25054E-1
-5.70129E-1,0.76660E-1
-5.62561E-1,1.47033E-1
-5.40008E-1,2.10083E-1
-5.18249E-1,2.79937E-1
-4.88159E-1,3.35418E-1
-4.60235E-1,3.91586E-1
-4.19052E-1,4.39086E-1
-3.76800E-1,4.76745E-1
-3.23852E-1,5.16204E-1
-2.70416E-1,5.46295E-1
-2.12158E-1,5.84320E-1
-1.52893E-1,6.00433E-1
-0.91705E-1,6.12976E-1
-0.24993E-1,6.19934E-1
0.41992E-1,6.17584E-1
1.04888E-1,6.18652E-1
1.69433E-1,5.96008E-1
2.21069E-1,5.73547E-1
2.75268E-1,5.42938E-1
3.29101E-1,5.07171E-1
3.84582E-1,4.57412E-1
4.27749E-1,4.02740E-1
4.65972E-1,3.57971E-1
4.99282E-1,2.95791E-1
5.23834E-1,2.34191E-1
5.40741E-1,1.56005E-1
5.48797E-1,0.96344E-1
5.59509E-1,0.30975E-1
5.58044E-1,-0.32287E-1
5.45623E-1,-0.82275E-1
5.27313E-1,-1.35101E-1
5.06164E-1,-1.76849E-1
4.78836E-1,-2.42492E-1
4.36492E-1,-2.83065E-1
4.02679E-1,-3.16680E-1
3.70880E-1,-3.55941E-1
3.09280E-1,-3.90670E-1
2.55844E-1,-4.11972E-1
2.07214E-1,-4.27063E-1
1.53900E-1,-4.45938E-1
1.08459E-1,-4.55490E-1
0.46493E-1,-4.69726E-1
-0.02029E-1,-4.58602E-1
-0.49575E-1,-4.47830E-1
-0.96252E-1,-4.37637E-1
-1.39114E-1,-4.12674E-1
-1.85607E-1,-4.03900E-1
-2.44491E-1,-3.51913E-1
-2.67440E-1,-3.22250E-1
-3.04748E-1,-3.05542E-1
-3.40835E-1,-2.70996E-1
-3.63250E-1,-2.39471E-1
-3.92150E-1,-1.93130E-1
-3.97872E-1,-1.51229E-1
-4.12887E-1,-1.16165E-1
-4.26483E-1,-0.68222E-1
-4.18746E-1,-0.25360E-1
-4.32037E-1,0.12802E-1
-4.13589E-1,0.78491E-1
-3.97140E-1,1.07727E-1
-4.66644E-1,1.98028E-1
-4.47357E-1,2.85949E-1
-3.66180E-1,2.39868E-1
-3.40393E-1,2.90329E-1
-3.12530E-1,3.10897E-1
-2.89749E-1,3.38867E-1
-2.48657E-1,3.62350E-1
-2.07931E-1,3.65997E-1
-1.67175E-1,4.02999E-1
-0.94467E-1,4.13970E-1
-0.56259E-1,4.16122E-1
-0.12420E-1,4.37118E-1
0.39001E-1,4.33075E-1
0.88272E-1,4.27215E-1
1.45874E-1,4.08798E-1
1.86050E-1,3.97369E-1
2.28576E-1,3.93508E-1
2.70416E-1,3.73214E-1
2.90939E-1,3.35235E-1
3.15170E-1,3.01116E-1
3.48083E-1,2.56439E-1
3.77288E-1,2.14492E-1
4.10644E-1,1.68441E-1
4.21279E-1,1.17492E-1
4.30053E-1,0.81985E-1
4.35058E-1,0.26886E-1
4.34112E-1,-0.21987E-1
4.36248E-1,-0.66146E-1
4.30206E-1,-1.11480E-1
4.04083E-1,-1.39648E-1
3.92059E-1,-1.74728E-1
3.64028E-1,-2.24792E-1
3.31329E-1,-2.70446E-1
2.97699E-1,-3.13751E-1
2.57492E-1,-3.38287E-1
2.25936E-1,-3.63464E-1
1.78375E-1,-3.88412E-1
1.38824E-1,-4.09652E-1
1.10549E-1,-4.38736E-1
0.73425E-1,-4.64080E-1
0.44387E-1,-4.53140E-1
0.22247E-1,-4.49295E-1
-0.24688E-1,-4.46044E-1
-0.74768E-1,-4.45343E-1
-1.39175E-1,-4.42962E-1
-1.74072E-1,-4.14215E-1
-1.88690E-1,-4.08294E-1
-2.29888E-1,-3.91845E-1
-2.67288E-1,-3.61022E-1
-3.12255E-1,-3.36532E-1
-3.46145E-1,-3.04763E-1
-3.55545E-1,-2.90634E-1
-3.77166E-1,-2.80212E-1
-3.93798E-1,-2.47985E-1
-4.14001E-1,-2.12387E-1
-4.26727E-1,-1.58981E-1
-4.18975E-1,-1.29333E-1
-4.37667E-1,-1.16561E-1
-4.60556E-1,-0.80276E-1
-4.71374E-1,-0.40298E-1
-4.76455E-1,0.03646E-1
-4.71450E-1,0.31204E-1
-4.78805E-1,0.50201E-1
-4.90600E-1,0.79345E-1
-4.93194E-1,1.18820E-1
-4.84420E-1,1.54403E-1
-4.64401E-1,1.81625E-1
-4.56344E-1,1.96624E-1
-4.54849E-1,2.26181E-1
-4.46746E-1,2.72674E-1
-4.22378E-1,3.17001E-1
-3.99215E-1,3.41690E-1
-3.89633E-1,3.66790E-1
-3.6763E-1,3.97155E-1
-3.50936E-1,4.24682E-1
-3.24676E-1,4.65011E-1
-2.94189E-1,4.85046E-1
-2.78320E-1,4.95407E-1
-2.51861E-1,5.10467E-1
-2.18963E-1,5.15899E-1
-1.8573E-1,5.41656E-1
-1.31774E-1,5.66009E-1
-0.93414E-1,5.69793E-1
-0.60974E-1,5.79254E-1
-0.13855E-1,5.75103E-1
0.34027E-1,5.81787E-1
1.13678E-1,5.86517E-1
1.56921E-1,5.70617E-1
1.76178E-1,5.78887E-1
2.09625E-1,5.75927E-1
2.33032E-1,5.48065E-1
2.81402E-1,5.33325E-1
3.36761E-1,4.87304E-1
3.68423E-1,4.64553E-1
4.08477E-1,4.47433E-1
4.36798E-1,4.00817E-1
4.60891E-1,3.58642E-1
5.05279E-1,2.95562E-1
5.26611E-1,2.45208E-1
5.61218E-1,2.21649E-1
5.93902E-1,1.77764E-1
5.78765E-1,1.33178E-1
5.82733E-1,1.05041E-1
5.89660E-1,0.39245E-1
5.81512E-1,-0.10498E-1
5.86761E-1,-0.58227E-1
5.48980E-1,-1.13067E-1
5.10772E-1,-1.33209E-1
4.87167E-1,-1.94915E-1
4.44274E-1,-2.54898E-1
4.22332E-1,-3.08883E-1
3.83773E-1,-3.61953E-1
3.38363E-1,-3.59710E-1
3.22921E-1,-3.76663E-1
2.60864E-1,-4.09668E-1
2.05963E-1,-4.26681E-1
1.55288E-1,-4.57046E-1
1.01821E-1,-4.45053E-1
0.91552E-1,-4.30831E-1
0.34851E-1,-4.30877E-1
-0.32119E-1,-4.04785E-1
-0.95794E-1,-4.07791E-1
-1.66717E-1,-3.91372E-1
-1.69281E-1,-3.66882E-1
-1.91604E-1,-3.71948E-1
-2.25097E-1,-3.26156E-1
-2.47726E-1,-3.01116E-1
-3.09814E-1,-2.75375E-1
-3.22616E-1,-2.24960E-1
-3.14224E-1,-2.19574E-1
-3.21777E-1,-1.76849E-1
-3.13781E-1,-1.28784E-1
-3.56903E-1,-0.79605E-1
-3.76098E-1,-0.00900E-1
-3.55041E-1,0.02624E-1
-3.63327E-1,0.17547E-1
-3.32336E-1,0.45288E-1
-3.46954E-1,0.78842E-1
END
