CITIFILE A.01.01
#NA VERSION HP8510C.08.10
NAME DATA
#NA REGISTER 4
VAR FREQ MAG 201
DATA S[1,1] RI
DATA S[2,1] RI
DATA S[1,2] RI
DATA S[2,2] RI
SEG_LIST_BEGIN
SEG 8000000000 12000000000 201
SEG_LIST_END
COMMENT       YEAR MONTH DAY HOUR MINUTE SECONDS
CONSTANT TIME 2013   09   26  19    34    11.0
BEGIN
-4.88388E-1,-2.39593E-1
-5.10589E-1,-1.87439E-1
-5.28320E-1,-1.24389E-1
-5.42388E-1,-0.75164E-1
-5.54107E-1,-0.16876E-1
-5.46203E-1,0.32989E-1
-5.39184E-1,0.87188E-1
-5.23834E-1,1.40502E-1
-5.15899E-1,2.04589E-1
-4.93881E-1,2.60025E-1
-4.68109E-1,2.99041E-1
-4.32846E-1,3.38363E-1
-3.94836E-1,3.74481E-1
-3.54644E-1,4.28482E-1
-3.06381E-1,4.66140E-1
-2.65930E-1,4.93835E-1
-2.17926E-1,5.13153E-1
-1.68335E-1,5.21118E-1
-1.18072E-1,5.45623E-1
-0.45074E-1,5.55297E-1
0.08270E-1,5.58532E-1
0.56427E-1,5.56121E-1
1.01928E-1,5.41168E-1
1.50665E-1,5.21698E-1
2.03643E-1,5.01342E-1
2.50488E-1,4.85382E-1
2.92526E-1,4.61990E-1
3.28613E-1,4.35012E-1
3.62655E-1,3.92318E-1
3.92623E-1,3.61358E-1
4.38308E-1,3.20678E-1
4.69055E-1,2.70523E-1
4.86984E-1,2.31658E-1
4.97833E-1,1.83624E-1
5.06225E-1,1.45507E-1
5.27069E-1,0.72845E-1
5.20721E-1,0.16998E-1
5.22277E-1,-0.19897E-1
5.23651E-1,-0.60424E-1
5.02319E-1,-1.09466E-1
4.81658E-1,-1.6185E-1
4.53918E-1,-2.04422E-1
4.38766E-1,-2.48764E-1
4.22226E-1,-2.83462E-1
3.93341E-1,-3.19961E-1
3.61160E-1,-3.42727E-1
3.0867E-1,-3.71902E-1
2.71682E-1,-3.96087E-1
2.38632E-1,-4.21691E-1
2.10678E-1,-4.47189E-1
1.60263E-1,-4.51156E-1
1.21276E-1,-4.48562E-1
0.81314E-1,-4.55032E-1
0.34469E-1,-4.66140E-1
-0.05706E-1,-4.70871E-1
-0.45318E-1,-4.70886E-1
-0.79772E-1,-4.59823E-1
-1.22741E-1,-4.37469E-1
-1.65313E-1,-4.19815E-1
-2.02133E-1,-3.99337E-1
-2.31475E-1,-3.96209E-1
-2.62802E-1,-3.66745E-1
-2.73941E-1,-3.32244E-1
-2.97500E-1,-3.11279E-1
-3.34549E-1,-2.82348E-1
-3.58871E-1,-2.57888E-1
-3.81881E-1,-2.31613E-1
-3.91418E-1,-2.06375E-1
-3.95263E-1,-1.63360E-1
-4.04144E-1,-1.19751E-1
-4.09988E-1,-0.82626E-1
-4.27398E-1,-0.59906E-1
-4.25903E-1,-0.28732E-1
-4.02313E-1,-0.06469E-1
-3.95950E-1,0.16082E-1
-3.95446E-1,0.56793E-1
-4.00390E-1,0.92666E-1
-3.97140E-1,1.20681E-1
-3.94577E-1,1.37435E-1
-3.80416E-1,1.59286E-1
-3.59497E-1,2.00042E-1
-3.24996E-1,2.38678E-1
-3.13476E-1,2.62924E-1
-3.05252E-1,2.90649E-1
-2.82531E-1,2.97332E-1
-2.62374E-1,3.12637E-1
-2.19940E-1,3.3815E-1
-1.89544E-1,3.58734E-1
-1.65100E-1,3.84613E-1
-1.43081E-1,3.99078E-1
-1.19628E-1,4.06997E-1
-0.74996E-1,4.16854E-1
-0.23162E-1,4.06112E-1
0.08194E-1,4.15878E-1
0.45394E-1,4.24057E-1
0.70358E-1,4.14688E-1
0.98739E-1,4.05929E-1
1.42944E-1,3.84048E-1
1.85226E-1,3.73214E-1
2.32193E-1,3.61801E-1
2.64251E-1,3.49380E-1
2.89703E-1,3.32962E-1
3.32656E-1,2.92724E-1
3.59222E-1,2.28057E-1
3.89587E-1,1.84997E-1
4.21020E-1,1.44805E-1
4.27642E-1,1.09634E-1
4.31732E-1,0.66009E-1
4.15847E-1,0.02990E-1
4.13589E-1,-0.50384E-1
4.19815E-1,-1.11022E-1
4.13559E-1,-1.52343E-1
4.02038E-1,-1.82739E-1
3.69781E-1,-2.29675E-1
3.19244E-1,-2.80624E-1
2.77648E-1,-3.34503E-1
2.42599E-1,-3.75579E-1
2.13699E-1,-3.98941E-1
1.66000E-1,-4.11987E-1
1.05148E-1,-4.10965E-1
0.45883E-1,-4.34417E-1
-0.17166E-1,-4.52972E-1
-0.55282E-1,-4.64035E-1
-0.91964E-1,-4.59991E-1
-1.40426E-1,-4.38491E-1
-2.08023E-1,-4.18365E-1
-2.81494E-1,-3.90731E-1
-3.23425E-1,-3.75076E-1
-3.55316E-1,-3.58810E-1
-3.83651E-1,-3.14498E-1
-4.11209E-1,-2.57217E-1
-4.60220E-1,-1.93283E-1
-4.90661E-1,-1.51321E-1
-5.12512E-1,-1.30401E-1
-5.21942E-1,-0.94818E-1
-5.14862E-1,-0.36987E-1
-5.21209E-1,0.38726E-1
-5.22766E-1,1.14990E-1
-5.36102E-1,1.48651E-1
-5.39856E-1,1.79290E-1
-5.11566E-1,2.15881E-1
-4.68338E-1,2.74993E-1
-4.22744E-1,3.48022E-1
-4.00985E-1,3.96347E-1
-3.95431E-1,4.31213E-1
-3.66882E-1,4.49508E-1
-3.13247E-1,4.62905E-1
-2.44873E-1,4.97634E-1
-1.77276E-1,5.37200E-1
-1.55334E-1,5.62072E-1
-1.42120E-1,5.81298E-1
-1.05163E-1,5.78613E-1
-0.30487E-1,5.66650E-1
0.58136E-1,5.56884E-1
1.16851E-1,5.56854E-1
1.47674E-1,5.73272E-1
1.78741E-1,5.70800E-1
2.15789E-1,5.28350E-1
2.60009E-1,4.81216E-1
3.18283E-1,4.42489E-1
3.58917E-1,4.26147E-1
3.93768E-1,4.27841E-1
4.20135E-1,3.92547E-1
4.38354E-1,3.30703E-1
4.65866E-1,2.61688E-1
5.00610E-1,2.05535E-1
5.27191E-1,1.66137E-1
5.36865E-1,1.28051E-1
5.19836E-1,0.73455E-1
4.89975E-1,0.18051E-1
4.82284E-1,-0.41290E-1
4.73968E-1,-0.86792E-1
4.81430E-1,-1.09115E-1
4.64706E-1,-1.39160E-1
4.23690E-1,-1.70196E-1
3.862E-1,-2.19574E-1
3.50601E-1,-2.72216E-1
3.38607E-1,-3.03436E-1
3.24905E-1,-3.30886E-1
2.81906E-1,-3.35556E-1
2.32070E-1,-3.35022E-1
1.72378E-1,-3.59863E-1
1.28601E-1,-3.76586E-1
1.19339E-1,-4.07211E-1
0.98861E-1,-4.10583E-1
0.77728E-1,-3.85864E-1
0.28137E-1,-3.77288E-1
-0.46463E-1,-3.73092E-1
-0.91751E-1,-3.862E-1
-1.22589E-1,-4.03518E-1
-1.29837E-1,-3.85986E-1
-1.37085E-1,-3.59329E-1
-1.94915E-1,-3.16314E-1
-2.41500E-1,-2.64038E-1
-2.79037E-1,-2.66540E-1
-2.97668E-1,-2.64083E-1
-2.80502E-1,-2.54943E-1
-2.91732E-1,-2.26852E-1
-3.22189E-1,-1.44790E-1
-3.42758E-1,-1.03958E-1
-3.79333E-1,-0.89340E-1
END
BEGIN
-8.6203E-1,1.25427E-1
-7.78686E-1,2.04437E-1
-7.84942E-1,2.40814E-1
-7.60833E-1,3.69201E-1
-6.91864E-1,4.29534E-1
-6.42395E-1,5.23681E-1
-5.10589E-1,5.57098E-1
-4.77081E-1,5.19409E-1
-4.76287E-1,5.75164E-1
-4.18335E-1,6.13952E-1
-3.87329E-1,6.69616E-1
-2.72399E-1,7.07031E-1
-2.36785E-1,6.59729E-1
-2.49511E-1,7.26165E-1
-1.37146E-1,7.85797E-1
-0.75866E-1,7.91778E-1
0.39764E-1,8.23883E-1
1.20758E-1,7.38891E-1
1.03393E-1,7.44506E-1
1.97540E-1,7.92846E-1
2.71148E-1,7.69256E-1
3.75091E-1,7.95806E-1
5.03082E-1,6.92443E-1
5.00915E-1,6.32476E-1
5.94818E-1,6.28356E-1
6.58416E-1,5.20324E-1
7.01049E-1,4.84497E-1
7.87323E-1,3.45550E-1
7.06054E-1,2.31018E-1
6.89971E-1,2.44049E-1
7.18170E-1,1.92443E-1
7.17193E-1,1.76452E-1
7.96752E-1,1.22497E-1
7.63549E-1,0.08667E-1
7.48504E-1,0.24719E-1
8.35052E-1,-0.19592E-1
8.67919E-1,-1.15783E-1
9.33013E-1,-2.42370E-1
8.42468E-1,-4.50958E-1
7.10662E-1,-4.54223E-1
7.25647E-1,-4.95941E-1
6.52801E-1,-5.88714E-1
6.15814E-1,-6.23352E-1
5.42724E-1,-7.38891E-1
4.08660E-1,-7.22106E-1
4.21691E-1,-7.17346E-1
3.59039E-1,-8.11706E-1
2.83477E-1,-8.21594E-1
2.21954E-1,-9.11193E-1
0.24322E-1,-9.22668E-1
-0.36254E-1,-8.2724E-1
-0.77423E-1,-8.31298E-1
-1.44073E-1,-7.93182E-1
-1.63177E-1,-7.97210E-1
-2.68676E-1,-8.08319E-1
-3.26660E-1,-7.36969E-1
-3.55957E-1,-7.35290E-1
-4.29351E-1,-7.09137E-1
-4.68231E-1,-7.03460E-1
-5.99243E-1,-7.00561E-1
-6.89575E-1,-5.54199E-1
-6.79901E-1,-4.81384E-1
-7.19329E-1,-4.14398E-1
-6.96960E-1,-3.51165E-1
-7.36450E-1,-3.57910E-1
-8.05328E-1,-2.62817E-1
-7.77954E-1,-1.92932E-1
-8.12713E-1,-1.67236E-1
-8.38592E-1,-0.90118E-1
-8.73504E-1,-0.38116E-1
-9.20929E-1,0.96710E-1
-8.43322E-1,2.16461E-1
-8.09906E-1,2.62908E-1
-7.56469E-1,3.46405E-1
-6.96563E-1,3.60321E-1
-6.96533E-1,3.99902E-1
-6.47613E-1,4.52941E-1
-6.33361E-1,4.70550E-1
-6.17797E-1,5.40771E-1
-5.70343E-1,5.76385E-1
-5.74127E-1,6.30645E-1
-5.19683E-1,7.33062E-1
-4.36431E-1,7.84851E-1
-3.45672E-1,8.47686E-1
-2.27539E-1,8.32336E-1
-2.08892E-1,8.26232E-1
-1.33026E-1,8.90258E-1
-0.34912E-1,8.66973E-1
0.03387E-1,8.73718E-1
0.91461E-1,8.79028E-1
1.32293E-1,8.63250E-1
2.10693E-1,9.19586E-1
3.62121E-1,8.94134E-1
4.36492E-1,8.23852E-1
5.17089E-1,7.74078E-1
5.59387E-1,6.85485E-1
5.88317E-1,6.57104E-1
6.58264E-1,5.95489E-1
6.68273E-1,5.31921E-1
7.11395E-1,5.16296E-1
7.69714E-1,4.59045E-1
8.00842E-1,4.15283E-1
8.75152E-1,3.63006E-1
9.19830E-1,2.612E-1
9.53033E-1,1.81335E-1
9.99511E-1,0.58624E-1
9.59838E-1,-0.68695E-1
9.28070E-1,-1.35925E-1
9.08752E-1,-2.22473E-1
8.66516E-1,-2.96478E-1
8.35022E-1,-3.72100E-1
7.71148E-1,-4.42535E-1
7.29309E-1,-4.68658E-1
7.16339E-1,-5.24322E-1
6.73919E-1,-5.9729E-1
6.13922E-1,-6.58996E-1
5.40435E-1,-7.21038E-1
4.5755E-1,-7.51129E-1
3.94836E-1,-7.80181E-1
3.10607E-1,-8.12652E-1
2.32757E-1,-8.05633E-1
1.77307E-1,-8.05511E-1
1.08856E-1,-8.05786E-1
0.50567E-1,-7.97332E-1
-0.07080E-1,-7.95623E-1
-0.66497E-1,-7.84668E-1
-1.10382E-1,-7.69226E-1
-1.56799E-1,-7.72796E-1
-2.27874E-1,-7.66357E-1
-3.01025E-1,-7.43255E-1
-3.69689E-1,-6.97601E-1
-4.08508E-1,-6.49444E-1
-4.37957E-1,-6.23504E-1
-4.82391E-1,-5.94268E-1
-5.27252E-1,-5.54382E-1
-5.64697E-1,-5.05828E-1
-5.88897E-1,-4.56695E-1
-6.08459E-1,-4.23370E-1
-6.48834E-1,-3.95996E-1
-6.90490E-1,-3.45397E-1
-7.20001E-1,-2.91717E-1
-7.46185E-1,-2.26196E-1
-7.54486E-1,-1.59179E-1
-7.59826E-1,-1.04034E-1
-7.63580E-1,-0.45959E-1
-7.66021E-1,0.10437E-1
-7.60742E-1,0.76446E-1
-7.38372E-1,1.27563E-1
-7.16583E-1,1.67327E-1
-7.16308E-1,1.94763E-1
-7.27203E-1,2.49786E-1
-7.23724E-1,3.17749E-1
-6.99890E-1,3.93310E-1
-6.53350E-1,4.50592E-1
-6.17065E-1,4.78149E-1
-6.05102E-1,5.26519E-1
-5.63964E-1,5.94726E-1
-5.02533E-1,6.41967E-1
-4.54162E-1,6.76208E-1
-4.03106E-1,7.02117E-1
-3.74298E-1,7.34558E-1
-3.24066E-1,7.94525E-1
-2.51464E-1,8.32183E-1
-1.74072E-1,8.64990E-1
-0.85022E-1,8.80767E-1
-0.14221E-1,8.83544E-1
0.57037E-1,8.94744E-1
1.47399E-1,8.89373E-1
2.27661E-1,8.62762E-1
2.98461E-1,8.31298E-1
3.62091E-1,7.90283E-1
3.99261E-1,7.63824E-1
4.72991E-1,7.51434E-1
5.35858E-1,7.13775E-1
6.02356E-1,6.71478E-1
6.58569E-1,6.03179E-1
6.90948E-1,5.46417E-1
7.48657E-1,4.98474E-1
7.87323E-1,4.24102E-1
8.21960E-1,3.638E-1
8.51989E-1,2.88421E-1
8.61236E-1,2.18689E-1
8.82965E-1,1.57714E-1
8.91449E-1,0.64361E-1
8.85986E-1,0.05950E-1
8.99047E-1,-0.76293E-1
8.72772E-1,-1.48651E-1
8.73535E-1,-2.05474E-1
8.47961E-1,-2.98767E-1
7.92266E-1,-3.42681E-1
7.83203E-1,-3.97735E-1
7.41394E-1,-4.63989E-1
7.31201E-1,-5.13641E-1
6.96472E-1,-6.12976E-1
6.01715E-1,-6.67480E-1
5.59448E-1,-6.89453E-1
4.87762E-1,-7.44079E-1
4.35119E-1,-7.45727E-1
4.04052E-1,-8.22692E-1
2.73315E-1,-8.67614E-1
2.11395E-1,-8.30200E-1
END
BEGIN
-7.57690E-1,1.11175E-1
-7.76977E-1,1.76422E-1
-6.99371E-1,2.84301E-1
-6.57531E-1,2.52868E-1
-7.30682E-1,3.25347E-1
-6.62353E-1,4.45007E-1
-6.35131E-1,4.84283E-1
-5.65124E-1,5.98053E-1
-4.66796E-1,5.77453E-1
-5.11444E-1,6.03271E-1
-4.42840E-1,7.38311E-1
-3.42315E-1,7.62146E-1
-2.46307E-1,8.22387E-1
-1.17981E-1,7.80151E-1
-1.28112E-1,7.56805E-1
-0.55755E-1,8.47137E-1
0.59967E-1,8.28430E-1
1.37542E-1,8.44116E-1
2.85888E-1,7.71911E-1
2.68585E-1,6.66656E-1
2.75512E-1,7.18719E-1
3.87420E-1,7.00042E-1
4.25293E-1,6.72241E-1
5.44250E-1,6.45721E-1
5.69122E-1,5.17669E-1
5.47393E-1,5.22888E-1
6.45294E-1,5.09277E-1
6.89453E-1,4.38293E-1
7.76794E-1,3.90472E-1
8.10821E-1,2.25982E-1
7.38647E-1,1.78863E-1
7.83508E-1,1.73400E-1
8.14025E-1,1.03973E-1
8.75701E-1,0.50262E-1
8.97216E-1,-1.39831E-1
7.56103E-1,-2.12890E-1
7.53234E-1,-1.88201E-1
7.80029E-1,-2.58697E-1
7.96875E-1,-3.21563E-1
8.02490E-1,-4.91119E-1
6.18347E-1,-5.83221E-1
5.58441E-1,-5.21514E-1
5.68817E-1,-5.58563E-1
5.47637E-1,-6.01013E-1
5.54534E-1,-7.17742E-1
3.78936E-1,-8.40667E-1
2.66662E-1,-7.58117E-1
2.68066E-1,-7.64038E-1
2.13226E-1,-7.91198E-1
1.98669E-1,-8.44635E-1
0.41564E-1,-9.57092E-1
-1.28631E-1,-8.54766E-1
-1.31439E-1,-7.92907E-1
-1.79138E-1,-7.89459E-1
-1.93969E-1,-7.79449E-1
-2.79968E-1,-8.58123E-1
-4.66613E-1,-7.76550E-1
-4.71252E-1,-6.56494E-1
-4.92981E-1,-6.38275E-1
-5.14068E-1,-5.98785E-1
-5.56182E-1,-6.40014E-1
-7.27386E-1,-5.81054E-1
-7.40356E-1,-4.14672E-1
-7.15759E-1,-3.68743E-1
-7.25799E-1,-3.12927E-1
-7.20306E-1,-3.18420E-1
-8.50555E-1,-3.04595E-1
-9.00665E-1,-1.17614E-1
-8.29589E-1,-0.46051E-1
-8.30658E-1,-0.03021E-1
-8.13110E-1,0.33996E-1
-8.84216E-1,0.55755E-1
-9.36920E-1,2.39715E-1
-8.20312E-1,3.55285E-1
-7.76855E-1,3.81256E-1
-7.29309E-1,4.37530E-1
-7.12646E-1,4.47631E-1
-7.388E-1,5.53863E-1
-6.29791E-1,6.74774E-1
-5.34576E-1,6.89788E-1
-4.68689E-1,7.10662E-1
-4.32495E-1,7.02484E-1
-4.38995E-1,7.68951E-1
-3.26355E-1,8.66241E-1
-2.19207E-1,8.51623E-1
-1.46942E-1,8.68255E-1
-0.53588E-1,8.32916E-1
-0.55297E-1,8.13873E-1
-0.06256E-1,8.90533E-1
1.19628E-1,8.92974E-1
1.93115E-1,8.68408E-1
2.87292E-1,8.32305E-1
3.11981E-1,7.75207E-1
3.44421E-1,8.06823E-1
4.63867E-1,8.06701E-1
5.53405E-1,7.50366E-1
6.46118E-1,6.73767E-1
6.57104E-1,5.60638E-1
6.47277E-1,5.54473E-1
7.43621E-1,5.37567E-1
8.11737E-1,4.39666E-1
8.56384E-1,3.54766E-1
8.66363E-1,2.32666E-1
8.25408E-1,1.90429E-1
8.74359E-1,1.67388E-1
9.10705E-1,0.68267E-1
9.14886E-1,-0.09429E-1
9.18792E-1,-1.32507E-1
8.34838E-1,-2.11547E-1
8.22937E-1,-2.21099E-1
8.43933E-1,-3.06121E-1
8.13385E-1,-3.92913E-1
7.76001E-1,-4.92523E-1
6.58416E-1,-5.58746E-1
6.03302E-1,-5.37597E-1
6.05133E-1,-5.82824E-1
5.58685E-1,-6.56646E-1
4.96429E-1,-7.25341E-1
3.81073E-1,-7.65686E-1
3.09783E-1,-7.26348E-1
3.02307E-1,-7.26348E-1
2.63214E-1,-7.78045E-1
1.88140E-1,-8.19122E-1
0.79803E-1,-8.42285E-1
-0.09704E-1,-7.90832E-1
-0.23132E-1,-7.60131E-1
-0.50231E-1,-7.82806E-1
-1.21734E-1,-8.03863E-1
-2.20459E-1,-7.99133E-1
-3.09539E-1,-7.26013E-1
-3.17077E-1,-6.68640E-1
-3.28155E-1,-6.7276E-1
-3.88885E-1,-6.85150E-1
-4.74121E-1,-6.56524E-1
-5.38208E-1,-5.82611E-1
-5.53619E-1,-5.18432E-1
-5.66070E-1,-4.85809E-1
-5.98144E-1,-4.71313E-1
-6.57592E-1,-4.38598E-1
-7.07366E-1,-3.68804E-1
-7.20092E-1,-2.91381E-1
-7.20184E-1,-2.36236E-1
-7.24609E-1,-2.04315E-1
-7.61230E-1,-1.74621E-1
-7.97119E-1,-1.04492E-1
-7.98065E-1,-0.26001E-1
-7.86956E-1,0.36346E-1
-7.73986E-1,0.89386E-1
-7.88940E-1,1.29241E-1
-8.10668E-1,2.11120E-1
-7.87414E-1,2.98889E-1
-7.37701E-1,3.59741E-1
-6.93908E-1,4.03045E-1
-6.67541E-1,4.28924E-1
-6.71417E-1,4.95636E-1
-6.26556E-1,5.81176E-1
-5.68878E-1,6.33972E-1
-5.08239E-1,6.77063E-1
-4.43847E-1,6.96472E-1
-4.10003E-1,7.28027E-1
-3.37585E-1,7.92846E-1
-2.50762E-1,8.12469E-1
-1.89880E-1,8.26263E-1
-1.15875E-1,8.31665E-1
-0.72937E-1,8.15216E-1
-0.25299E-1,8.43933E-1
0.65887E-1,8.46099E-1
1.28875E-1,8.32489E-1
2.01293E-1,8.26293E-1
2.58606E-1,7.96234E-1
3.02581E-1,7.89947E-1
3.84338E-1,7.72094E-1
4.45526E-1,7.28607E-1
5.08972E-1,6.94488E-1
5.63476E-1,6.40533E-1
5.95275E-1,6.03271E-1
6.54693E-1,5.70282E-1
6.99859E-1,5.02777E-1
7.33123E-1,4.50805E-1
7.76397E-1,3.88977E-1
8.05603E-1,3.23822E-1
8.34350E-1,2.69134E-1
8.59252E-1,1.92932E-1
8.63769E-1,1.28448E-1
8.81866E-1,0.56427E-1
8.83606E-1,-0.23620E-1
8.78051E-1,-0.96954E-1
8.73138E-1,-1.69799E-1
8.48754E-1,-2.33917E-1
8.31604E-1,-2.91381E-1
8.06579E-1,-3.5849E-1
7.81372E-1,-4.33990E-1
7.38739E-1,-5.03021E-1
6.94305E-1,-5.65612E-1
6.46789E-1,-6.13708E-1
6.00097E-1,-6.54113E-1
5.61676E-1,-7.02453E-1
4.87640E-1,-7.66143E-1
4.02740E-1,-8.08319E-1
3.24035E-1,-8.21472E-1
2.71637E-1,-8.28216E-1
END
BEGIN
-5.30944E-1,-0.98938E-1
-5.48980E-1,-0.37811E-1
-5.57281E-1,0.23193E-1
-5.60516E-1,0.73761E-1
-5.54809E-1,1.41571E-1
-5.34179E-1,2.03552E-1
-5.13183E-1,2.74963E-1
-4.84909E-1,3.30978E-1
-4.59381E-1,3.87420E-1
-4.20120E-1,4.34341E-1
-3.78616E-1,4.72229E-1
-3.25775E-1,5.11932E-1
-2.71453E-1,5.43396E-1
-2.12951E-1,5.83190E-1
-1.53656E-1,6.01043E-1
-0.92468E-1,6.14410E-1
-0.25787E-1,6.22070E-1
0.41992E-1,6.19537E-1
1.06781E-1,6.20880E-1
1.72393E-1,5.99426E-1
2.24090E-1,5.78704E-1
2.77832E-1,5.49591E-1
3.30932E-1,5.13549E-1
3.86230E-1,4.63348E-1
4.30465E-1,4.08187E-1
4.69619E-1,3.62747E-1
5.03570E-1,3.00720E-1
5.27526E-1,2.39685E-1
5.43090E-1,1.61163E-1
5.513E-1,1.01532E-1
5.62408E-1,0.35491E-1
5.61279E-1,-0.29632E-1
5.49377E-1,-0.78887E-1
5.30822E-1,-1.31805E-1
5.08606E-1,-1.73065E-1
4.78958E-1,-2.39898E-1
4.35913E-1,-2.80715E-1
4.01168E-1,-3.15612E-1
3.68347E-1,-3.54309E-1
3.07174E-1,-3.87771E-1
2.53433E-1,-4.08645E-1
2.04361E-1,-4.23660E-1
1.50528E-1,-4.42321E-1
1.05682E-1,-4.51370E-1
0.44693E-1,-4.64630E-1
-0.01754E-1,-4.52621E-1
-0.48172E-1,-4.40353E-1
-0.94253E-1,-4.29504E-1
-1.36581E-1,-4.04525E-1
-1.82342E-1,-3.95782E-1
-2.39440E-1,-3.44406E-1
-2.60726E-1,-3.15094E-1
-2.97897E-1,-2.98278E-1
-3.33297E-1,-2.65090E-1
-3.55392E-1,-2.34924E-1
-3.83728E-1,-1.90139E-1
-3.88977E-1,-1.51168E-1
-4.04342E-1,-1.17157E-1
-4.17129E-1,-0.70419E-1
-4.10110E-1,-0.28274E-1
-4.24789E-1,0.09826E-1
-4.07699E-1,0.75103E-1
-3.91723E-1,1.03576E-1
-3.97247E-1,1.48483E-1
-3.78799E-1,2.00820E-1
-3.63967E-1,2.35595E-1
-3.39660E-1,2.85965E-1
-3.14483E-1,3.06915E-1
-2.94036E-1,3.35830E-1
-2.54684E-1,3.59329E-1
-2.14782E-1,3.63861E-1
-1.74896E-1,4.02069E-1
-1.03576E-1,4.14764E-1
-0.65383E-1,4.19952E-1
-0.22384E-1,4.41970E-1
0.30044E-1,4.39621E-1
0.80352E-1,4.35073E-1
1.38610E-1,4.17434E-1
1.80328E-1,4.08294E-1
2.23877E-1,4.05197E-1
2.66082E-1,3.85528E-1
2.88284E-1,3.46908E-1
3.13110E-1,3.12255E-1
3.48419E-1,2.67181E-1
3.79913E-1,2.23693E-1
4.14169E-1,1.77444E-1
4.26269E-1,1.26037E-1
4.35104E-1,0.88302E-1
4.40704E-1,0.31570E-1
4.40689E-1,-0.18234E-1
4.43481E-1,-0.63262E-1
4.37912E-1,-1.08947E-1
4.11346E-1,-1.37344E-1
3.97155E-1,-1.72775E-1
3.67416E-1,-2.23541E-1
3.32992E-1,-2.69699E-1
2.98507E-1,-3.13125E-1
2.57537E-1,-3.37936E-1
2.24884E-1,-3.62350E-1
1.75293E-1,-3.86657E-1
1.33392E-1,-4.07577E-1
1.03439E-1,-4.35546E-1
0.65719E-1,-4.59716E-1
0.37231E-1,-4.47769E-1
0.14572E-1,-4.42398E-1
-0.32592E-1,-4.36203E-1
-0.83160E-1,-4.32891E-1
-1.47537E-1,-4.28604E-1
-1.81625E-1,-3.98941E-1
-1.95663E-1,-3.92501E-1
-2.35565E-1,-3.74679E-1
-2.71453E-1,-3.41690E-1
-3.15322E-1,-3.17260E-1
-3.47946E-1,-2.85736E-1
-3.55987E-1,-2.72415E-1
-3.75427E-1,-2.63259E-1
-3.89404E-1,-2.31826E-1
-4.06570E-1,-1.97235E-1
-4.18014E-1,-1.44561E-1
-4.10202E-1,-1.16790E-1
-4.29641E-1,-1.05239E-1
-4.51278E-1,-0.70297E-1
-4.61471E-1,-0.31951E-1
-4.65744E-1,0.09887E-1
-4.61807E-1,0.35858E-1
-4.71237E-1,0.53543E-1
-4.84527E-1,0.81405E-1
-4.87594E-1,1.18804E-1
-4.79248E-1,1.52374E-1
-4.60281E-1,1.77337E-1
-4.53643E-1,1.92794E-1
-4.53598E-1,2.23770E-1
-4.47128E-1,2.70141E-1
-4.23934E-1,3.15185E-1
-4.02206E-1,3.39889E-1
-3.93554E-1,3.65692E-1
-3.71337E-1,3.98239E-1
-3.55835E-1,4.28665E-1
-3.29742E-1,4.71176E-1
-3.00033E-1,4.91592E-1
-2.84545E-1,5.02594E-1
-2.58026E-1,5.18188E-1
-2.25158E-1,5.23986E-1
-1.91803E-1,5.50964E-1
-1.37725E-1,5.76110E-1
-1.00952E-1,5.81390E-1
-0.68328E-1,5.91369E-1
-0.19897E-1,5.87341E-1
0.30120E-1,5.94665E-1
1.11419E-1,5.99548E-1
1.55456E-1,5.85144E-1
1.75201E-1,5.94604E-1
2.08404E-1,5.91491E-1
2.31750E-1,5.64025E-1
2.80456E-1,5.49469E-1
3.36608E-1,5.03418E-1
3.68591E-1,4.80270E-1
4.09423E-1,4.63577E-1
4.37820E-1,4.16198E-1
4.61486E-1,3.73809E-1
5.08178E-1,3.08715E-1
5.29937E-1,2.55950E-1
5.65094E-1,2.32879E-1
5.98449E-1,1.88293E-1
5.82519E-1,1.43524E-1
5.85907E-1,1.16149E-1
5.91156E-1,0.49163E-1
5.82183E-1,-0.00885E-1
5.87158E-1,-0.48919E-1
5.49072E-1,-1.03576E-1
5.10742E-1,-1.2323E-1
4.87060E-1,-1.83410E-1
4.44015E-1,-2.43194E-1
4.21524E-1,-2.97241E-1
3.83728E-1,-3.49655E-1
3.39599E-1,-3.46542E-1
3.25058E-1,-3.61602E-1
2.64511E-1,-3.93051E-1
2.09777E-1,-4.08142E-1
1.60583E-1,-4.37988E-1
1.08596E-1,-4.26742E-1
1.00036E-1,-4.12155E-1
0.45181E-1,-4.12460E-1
-0.20797E-1,-3.85971E-1
-0.82687E-1,-3.88977E-1
-1.52999E-1,-3.72619E-1
-1.53945E-1,-3.50845E-1
-1.75155E-1,-3.58581E-1
-2.07962E-1,-3.14712E-1
-2.29812E-1,-2.91381E-1
-2.90847E-1,-2.66632E-1
-3.03573E-1,-2.18124E-1
-2.94860E-1,-2.14599E-1
-3.02597E-1,-1.75018E-1
-2.96188E-1,-1.29501E-1
-3.39736E-1,-0.80886E-1
-3.59344E-1,-0.03601E-1
-3.41796E-1,-0.01586E-1
-3.52508E-1,0.11947E-1
-3.24920E-1,0.37139E-1
-3.41568E-1,0.70617E-1
END
