CITIFILE A.01.01
#NA VERSION HP8510C.08.10
NAME DATA
#NA REGISTER 1
VAR FREQ MAG 201
DATA S[1,1] RI
DATA S[2,1] RI
DATA S[1,2] RI
DATA S[2,2] RI
SEG_LIST_BEGIN
SEG 8000000000 12000000000 201
SEG_LIST_END
COMMENT       YEAR MONTH DAY HOUR MINUTE SECONDS
CONSTANT TIME 2013   09   26  19    45    54.0
BEGIN
-4.90234E-1,-2.72613E-1
-5.17120E-1,-2.20153E-1
-5.38452E-1,-1.56372E-1
-5.57800E-1,-1.06292E-1
-5.73761E-1,-0.45043E-1
-5.70343E-1,0.08758E-1
-5.66284E-1,0.67474E-1
-5.51422E-1,1.24816E-1
-5.43151E-1,1.92871E-1
-5.20935E-1,2.53204E-1
-4.94094E-1,2.96691E-1
-4.5755E-1,3.40881E-1
-4.15222E-1,3.80950E-1
-3.72390E-1,4.34982E-1
-3.20495E-1,4.74777E-1
-2.74841E-1,5.03204E-1
-2.23693E-1,5.22979E-1
-1.68396E-1,5.31585E-1
-1.13952E-1,5.52642E-1
-0.39123E-1,5.60089E-1
0.16815E-1,5.59082E-1
0.65918E-1,5.53253E-1
1.12823E-1,5.35705E-1
1.62597E-1,5.13183E-1
2.13913E-1,4.88220E-1
2.59109E-1,4.68414E-1
2.98095E-1,4.42611E-1
3.30764E-1,4.14016E-1
3.61618E-1,3.70025E-1
3.87680E-1,3.38790E-1
4.29153E-1,2.98416E-1
4.55093E-1,2.49786E-1
4.70611E-1,2.13470E-1
4.79278E-1,1.68212E-1
4.86450E-1,1.32324E-1
5.04913E-1,0.64788E-1
4.98107E-1,0.14053E-1
5.00824E-1,-0.19439E-1
5.03173E-1,-0.57251E-1
4.85687E-1,-1.02127E-1
4.68505E-1,-1.50955E-1
4.44915E-1,-1.91879E-1
4.32205E-1,-2.35321E-1
4.20425E-1,-2.69805E-1
3.96652E-1,-3.06411E-1
3.68347E-1,-3.31878E-1
3.21517E-1,-3.63342E-1
2.87063E-1,-3.91082E-1
2.56012E-1,-4.19357E-1
2.30407E-1,-4.49218E-1
1.80053E-1,-4.58267E-1
1.40731E-1,-4.61395E-1
0.98861E-1,-4.72686E-1
0.50796E-1,-4.86389E-1
0.09719E-1,-4.94262E-1
-0.33783E-1,-4.97009E-1
-0.71365E-1,-4.87991E-1
-1.17813E-1,-4.68948E-1
-1.64581E-1,-4.52804E-1
-2.03964E-1,-4.33410E-1
-2.39120E-1,-4.29763E-1
-2.75604E-1,-3.98788E-1
-2.92083E-1,-3.61190E-1
-3.18771E-1,-3.35693E-1
-3.56567E-1,-3.03436E-1
-3.82141E-1,-2.76351E-1
-4.05761E-1,-2.44644E-1
-4.15435E-1,-2.15438E-1
-4.19860E-1,-1.68808E-1
-4.26681E-1,-1.22543E-1
-4.30633E-1,-0.82595E-1
-4.45404E-1,-0.56915E-1
-4.39666E-1,-0.22262E-1
-4.12994E-1,0.02914E-1
-4.00329E-1,0.26535E-1
-3.95629E-1,0.64514E-1
-3.95767E-1,1.00570E-1
-3.86810E-1,1.25762E-1
-3.80630E-1,1.38626E-1
-3.63205E-1,1.56112E-1
-3.42056E-1,1.91711E-1
-3.09188E-1,2.25647E-1
-2.96539E-1,2.45117E-1
-2.90054E-1,2.66601E-1
-2.68341E-1,2.70126E-1
-2.51358E-1,2.79983E-1
-2.14370E-1,3.02856E-1
-1.89987E-1,3.21289E-1
-1.71218E-1,3.47152E-1
-1.53579E-1,3.60824E-1
-1.35772E-1,3.69262E-1
-0.97930E-1,3.81164E-1
-0.51849E-1,3.75595E-1
-0.23925E-1,3.88916E-1
0.10711E-1,4.02725E-1
0.34072E-1,3.98712E-1
0.62591E-1,3.96225E-1
1.05712E-1,3.80172E-1
1.49276E-1,3.76022E-1
1.98837E-1,3.69613E-1
2.35168E-1,3.61251E-1
2.64694E-1,3.49060E-1
3.12439E-1,3.12866E-1
3.45489E-1,2.52029E-1
3.82278E-1,2.08633E-1
4.19921E-1,1.68365E-1
4.33685E-1,1.29837E-1
4.43512E-1,0.83190E-1
4.3367E-1,0.15853E-1
4.33868E-1,-0.42434E-1
4.42764E-1,-1.08367E-1
4.38415E-1,-1.55242E-1
4.25537E-1,-1.92428E-1
3.93112E-1,-2.43957E-1
3.42010E-1,-3.00293E-1
2.97485E-1,-3.58718E-1
2.60208E-1,-4.03732E-1
2.26760E-1,-4.31396E-1
1.74346E-1,-4.4664E-1
1.08749E-1,-4.47921E-1
0.43243E-1,-4.71633E-1
-0.22476E-1,-4.88021E-1
-0.65322E-1,-4.98672E-1
-1.06903E-1,-4.9263E-1
-1.56967E-1,-4.69375E-1
-2.27737E-1,-4.46899E-1
-3.02429E-1,-4.15451E-1
-3.44009E-1,-3.97857E-1
-3.79058E-1,-3.78372E-1
-4.07943E-1,-3.31436E-1
-4.36828E-1,-2.70996E-1
-4.84878E-1,-2.03979E-1
-5.12817E-1,-1.58691E-1
-5.34545E-1,-1.34429E-1
-5.41595E-1,-0.96710E-1
-5.33508E-1,-0.38299E-1
-5.37994E-1,0.39154E-1
-5.37689E-1,1.14654E-1
-5.47210E-1,1.48956E-1
-5.48828E-1,1.80725E-1
-5.18005E-1,2.17865E-1
-4.73266E-1,2.78030E-1
-4.25857E-1,3.49319E-1
-4.01504E-1,3.95919E-1
-3.94165E-1,4.28634E-1
-3.63540E-1,4.44274E-1
-3.08746E-1,4.56695E-1
-2.39044E-1,4.87594E-1
-1.73004E-1,5.25116E-1
-1.50604E-1,5.48400E-1
-1.39282E-1,5.63598E-1
-1.03546E-1,5.60699E-1
-0.30731E-1,5.46814E-1
0.54199E-1,5.36224E-1
1.12152E-1,5.35705E-1
1.40869E-1,5.50262E-1
1.68457E-1,5.47851E-1
2.04742E-1,5.05554E-1
2.45407E-1,4.58206E-1
3.01513E-1,4.22576E-1
3.40164E-1,4.06738E-1
3.71307E-1,4.10354E-1
3.96423E-1,3.78463E-1
4.14764E-1,3.18801E-1
4.42321E-1,2.54760E-1
4.76425E-1,2.00775E-1
5.04089E-1,1.64703E-1
5.15625E-1,1.29394E-1
5.00701E-1,0.76599E-1
4.73617E-1,0.23300E-1
4.69604E-1,-0.34118E-1
4.64675E-1,-0.78445E-1
4.74060E-1,-1.00631E-1
4.60983E-1,-1.30920E-1
4.23828E-1,-1.62857E-1
3.90396E-1,-2.13867E-1
3.59207E-1,-2.69210E-1
3.49090E-1,-3.03283E-1
3.36441E-1,-3.33282E-1
2.94937E-1,-3.41964E-1
2.44644E-1,-3.45382E-1
1.85668E-1,-3.73367E-1
1.41372E-1,-3.95202E-1
1.29043E-1,-4.27093E-1
1.07955E-1,-4.32968E-1
0.82595E-1,-4.11743E-1
0.3125E-1,-4.04052E-1
-0.45013E-1,-4.02542E-1
-0.94284E-1,-4.15878E-1
-1.26785E-1,-4.31732E-1
-1.37863E-1,-4.14657E-1
-1.48941E-1,-3.86413E-1
-2.07733E-1,-3.45245E-1
-2.59079E-1,-2.91107E-1
-2.97546E-1,-2.89672E-1
-3.15994E-1,-2.85537E-1
-3.01269E-1,-2.72277E-1
-3.11035E-1,-2.42553E-1
-3.44711E-1,-1.60278E-1
-3.63906E-1,-1.14837E-1
-3.97476E-1,-1.00143E-1
END
BEGIN
-8.23577E-1,1.28173E-1
-7.49389E-1,1.99432E-1
-7.53295E-1,2.38128E-1
-7.27356E-1,3.54187E-1
-6.64489E-1,4.10003E-1
-6.17828E-1,4.94720E-1
-5.02044E-1,5.25817E-1
-4.73129E-1,4.99038E-1
-4.67712E-1,5.54657E-1
-4.13696E-1,5.92865E-1
-3.82019E-1,6.46148E-1
-2.76214E-1,6.81427E-1
-2.43408E-1,6.43554E-1
-2.48809E-1,7.09106E-1
-1.42150E-1,7.64556E-1
-0.82031E-1,7.72277E-1
0.28411E-1,8.01574E-1
1.03881E-1,7.26593E-1
0.92956E-1,7.35199E-1
1.86004E-1,7.79815E-1
2.58941E-1,7.59002E-1
3.60839E-1,7.82714E-1
4.83856E-1,6.83654E-1
4.85351E-1,6.28875E-1
5.78338E-1,6.23565E-1
6.42334E-1,5.19317E-1
6.86126E-1,4.83581E-1
7.72033E-1,3.47168E-1
6.94671E-1,2.33703E-1
6.79168E-1,2.44598E-1
7.07153E-1,1.92901E-1
7.05963E-1,1.76208E-1
7.84454E-1,1.22650E-1
7.52380E-1,0.09338E-1
7.35107E-1,0.24292E-1
8.19244E-1,-0.18737E-1
8.49670E-1,-1.12091E-1
9.14978E-1,-2.34283E-1
8.28552E-1,-4.42993E-1
6.94702E-1,-4.48547E-1
7.07641E-1,-4.86663E-1
6.35376E-1,-5.78308E-1
5.96435E-1,-6.08581E-1
5.28259E-1,-7.19787E-1
3.94073E-1,-7.06543E-1
4.02648E-1,-6.96594E-1
3.45001E-1,-7.83630E-1
2.69378E-1,-7.91534E-1
2.17010E-1,-8.71490E-1
0.32867E-1,-8.89587E-1
-0.32623E-1,-8.00079E-1
-0.71289E-1,-8.00079E-1
-1.36230E-1,-7.64007E-1
-1.54235E-1,-7.62878E-1
-2.47680E-1,-7.74169E-1
-3.06457E-1,-7.10723E-1
-3.33923E-1,-7.04101E-1
-4.00634E-1,-6.80603E-1
-4.35913E-1,-6.71447E-1
-5.46539E-1,-6.72821E-1
-6.35620E-1,-5.51422E-1
-6.35070E-1,-4.82757E-1
-6.73797E-1,-4.24469E-1
-6.63269E-1,-3.62396E-1
-6.96716E-1,-3.63067E-1
-7.61718E-1,-2.82653E-1
-7.45849E-1,-2.15179E-1
-7.77038E-1,-1.87286E-1
-8.06213E-1,-1.17828E-1
-8.39660E-1,-0.66894E-1
-8.86230E-1,0.52917E-1
-8.26629E-1,1.65710E-1
-8.01116E-1,2.13989E-1
-7.58667E-1,2.96112E-1
-7.06512E-1,3.19580E-1
-7.07519E-1,3.63220E-1
-6.63452E-1,4.18304E-1
-6.49597E-1,4.42352E-1
-6.35833E-1,5.13855E-1
-5.90637E-1,5.53558E-1
-5.93139E-1,6.12518E-1
-5.38299E-1,7.13531E-1
-4.59167E-1,7.67639E-1
-3.68682E-1,8.32122E-1
-2.52868E-1,8.21502E-1
-2.30804E-1,8.19091E-1
-1.54602E-1,8.83331E-1
-0.55694E-1,8.62701E-1
-0.16082E-1,8.70697E-1
0.72540E-1,8.76922E-1
1.13647E-1,8.61969E-1
1.91253E-1,9.17541E-1
3.44055E-1,8.93585E-1
4.18731E-1,8.24585E-1
4.99847E-1,7.76214E-1
5.43792E-1,6.87988E-1
5.72143E-1,6.57592E-1
6.43127E-1,5.96679E-1
6.53076E-1,5.31433E-1
6.90856E-1,5.16662E-1
7.48504E-1,4.61273E-1
7.77069E-1,4.17511E-1
8.47351E-1,3.70819E-1
8.94012E-1,2.73620E-1
9.25872E-1,1.97814E-1
9.76745E-1,0.82977E-1
9.45129E-1,-0.45318E-1
9.12506E-1,-1.13372E-1
8.96637E-1,-1.97265E-1
8.55468E-1,-2.72644E-1
8.25225E-1,-3.46221E-1
7.65380E-1,-4.18426E-1
7.19024E-1,-4.44305E-1
7.06604E-1,-4.93804E-1
6.68853E-1,-5.63781E-1
6.138E-1,-6.22528E-1
5.47271E-1,-6.83990E-1
4.68292E-1,-7.17956E-1
4.08325E-1,-7.46429E-1
3.31726E-1,-7.81738E-1
2.52716E-1,-7.78839E-1
1.98547E-1,-7.76702E-1
1.34185E-1,-7.81616E-1
0.76843E-1,-7.74414E-1
0.23620E-1,-7.73864E-1
-0.35797E-1,-7.67242E-1
-0.78460E-1,-7.51709E-1
-1.18957E-1,-7.56408E-1
-1.84448E-1,-7.56805E-1
-2.54913E-1,-7.40631E-1
-3.2547E-1,-7.04864E-1
-3.68988E-1,-6.58844E-1
-3.98223E-1,-6.35559E-1
-4.42840E-1,-6.11938E-1
-4.90417E-1,-5.75714E-1
-5.31616E-1,-5.32623E-1
-5.61584E-1,-4.85626E-1
-5.82580E-1,-4.50775E-1
-6.23077E-1,-4.29199E-1
-6.69738E-1,-3.81256E-1
-7.01934E-1,-3.30749E-1
-7.35778E-1,-2.69043E-1
-7.49694E-1,-2.00439E-1
-7.59094E-1,-1.46301E-1
-7.70172E-1,-0.87860E-1
-7.76702E-1,-0.28472E-1
-7.76580E-1,0.39001E-1
-7.58606E-1,0.98266E-1
-7.37213E-1,1.4151E-1
-7.37335E-1,1.71356E-1
-7.49328E-1,2.28546E-1
-7.47619E-1,2.97180E-1
-7.25982E-1,3.76159E-1
-6.81274E-1,4.37591E-1
-6.43371E-1,4.69635E-1
-6.30737E-1,5.19866E-1
-5.89965E-1,5.90545E-1
-5.27893E-1,6.41754E-1
-4.77478E-1,6.77612E-1
-4.24804E-1,7.05902E-1
-3.93554E-1,7.38739E-1
-3.42407E-1,8.00262E-1
-2.69470E-1,8.39050E-1
-1.90033E-1,8.72528E-1
-0.99121E-1,8.88885E-1
-0.26825E-1,8.9151E-1
0.46264E-1,9.01977E-1
1.36962E-1,8.97918E-1
2.18505E-1,8.70452E-1
2.89886E-1,8.37188E-1
3.53546E-1,7.95806E-1
3.90502E-1,7.6828E-1
4.62524E-1,7.56500E-1
5.25848E-1,7.18566E-1
5.91644E-1,6.76269E-1
6.47064E-1,6.08123E-1
6.78222E-1,5.52398E-1
7.35015E-1,5.05401E-1
7.73284E-1,4.32006E-1
8.07678E-1,3.74054E-1
8.38287E-1,2.99652E-1
8.46832E-1,2.32116E-1
8.67919E-1,1.74743E-1
8.78265E-1,0.81176E-1
8.73077E-1,0.24810E-1
8.89190E-1,-0.54443E-1
8.64044E-1,-1.26586E-1
8.65936E-1,-1.79565E-1
8.44696E-1,-2.72003E-1
7.89886E-1,-3.16314E-1
7.83355E-1,-3.68652E-1
7.44384E-1,-4.35974E-1
7.35839E-1,-4.80743E-1
7.10388E-1,-5.79345E-1
6.19628E-1,-6.38610E-1
5.79284E-1,-6.60644E-1
5.12634E-1,-7.19146E-1
4.59777E-1,-7.22961E-1
4.34021E-1,-7.98065E-1
3.07983E-1,-8.52752E-1
2.43011E-1,-8.18450E-1
END
BEGIN
-7.34161E-1,1.19201E-1
-7.53204E-1,1.80053E-1
-6.74560E-1,2.86499E-1
-6.29791E-1,2.51647E-1
-7.03674E-1,3.15734E-1
-6.38244E-1,4.32739E-1
-6.13189E-1,4.67865E-1
-5.47546E-1,5.79345E-1
-4.49676E-1,5.57556E-1
-4.96826E-1,5.78582E-1
-4.35211E-1,7.12097E-1
-3.37493E-1,7.37396E-1
-2.46032E-1,7.97332E-1
-1.19476E-1,7.56500E-1
-1.31988E-1,7.32421E-1
-0.64361E-1,8.24920E-1
0.49499E-1,8.08075E-1
1.24420E-1,8.25164E-1
2.69714E-1,7.56622E-1
2.52868E-1,6.55426E-1
2.59948E-1,7.09045E-1
3.71246E-1,6.92047E-1
4.09179E-1,6.66381E-1
5.27069E-1,6.40411E-1
5.53161E-1,5.16967E-1
5.35308E-1,5.23132E-1
6.33636E-1,5.08453E-1
6.78710E-1,4.38873E-1
7.65380E-1,3.89190E-1
7.99041E-1,2.29034E-1
7.30285E-1,1.81488E-1
7.75360E-1,1.72821E-1
8.05603E-1,1.02630E-1
8.63494E-1,0.46081E-1
8.81195E-1,-1.37298E-1
7.47345E-1,-2.10083E-1
7.43164E-1,-1.8927E-1
7.66662E-1,-2.59460E-1
7.78595E-1,-3.22113E-1
7.82135E-1,-4.83978E-1
6.0495E-1,-5.73913E-1
5.43121E-1,-5.15502E-1
5.50415E-1,-5.49835E-1
5.27496E-1,-5.89386E-1
5.33905E-1,-6.99035E-1
3.64318E-1,-8.17901E-1
2.53082E-1,-7.36969E-1
2.54516E-1,-7.38403E-1
2.02545E-1,-7.62573E-1
1.92382E-1,-8.11126E-1
0.44494E-1,-9.23980E-1
-1.25579E-1,-8.24768E-1
-1.25335E-1,-7.59582E-1
-1.68457E-1,-7.56591E-1
-1.77978E-1,-7.45452E-1
-2.56225E-1,-8.27209E-1
-4.41650E-1,-7.51709E-1
-4.44580E-1,-6.30706E-1
-4.61486E-1,-6.13922E-1
-4.77539E-1,-5.78308E-1
-5.13244E-1,-6.26159E-1
-6.86889E-1,-5.77209E-1
-7.00988E-1,-4.11315E-1
-6.74163E-1,-3.70513E-1
-6.83075E-1,-3.19976E-1
-6.77490E-1,-3.31359E-1
-8.11126E-1,-3.27148E-1
-8.68804E-1,-1.43554E-1
-7.99865E-1,-0.73425E-1
-8.03070E-1,-0.33966E-1
-7.89032E-1,-0.00518E-1
-8.64685E-1,0.16815E-1
-9.25018E-1,1.98547E-1
-8.15094E-1,3.14300E-1
-7.75726E-1,3.42346E-1
-7.33032E-1,3.98498E-1
-7.20794E-1,4.11804E-1
-7.49603E-1,5.18524E-1
-6.48162E-1,6.40686E-1
-5.57281E-1,6.62445E-1
-4.93072E-1,6.88842E-1
-4.55230E-1,6.86157E-1
-4.58770E-1,7.51373E-1
-3.52081E-1,8.49670E-1
-2.46337E-1,8.43383E-1
-1.72424E-1,8.63006E-1
-0.75775E-1,8.36517E-1
-0.68145E-1,8.15216E-1
-0.20813E-1,8.84979E-1
1.01440E-1,8.91113E-1
1.76574E-1,8.68774E-1
2.71209E-1,8.36273E-1
3.03466E-1,7.76947E-1
3.32702E-1,8.00842E-1
4.45526E-1,8.03070E-1
5.33630E-1,7.51068E-1
6.27655E-1,6.79992E-1
6.47735E-1,5.64666E-1
6.34216E-1,5.51940E-1
7.23846E-1,5.38085E-1
7.93670E-1,4.45373E-1
8.39782E-1,3.62945E-1
8.52813E-1,2.41210E-1
8.09753E-1,1.95678E-1
8.53851E-1,1.76055E-1
8.91784E-1,0.80810E-1
8.95935E-1,0.04180E-1
9.03045E-1,-1.15966E-1
8.19885E-1,-1.97204E-1
8.06030E-1,-2.03155E-1
8.29864E-1,-2.83050E-1
8.01727E-1,-3.69049E-1
7.65991E-1,-4.68170E-1
6.48895E-1,-5.33935E-1
5.94726E-1,-5.09826E-1
6.00402E-1,-5.51605E-1
5.58319E-1,-6.25183E-1
4.99420E-1,-6.93664E-1
3.86505E-1,-7.32940E-1
3.18512E-1,-6.91558E-1
3.16467E-1,-6.91131E-1
2.83691E-1,-7.43804E-1
2.13043E-1,-7.89489E-1
1.06842E-1,-8.15887E-1
0.20355E-1,-7.66265E-1
0.09552E-1,-7.388E-1
-0.13977E-1,-7.63580E-1
-0.80688E-1,-7.91320E-1
-1.80206E-1,-7.93029E-1
-2.70690E-1,-7.22869E-1
-2.77008E-1,-6.6922E-1
-2.87109E-1,-6.763E-1
-3.45062E-1,-6.94854E-1
-4.33990E-1,-6.75170E-1
-5.03326E-1,-6.04827E-1
-5.19928E-1,-5.43121E-1
-5.36621E-1,-5.13946E-1
-5.71136E-1,-5.01342E-1
-6.33941E-1,-4.73815E-1
-6.90490E-1,-4.05853E-1
-7.07855E-1,-3.27545E-1
-7.12371E-1,-2.73864E-1
-7.20397E-1,-2.39959E-1
-7.58361E-1,-2.12158E-1
-8.00415E-1,-1.43554E-1
-8.05969E-1,-0.62713E-1
-7.98980E-1,0.02410E-1
-7.89215E-1,0.58349E-1
-8.06091E-1,1.00250E-1
-8.32031E-1,1.83166E-1
-8.11218E-1,2.74658E-1
-7.63519E-1,3.40301E-1
-7.20581E-1,3.87725E-1
-6.93603E-1,4.18273E-1
-6.96624E-1,4.85687E-1
-6.52740E-1,5.73761E-1
-5.94421E-1,6.30340E-1
-5.33783E-1,6.75750E-1
-4.68078E-1,6.98669E-1
-4.31182E-1,7.32208E-1
-3.57910E-1,7.97393E-1
-2.70111E-1,8.19335E-1
-2.07366E-1,8.34503E-1
-1.31835E-1,8.41339E-1
-0.85754E-1,8.25164E-1
-0.36041E-1,8.52386E-1
0.55633E-1,8.55194E-1
1.20208E-1,8.41522E-1
1.93145E-1,8.34930E-1
2.50976E-1,8.04382E-1
2.96508E-1,7.97271E-1
3.78234E-1,7.78320E-1
4.38385E-1,7.33795E-1
5.02258E-1,6.99493E-1
5.56701E-1,6.43890E-1
5.86059E-1,6.06292E-1
6.44897E-1,5.75042E-1
6.89422E-1,5.07019E-1
7.21344E-1,4.57580E-1
7.63275E-1,3.96026E-1
7.91015E-1,3.33252E-1
8.19549E-1,2.81280E-1
8.45794E-1,2.06359E-1
8.50463E-1,1.43646E-1
8.68469E-1,0.75042E-1
8.72711E-1,-0.02533E-1
8.68652E-1,-0.73455E-1
8.65936E-1,-1.44836E-1
8.43933E-1,-2.07641E-1
8.28796E-1,-2.63916E-1
8.07189E-1,-3.28887E-1
7.86712E-1,-4.03717E-1
7.47894E-1,-4.72869E-1
7.08038E-1,-5.36865E-1
6.62384E-1,-5.86517E-1
6.19293E-1,-6.26129E-1
5.85754E-1,-6.77795E-1
5.13641E-1,-7.45086E-1
4.32464E-1,-7.89856E-1
3.53790E-1,-8.08105E-1
3.01239E-1,-8.15643E-1
END
BEGIN
-4.84603E-1,-0.69946E-1
-4.97085E-1,-0.12573E-1
-5.00061E-1,0.43701E-1
-4.99954E-1,0.90881E-1
-4.89593E-1,1.53549E-1
-4.67544E-1,2.09625E-1
-4.46243E-1,2.7211E-1
-4.19296E-1,3.22143E-1
-3.94622E-1,3.71521E-1
-3.57055E-1,4.11987E-1
-3.18679E-1,4.45587E-1
-2.69958E-1,4.80407E-1
-2.21160E-1,5.08453E-1
-1.68365E-1,5.42602E-1
-1.14898E-1,5.58075E-1
-0.58654E-1,5.70159E-1
0.02136E-1,5.77117E-1
0.63690E-1,5.76812E-1
1.22924E-1,5.78796E-1
1.82037E-1,5.60302E-1
2.30072E-1,5.42572E-1
2.80975E-1,5.15960E-1
3.31680E-1,4.83917E-1
3.84658E-1,4.38919E-1
4.27337E-1,3.89175E-1
4.65255E-1,3.47900E-1
4.99542E-1,2.89489E-1
5.23986E-1,2.31414E-1
5.42175E-1,1.56372E-1
5.51605E-1,0.99426E-1
5.64422E-1,0.37384E-1
5.65033E-1,-0.24261E-1
5.53894E-1,-0.72998E-1
5.36987E-1,-1.25274E-1
5.17303E-1,-1.65283E-1
4.91836E-1,-2.30331E-1
4.50912E-1,-2.70263E-1
4.17785E-1,-3.03833E-1
3.86642E-1,-3.41796E-1
3.27072E-1,-3.74954E-1
2.76367E-1,-3.96255E-1
2.29614E-1,-4.11331E-1
1.78543E-1,-4.30145E-1
1.35467E-1,-4.38659E-1
0.76858E-1,-4.51324E-1
0.31601E-1,-4.40475E-1
-0.12237E-1,-4.30755E-1
-0.55831E-1,-4.21035E-1
-0.95169E-1,-3.97934E-1
-1.38351E-1,-3.88122E-1
-1.93344E-1,-3.40774E-1
-2.14553E-1,-3.12942E-1
-2.49527E-1,-2.98202E-1
-2.82821E-1,-2.67196E-1
-3.04245E-1,-2.39242E-1
-3.30886E-1,-1.97158E-1
-3.35372E-1,-1.59194E-1
-3.50341E-1,-1.28601E-1
-3.62960E-1,-0.86410E-1
-3.58230E-1,-0.47973E-1
-3.68942E-1,-0.12085E-1
-3.53698E-1,0.47485E-1
-3.39111E-1,0.75164E-1
-3.45001E-1,1.16333E-1
-3.30123E-1,1.63726E-1
-3.17688E-1,1.96731E-1
-2.96157E-1,2.43026E-1
-2.71438E-1,2.62756E-1
-2.54455E-1,2.89032E-1
-2.19162E-1,3.12927E-1
-1.82434E-1,3.18237E-1
-1.46163E-1,3.51562E-1
-0.80978E-1,3.63845E-1
-0.46096E-1,3.68911E-1
-0.06225E-1,3.90701E-1
0.42221E-1,3.89465E-1
0.87875E-1,3.87191E-1
1.43432E-1,3.73397E-1
1.82373E-1,3.64990E-1
2.22274E-1,3.64959E-1
2.62222E-1,3.48785E-1
2.83538E-1,3.14819E-1
3.08105E-1,2.84149E-1
3.41522E-1,2.41973E-1
3.71078E-1,2.03125E-1
4.05624E-1,1.60568E-1
4.18457E-1,1.12213E-1
4.29763E-1,0.79391E-1
4.37377E-1,0.25238E-1
4.38018E-1,-0.21911E-1
4.42672E-1,-0.63613E-1
4.39682E-1,-1.07299E-1
4.17114E-1,-1.34231E-1
4.06448E-1,-1.68319E-1
3.80447E-1,-2.17224E-1
3.49670E-1,-2.61474E-1
3.18924E-1,-3.04046E-1
2.81326E-1,-3.29208E-1
2.51907E-1,-3.55178E-1
2.06039E-1,-3.81057E-1
1.67907E-1,-4.03472E-1
1.40914E-1,-4.31686E-1
1.08047E-1,-4.57092E-1
0.80703E-1,-4.49569E-1
0.59463E-1,-4.46243E-1
0.16082E-1,-4.44259E-1
-0.31036E-1,-4.45114E-1
-0.92178E-1,-4.45358E-1
-1.26464E-1,-4.20562E-1
-1.41281E-1,-4.15771E-1
-1.80786E-1,-4.02298E-1
-2.19070E-1,-3.74389E-1
-2.64068E-1,-3.52722E-1
-2.97256E-1,-3.25592E-1
-3.08395E-1,-3.13964E-1
-3.28704E-1,-3.06564E-1
-3.45611E-1,-2.78915E-1
-3.66058E-1,-2.46444E-1
-3.80523E-1,-1.96991E-1
-3.76205E-1,-1.69723E-1
-3.94699E-1,-1.58065E-1
-4.18289E-1,-1.25534E-1
-4.31732E-1,-0.87448E-1
-4.38369E-1,-0.45761E-1
-4.36416E-1,-0.19897E-1
-4.46716E-1,-0.02075E-1
-4.60479E-1,0.25192E-1
-4.66949E-1,0.61935E-1
-4.61090E-1,0.96435E-1
-4.43786E-1,1.21414E-1
-4.38262E-1,1.36093E-1
-4.38537E-1,1.64932E-1
-4.34204E-1,2.09014E-1
-4.15084E-1,2.53967E-1
-3.93341E-1,2.80685E-1
-3.86886E-1,3.04809E-1
-3.68698E-1,3.37204E-1
-3.54690E-1,3.66409E-1
-3.31680E-1,4.08248E-1
-3.03726E-1,4.31762E-1
-2.89169E-1,4.42733E-1
-2.67318E-1,4.58816E-1
-2.37228E-1,4.66934E-1
-2.08023E-1,4.92340E-1
-1.58874E-1,5.19775E-1
-1.21704E-1,5.26763E-1
-0.92132E-1,5.37994E-1
-0.46844E-1,5.38147E-1
0.00396E-1,5.47393E-1
0.78765E-1,5.57647E-1
1.24908E-1,5.46844E-1
1.44378E-1,5.57403E-1
1.76361E-1,5.58349E-1
2.01171E-1,5.34179E-1
2.48352E-1,5.22674E-1
3.06304E-1,4.82391E-1
3.39691E-1,4.62020E-1
3.79776E-1,4.48318E-1
4.10583E-1,4.04525E-1
4.36264E-1,3.64746E-1
4.84664E-1,3.02490E-1
5.10009E-1,2.5177E-1
5.46081E-1,2.29614E-1
5.82092E-1,1.86523E-1
5.69305E-1,1.41998E-1
5.75378E-1,1.15020E-1
5.85449E-1,0.48492E-1
5.79467E-1,-0.01342E-1
5.87493E-1,-0.48889E-1
5.51940E-1,-1.04614E-1
5.15594E-1,-1.25762E-1
4.94491E-1,-1.88247E-1
4.53002E-1,-2.49420E-1
4.33166E-1,-3.04611E-1
3.96820E-1,-3.59420E-1
3.53317E-1,-3.58215E-1
3.39584E-1,-3.76342E-1
2.79159E-1,-4.10903E-1
2.25082E-1,-4.28756E-1
1.76895E-1,-4.61364E-1
1.24130E-1,-4.52011E-1
1.14379E-1,-4.38964E-1
0.58868E-1,-4.41360E-1
-0.08865E-1,-4.16976E-1
-0.71929E-1,-4.22164E-1
-1.44760E-1,-4.08004E-1
-1.47888E-1,-3.84429E-1
-1.69616E-1,-3.93158E-1
-2.05627E-1,-3.48846E-1
-2.28149E-1,-3.24539E-1
-2.91412E-1,-3.01239E-1
-3.06762E-1,-2.51937E-1
-2.98263E-1,-2.47818E-1
-3.08090E-1,-2.08038E-1
-3.02246E-1,-1.59256E-1
-3.46160E-1,-1.12579E-1
-3.69186E-1,-0.34820E-1
-3.48907E-1,-0.30517E-1
-3.59787E-1,-0.17349E-1
-3.30658E-1,0.11413E-1
-3.45611E-1,0.43777E-1
END
