CITIFILE A.01.01
#NA VERSION HP8510C.08.10
NAME DATA
#NA REGISTER 1
VAR FREQ MAG 201
DATA S[1,1] RI
DATA S[2,1] RI
DATA S[1,2] RI
DATA S[2,2] RI
SEG_LIST_BEGIN
SEG 8000000000 12000000000 201
SEG_LIST_END
COMMENT       YEAR MONTH DAY HOUR MINUTE SECONDS
CONSTANT TIME 2013   09   26  19    37    57.0
BEGIN
-4.84176E-1,-2.53463E-1
-5.07141E-1,-2.00805E-1
-5.26123E-1,-1.37237E-1
-5.40832E-1,-0.89477E-1
-5.54077E-1,-0.32165E-1
-5.46295E-1,0.17303E-1
-5.39520E-1,0.71197E-1
-5.24292E-1,1.24816E-1
-5.17730E-1,1.88690E-1
-4.97482E-1,2.44415E-1
-4.72732E-1,2.8302E-1
-4.38415E-1,3.22921E-1
-4.01153E-1,3.59787E-1
-3.61709E-1,4.13635E-1
-3.14910E-1,4.52087E-1
-2.75695E-1,4.80880E-1
-2.28546E-1,5.00793E-1
-1.78588E-1,5.09735E-1
-1.28601E-1,5.34851E-1
-0.55633E-1,5.45288E-1
-0.03143E-1,5.48339E-1
0.43182E-1,5.47088E-1
0.88165E-1,5.34027E-1
1.38092E-1,5.16082E-1
1.91879E-1,4.96948E-1
2.39486E-1,4.82391E-1
2.82333E-1,4.61364E-1
3.17779E-1,4.35562E-1
3.53744E-1,3.94561E-1
3.85131E-1,3.63571E-1
4.32113E-1,3.22418E-1
4.65499E-1,2.73513E-1
4.83917E-1,2.35733E-1
4.94735E-1,1.87377E-1
5.04486E-1,1.48162E-1
5.27252E-1,0.75408E-1
5.21942E-1,0.18981E-1
5.24505E-1,-0.18768E-1
5.26916E-1,-0.59509E-1
5.06683E-1,-1.09039E-1
4.86740E-1,-1.62094E-1
4.58450E-1,-2.06909E-1
4.42627E-1,-2.52243E-1
4.25521E-1,-2.87811E-1
3.97308E-1,-3.24020E-1
3.65371E-1,-3.4729E-1
3.13766E-1,-3.77273E-1
2.76657E-1,-4.0271E-1
2.42401E-1,-4.28390E-1
2.14508E-1,-4.54299E-1
1.63436E-1,-4.58389E-1
1.23916E-1,-4.56665E-1
0.82992E-1,-4.63790E-1
0.36697E-1,-4.75204E-1
-0.02655E-1,-4.78668E-1
-0.4245E-1,-4.77767E-1
-0.76675E-1,-4.66217E-1
-1.19430E-1,-4.44244E-1
-1.62384E-1,-4.28482E-1
-1.98623E-1,-4.08187E-1
-2.26944E-1,-4.05304E-1
-2.57843E-1,-3.77044E-1
-2.70019E-1,-3.41156E-1
-2.93014E-1,-3.19595E-1
-3.30658E-1,-2.90603E-1
-3.54126E-1,-2.66449E-1
-3.75946E-1,-2.41134E-1
-3.83987E-1,-2.16598E-1
-3.86978E-1,-1.74835E-1
-3.96774E-1,-1.32766E-1
-4.02526E-1,-0.96206E-1
-4.20425E-1,-0.76477E-1
-4.20166E-1,-0.46524E-1
-3.97171E-1,-0.24032E-1
-3.91876E-1,-0.02868E-1
-3.92486E-1,0.37353E-1
-3.98559E-1,0.72509E-1
-3.97094E-1,1.00189E-1
-3.94378E-1,1.16531E-1
-3.81042E-1,1.37527E-1
-3.62899E-1,1.78009E-1
-3.31543E-1,2.17086E-1
-3.21090E-1,2.42721E-1
-3.15261E-1,2.70156E-1
-2.92755E-1,2.77648E-1
-2.73315E-1,2.94204E-1
-2.31597E-1,3.22448E-1
-2.02850E-1,3.44543E-1
-1.77658E-1,3.73153E-1
-1.56570E-1,3.87161E-1
-1.33651E-1,3.94409E-1
-0.89401E-1,4.05944E-1
-0.36041E-1,3.97659E-1
-0.04623E-1,4.10186E-1
0.33355E-1,4.21447E-1
0.59722E-1,4.13391E-1
0.89157E-1,4.05914E-1
1.34994E-1,3.83270E-1
1.79184E-1,3.73901E-1
2.28790E-1,3.61785E-1
2.62390E-1,3.49105E-1
2.88818E-1,3.32122E-1
3.32473E-1,2.91702E-1
3.59695E-1,2.26089E-1
3.90960E-1,1.81839E-1
4.24301E-1,1.42242E-1
4.32037E-1,1.05239E-1
4.36248E-1,0.60531E-1
4.20867E-1,-0.04257E-1
4.17724E-1,-0.59646E-1
4.24148E-1,-1.21032E-1
4.17770E-1,-1.63147E-1
4.04586E-1,-1.94046E-1
3.71246E-1,-2.40890E-1
3.19595E-1,-2.9216E-1
2.77572E-1,-3.45459E-1
2.44064E-1,-3.86642E-1
2.16201E-1,-4.09317E-1
1.68457E-1,-4.22012E-1
1.07620E-1,-4.20745E-1
0.47195E-1,-4.43771E-1
-0.14892E-1,-4.63623E-1
-0.52276E-1,-4.75692E-1
-0.88058E-1,-4.71176E-1
-1.35635E-1,-4.49447E-1
-2.03170E-1,-4.29763E-1
-2.76626E-1,-4.02252E-1
-3.17672E-1,-3.86917E-1
-3.57711E-1,-3.69003E-1
-3.49151E-1,-3.39050E-1
-4.05441E-1,-2.74993E-1
-4.55398E-1,-2.12204E-1
-4.86724E-1,-1.69204E-1
-5.09979E-1,-1.49658E-1
-5.19958E-1,-1.15234E-1
-5.14007E-1,-0.59204E-1
-5.21911E-1,0.15441E-1
-5.26336E-1,0.92437E-1
-5.38574E-1,1.26617E-1
-5.42633E-1,1.56585E-1
-5.14801E-1,1.93237E-1
-4.72747E-1,2.52670E-1
-4.30770E-1,3.25134E-1
-4.09774E-1,3.74725E-1
-4.06967E-1,4.08111E-1
-3.80630E-1,4.25552E-1
-3.26919E-1,4.40033E-1
-2.60314E-1,4.75387E-1
-1.91314E-1,5.19622E-1
-1.68121E-1,5.46478E-1
-1.56646E-1,5.66680E-1
-1.20819E-1,5.64697E-1
-0.47943E-1,5.53100E-1
0.39489E-1,5.44830E-1
0.98815E-1,5.46814E-1
1.30859E-1,5.6604E-1
1.61651E-1,5.65216E-1
1.99676E-1,5.23681E-1
2.44201E-1,4.77737E-1
3.04763E-1,4.41650E-1
3.46649E-1,4.25125E-1
3.82751E-1,4.27581E-1
4.10690E-1,3.92837E-1
4.29763E-1,3.31527E-1
4.59152E-1,2.62298E-1
4.94125E-1,2.07016E-1
5.23468E-1,1.68029E-1
5.34027E-1,1.30127E-1
5.18707E-1,0.76080E-1
4.90417E-1,0.20156E-1
4.84252E-1,-0.40039E-1
4.78393E-1,-0.87036E-1
4.86557E-1,-1.12106E-1
4.7052E-1,-1.43417E-1
4.29977E-1,-1.75140E-1
3.91922E-1,-2.24655E-1
3.58429E-1,-2.79037E-1
3.46664E-1,-3.12683E-1
3.33297E-1,-3.40545E-1
2.91366E-1,-3.46618E-1
2.40692E-1,-3.46405E-1
1.80267E-1,-3.70803E-1
1.35971E-1,-3.90945E-1
1.25045E-1,-4.23049E-1
1.04476E-1,-4.27551E-1
0.80917E-1,-4.03900E-1
0.31051E-1,-3.93478E-1
-0.42892E-1,-3.89389E-1
-0.90103E-1,-4.01931E-1
-1.20529E-1,-4.18075E-1
-1.28967E-1,-4.01367E-1
-1.36291E-1,-3.73886E-1
-1.92474E-1,-3.32122E-1
-2.40387E-1,-2.80624E-1
-2.78137E-1,-2.82394E-1
-2.97164E-1,-2.80166E-1
-2.80349E-1,-2.70187E-1
-2.90771E-1,-2.41851E-1
-3.21746E-1,-1.61743E-1
-3.42895E-1,-1.20117E-1
-3.78463E-1,-1.06597E-1
END
BEGIN
-8.63037E-1,1.07605E-1
-7.82470E-1,1.89758E-1
-7.89276E-1,2.25677E-1
-7.68890E-1,3.54980E-1
-7.01171E-1,4.16748E-1
-6.53747E-1,5.12115E-1
-5.22430E-1,5.49408E-1
-4.88250E-1,5.12817E-1
-4.87701E-1,5.69122E-1
-4.30542E-1,6.09710E-1
-4.00390E-1,6.65618E-1
-2.85430E-1,7.07214E-1
-2.47619E-1,6.58783E-1
-2.61230E-1,7.25402E-1
-1.50360E-1,7.87475E-1
-0.87951E-1,7.9422E-1
0.28015E-1,8.28613E-1
1.11846E-1,7.45178E-1
0.94116E-1,7.50213E-1
1.89117E-1,7.99285E-1
2.63702E-1,7.76977E-1
3.67126E-1,8.04290E-1
4.97772E-1,7.01873E-1
4.97619E-1,6.41418E-1
5.91064E-1,6.36383E-1
6.56585E-1,5.29205E-1
6.99066E-1,4.91638E-1
7.86743E-1,3.53363E-1
7.06848E-1,2.37731E-1
6.90063E-1,2.49237E-1
7.17498E-1,1.97723E-1
7.16888E-1,1.80633E-1
7.95867E-1,1.27319E-1
7.63244E-1,0.13977E-1
7.47131E-1,0.29510E-1
8.32702E-1,-0.13702E-1
8.65570E-1,-1.08612E-1
9.31304E-1,-2.33398E-1
8.43017E-1,-4.42932E-1
7.10968E-1,-4.46380E-1
7.26470E-1,-4.86206E-1
6.55670E-1,-5.79650E-1
6.20056E-1,-6.12396E-1
5.49224E-1,-7.29126E-1
4.13970E-1,-7.14325E-1
4.28070E-1,-7.07672E-1
3.68042E-1,-8.02276E-1
2.91809E-1,-8.12622E-1
2.36145E-1,-9.03717E-1
0.36468E-1,-9.19952E-1
-0.26550E-1,-8.23120E-1
-0.66558E-1,-8.26904E-1
-1.32934E-1,-7.88940E-1
-1.48620E-1,-7.93701E-1
-2.53265E-1,-8.08654E-1
-3.13232E-1,-7.38281E-1
-3.41644E-1,-7.37060E-1
-4.14672E-1,-7.13226E-1
-4.52941E-1,-7.07916E-1
-5.83679E-1,-7.10845E-1
-6.79077E-1,-5.65582E-1
-6.69891E-1,-4.91363E-1
-7.10235E-1,-4.26727E-1
-6.88781E-1,-3.61816E-1
-7.26776E-1,-3.70575E-1
-7.9953E-1,-2.78076E-1
-7.74169E-1,-2.07397E-1
-8.08624E-1,-1.82739E-1
-8.37890E-1,-1.06018E-1
-8.73565E-1,-0.53985E-1
-9.23828E-1,0.81420E-1
-8.48144E-1,2.02636E-1
-8.14971E-1,2.49877E-1
-7.64007E-1,3.33618E-1
-7.03735E-1,3.48968E-1
-7.04650E-1,3.89801E-1
-6.55792E-1,4.43603E-1
-6.42425E-1,4.62341E-1
-6.28265E-1,5.33477E-1
-5.81115E-1,5.69213E-1
-5.83892E-1,6.25762E-1
-5.28961E-1,7.28088E-1
-4.47906E-1,7.80273E-1
-3.56384E-1,8.43322E-1
-2.39868E-1,8.29315E-1
-2.19909E-1,8.25134E-1
-1.44958E-1,8.88946E-1
-0.46539E-1,8.67187E-1
-0.07324E-1,8.74511E-1
0.79376E-1,8.80828E-1
1.20666E-1,8.66546E-1
2.00531E-1,9.22729E-1
3.51928E-1,8.96789E-1
4.25842E-1,8.28552E-1
5.08178E-1,7.78686E-1
5.49743E-1,6.91162E-1
5.79406E-1,6.63543E-1
6.49932E-1,6.02783E-1
6.61743E-1,5.39733E-1
7.03796E-1,5.23864E-1
7.62115E-1,4.67407E-1
7.93640E-1,4.24224E-1
8.67919E-1,3.73413E-1
9.13665E-1,2.71789E-1
9.47784E-1,1.93481E-1
9.96398E-1,0.72723E-1
9.58770E-1,-0.57251E-1
9.26879E-1,-1.24420E-1
9.09332E-1,-2.09838E-1
8.67858E-1,-2.85278E-1
8.36547E-1,-3.60107E-1
7.73681E-1,-4.32434E-1
7.30407E-1,-4.56909E-1
7.18872E-1,-5.11383E-1
6.78283E-1,-5.84564E-1
6.20513E-1,-6.46514E-1
5.48187E-1,-7.09716E-1
4.64508E-1,-7.41058E-1
4.03472E-1,-7.69928E-1
3.20953E-1,-8.03009E-1
2.43011E-1,-7.96112E-1
1.875E-1,-7.95776E-1
1.20941E-1,-7.97241E-1
0.63903E-1,-7.88726E-1
0.07141E-1,-7.88147E-1
-0.51025E-1,-7.78839E-1
-0.94177E-1,-7.66174E-1
-1.39617E-1,-7.70599E-1
-2.09503E-1,-7.66754E-1
-2.87323E-1,-7.47436E-1
-3.52233E-1,-7.01660E-1
-3.91906E-1,-6.55609E-1
-4.21814E-1,-6.31103E-1
-4.66583E-1,-6.03057E-1
-5.12115E-1,-5.65002E-1
-5.51666E-1,-5.17700E-1
-5.76171E-1,-4.70184E-1
-5.97595E-1,-4.37622E-1
-6.39709E-1,-4.12628E-1
-6.83990E-1,-3.62091E-1
-7.15026E-1,-3.08258E-1
-7.43011E-1,-2.43255E-1
-7.53204E-1,-1.76849E-1
-7.60711E-1,-1.20483E-1
-7.66265E-1,-0.62255E-1
-7.69531E-1,-0.04821E-1
-7.65502E-1,0.62347E-1
-7.44323E-1,1.13922E-1
-7.23144E-1,1.56372E-1
-7.22869E-1,1.82830E-1
-7.34832E-1,2.38342E-1
-7.32421E-1,3.06640E-1
-7.09960E-1,3.83422E-1
-6.63818E-1,4.43176E-1
-6.26647E-1,4.72045E-1
-6.15295E-1,5.21179E-1
-5.73913E-1,5.90118E-1
-5.12329E-1,6.38366E-1
-4.63958E-1,6.72882E-1
-4.11529E-1,6.99127E-1
-3.83026E-1,7.31750E-1
-3.32977E-1,7.91595E-1
-2.61779E-1,8.29101E-1
-1.84753E-1,8.63189E-1
-0.95428E-1,8.79180E-1
-0.24475E-1,8.82507E-1
0.47424E-1,8.93341E-1
1.37023E-1,8.89862E-1
2.16827E-1,8.63189E-1
2.88787E-1,8.31359E-1
3.52172E-1,7.90252E-1
3.89373E-1,7.64373E-1
4.61669E-1,7.51678E-1
5.23803E-1,7.14813E-1
5.89782E-1,6.75170E-1
6.46453E-1,6.06964E-1
6.77887E-1,5.51452E-1
7.35717E-1,5.04394E-1
7.73742E-1,4.31366E-1
8.09204E-1,3.73535E-1
8.40240E-1,2.98187E-1
8.48815E-1,2.29797E-1
8.70452E-1,1.71722E-1
8.80859E-1,0.77819E-1
8.75579E-1,0.21545E-1
8.91082E-1,-0.57037E-1
8.66699E-1,-1.29119E-1
8.68164E-1,-1.83929E-1
8.47045E-1,-2.77801E-1
7.91442E-1,-3.22509E-1
7.84271E-1,-3.76403E-1
7.45361E-1,-4.43573E-1
7.36541E-1,-4.90173E-1
7.07305E-1,-5.89386E-1
6.14898E-1,-6.46881E-1
5.73425E-1,-6.69281E-1
5.04852E-1,-7.26074E-1
4.52179E-1,-7.28912E-1
4.25476E-1,-8.05481E-1
2.96936E-1,-8.56964E-1
2.32818E-1,-8.21685E-1
END
BEGIN
-7.58148E-1,0.97106E-1
-7.80273E-1,1.60980E-1
-7.05444E-1,2.72064E-1
-6.61285E-1,2.41882E-1
-7.36297E-1,3.10424E-1
-6.71600E-1,4.33227E-1
-6.45477E-1,4.72320E-1
-5.79345E-1,5.89019E-1
-4.78668E-1,5.72509E-1
-5.22216E-1,5.96038E-1
-4.57611E-1,7.32177E-1
-3.57269E-1,7.59674E-1
-2.63610E-1,8.21533E-1
-1.32324E-1,7.83905E-1
-1.39434E-1,7.58972E-1
-0.69915E-1,8.49975E-1
0.47424E-1,8.33770E-1
1.25183E-1,8.50402E-1
2.75665E-1,7.83111E-1
2.63244E-1,6.76544E-1
2.69836E-1,7.26623E-1
3.82568E-1,7.09106E-1
4.21264E-1,6.80389E-1
5.40557E-1,6.54907E-1
5.68634E-1,5.26214E-1
5.46630E-1,5.28961E-1
6.43585E-1,5.15350E-1
6.88537E-1,4.43786E-1
7.74292E-1,3.96911E-1
8.11248E-1,2.32635E-1
7.38586E-1,1.83715E-1
7.82684E-1,1.78772E-1
8.13232E-1,1.09893E-1
8.74511E-1,0.56518E-1
8.96759E-1,-1.32843E-1
7.56042E-1,-2.07428E-1
7.52441E-1,-1.82037E-1
7.80120E-1,-2.51617E-1
7.96203E-1,-3.13690E-1
8.04290E-1,-4.82513E-1
6.20361E-1,-5.75836E-1
5.59997E-1,-5.13214E-1
5.71838E-1,-5.4953E-1
5.51879E-1,-5.91522E-1
5.60607E-1,-7.08038E-1
3.85986E-1,-8.32916E-1
2.73468E-1,-7.50183E-1
2.75848E-1,-7.55462E-1
2.22656E-1,-7.83721E-1
2.10235E-1,-8.36395E-1
0.55053E-1,-9.52087E-1
-1.17279E-1,-8.51318E-1
-1.19140E-1,-7.88452E-1
-1.65466E-1,-7.87353E-1
-1.78985E-1,-7.77618E-1
-2.62573E-1,-8.59405E-1
-4.51568E-1,-7.81921E-1
-4.58221E-1,-6.61285E-1
-4.79644E-1,-6.43035E-1
-5.00732E-1,-6.04675E-1
-5.39825E-1,-6.47552E-1
-7.14233E-1,-5.95184E-1
-7.32086E-1,-4.27429E-1
-7.07580E-1,-3.80889E-1
-7.17712E-1,-3.25683E-1
-7.12371E-1,-3.30383E-1
-8.42010E-1,-3.22082E-1
-8.99566E-1,-1.37329E-1
-8.30841E-1,-0.61767E-1
-8.32428E-1,-0.17944E-1
-8.14636E-1,0.21453E-1
-8.82507E-1,0.40100E-1
-9.42504E-1,2.19604E-1
-8.30963E-1,3.40942E-1
-7.85186E-1,3.70391E-1
-7.38372E-1,4.28009E-1
-7.19574E-1,4.37072E-1
-7.47802E-1,5.40496E-1
-6.4505E-1,6.65008E-1
-5.48461E-1,6.84692E-1
-4.81262E-1,7.08099E-1
-4.40765E-1,7.00042E-1
-4.48059E-1,7.62115E-1
-3.41186E-1,8.62182E-1
-2.32086E-1,8.51715E-1
-1.58447E-1,8.68804E-1
-0.63140E-1,8.36090E-1
-0.62561E-1,8.13659E-1
-0.16876E-1,8.88641E-1
1.07452E-1,8.95202E-1
1.81152E-1,8.72131E-1
2.76184E-1,8.37585E-1
3.04840E-1,7.7948E-1
3.35998E-1,8.08746E-1
4.52636E-1,8.10699E-1
5.42175E-1,7.57049E-1
6.36871E-1,6.82434E-1
6.50512E-1,5.68298E-1
6.39801E-1,5.61309E-1
7.35839E-1,5.44952E-1
8.04748E-1,4.49310E-1
8.51257E-1,3.64624E-1
8.62152E-1,2.42767E-1
8.21716E-1,2.00439E-1
8.69537E-1,1.78161E-1
9.06951E-1,0.78582E-1
9.11407E-1,0.00183E-1
9.15893E-1,-1.22039E-1
8.32611E-1,-2.01263E-1
8.21746E-1,-2.09564E-1
8.44268E-1,-2.94067E-1
8.13720E-1,-3.81469E-1
7.77008E-1,-4.79827E-1
6.60461E-1,-5.46539E-1
6.06414E-1,-5.25207E-1
6.09771E-1,-5.69824E-1
5.64025E-1,-6.44805E-1
5.03265E-1,-7.13226E-1
3.88732E-1,-7.54119E-1
3.17688E-1,-7.15148E-1
3.11615E-1,-7.14416E-1
2.75054E-1,-7.66052E-1
2.01477E-1,-8.08868E-1
0.95397E-1,-8.33984E-1
0.05218E-1,-7.84484E-1
-0.07507E-1,-7.53753E-1
-0.33050E-1,-7.77038E-1
-1.03241E-1,-8.01086E-1
6.37023E-1,-5.06469E-1
6.27380E-1,-2.75512E-1
-3.02063E-1,-6.70898E-1
-3.11706E-1,-6.75048E-1
-3.70025E-1,-6.90094E-1
-4.55383E-1,-6.65313E-1
-5.22125E-1,-5.95153E-1
-5.39856E-1,-5.30426E-1
-5.52673E-1,-4.97924E-1
-5.84381E-1,-4.86145E-1
-6.46057E-1,-4.55352E-1
-6.99157E-1,-3.87268E-1
-7.15789E-1,-3.09783E-1
-7.17529E-1,-2.52746E-1
-7.22412E-1,-2.19726E-1
-7.58941E-1,-1.90826E-1
-7.96508E-1,-1.23474E-1
-8.00231E-1,-0.44097E-1
-7.91931E-1,0.19928E-1
-7.78900E-1,0.74310E-1
-7.94128E-1,1.14563E-1
-8.17260E-1,1.95678E-1
-7.96081E-1,2.83966E-1
-7.49633E-1,3.47259E-1
-7.05444E-1,3.93432E-1
-6.78497E-1,4.21783E-1
-6.81030E-1,4.87731E-1
-6.37847E-1,5.74096E-1
-5.80474E-1,6.28234E-1
-5.19256E-1,6.72546E-1
-4.54315E-1,6.94244E-1
-4.19677E-1,7.25433E-1
-3.48022E-1,7.89428E-1
-2.61688E-1,8.10668E-1
-2.00500E-1,8.24829E-1
-1.26312E-1,8.31237E-1
-0.82336E-1,8.15216E-1
-0.34057E-1,8.42804E-1
0.57006E-1,8.46557E-1
1.20575E-1,8.32428E-1
1.92443E-1,8.25897E-1
2.49603E-1,7.96081E-1
2.93243E-1,7.89917E-1
3.73840E-1,7.72247E-1
4.34204E-1,7.29278E-1
4.97619E-1,6.96380E-1
5.51361E-1,6.42669E-1
5.82946E-1,6.06170E-1
6.41540E-1,5.75012E-1
6.86920E-1,5.07049E-1
7.19512E-1,4.57092E-1
7.62451E-1,3.96820E-1
7.91748E-1,3.33618E-1
8.20709E-1,2.80212E-1
8.46862E-1,2.05444E-1
8.51867E-1,1.42211E-1
8.70666E-1,0.72692E-1
8.74176E-1,-0.04821E-1
8.70819E-1,-0.76782E-1
8.68103E-1,-1.48315E-1
8.45886E-1,-2.11853E-1
8.30200E-1,-2.70202E-1
8.07312E-1,-3.35174E-1
7.84820E-1,-4.10339E-1
7.45422E-1,-4.79553E-1
7.03704E-1,-5.43579E-1
6.57897E-1,-5.92071E-1
6.12884E-1,-6.33819E-1
5.76110E-1,-6.81366E-1
5.06347E-1,-7.47375E-1
4.24469E-1,-7.91870E-1
3.46374E-1,-8.08990E-1
2.93701E-1,-8.17321E-1
END
BEGIN
-5.36346E-1,-1.06323E-1
-5.53375E-1,-0.45593E-1
-5.60943E-1,0.15655E-1
-5.64117E-1,0.66284E-1
-5.58776E-1,1.34918E-1
-5.38024E-1,1.97387E-1
-5.18249E-1,2.67028E-1
-4.89242E-1,3.23089E-1
-4.62799E-1,3.79043E-1
-4.23233E-1,4.26773E-1
-3.81515E-1,4.65423E-1
-3.29315E-1,5.06500E-1
-2.76397E-1,5.37994E-1
-2.18505E-1,5.77087E-1
-1.60064E-1,5.94116E-1
-0.98846E-1,6.07696E-1
-0.32836E-1,6.16394E-1
0.34271E-1,6.14624E-1
0.96984E-1,6.16729E-1
1.61651E-1,5.94940E-1
2.14416E-1,5.73852E-1
2.69256E-1,5.43670E-1
3.23608E-1,5.09002E-1
3.79516E-1,4.59945E-1
4.23721E-1,4.06311E-1
4.61883E-1,3.62319E-1
4.95895E-1,3.00857E-1
5.20782E-1,2.40203E-1
5.39184E-1,1.63513E-1
5.48126E-1,1.03973E-1
5.59600E-1,0.40100E-1
5.58807E-1,-0.24169E-1
5.46630E-1,-0.73608E-1
5.29022E-1,-1.28143E-1
5.07995E-1,-1.70318E-1
4.80804E-1,-2.36908E-1
4.39666E-1,-2.78183E-1
4.06265E-1,-3.13018E-1
3.74527E-1,-3.52951E-1
3.14559E-1,-3.88168E-1
2.61077E-1,-4.10385E-1
2.13897E-1,-4.26178E-1
1.60812E-1,-4.45419E-1
1.16516E-1,-4.54895E-1
0.54534E-1,-4.69818E-1
0.06240E-1,-4.59976E-1
-0.41900E-1,-4.50027E-1
-0.88546E-1,-4.40811E-1
-1.31652E-1,-4.16763E-1
-1.77490E-1,-4.08950E-1
-2.37060E-1,-3.58673E-1
-2.60543E-1,-3.29757E-1
-2.98431E-1,-3.14209E-1
-3.35235E-1,-2.80700E-1
-3.57574E-1,-2.49588E-1
-3.86962E-1,-2.03537E-1
-3.93402E-1,-1.62506E-1
-4.10369E-1,-1.26678E-1
-4.25338E-1,-0.79223E-1
-4.19738E-1,-0.36407E-1
-4.33700E-1,0.01754E-1
-4.17297E-1,0.68786E-1
-3.99887E-1,0.98342E-1
-4.06082E-1,1.43646E-1
-3.87649E-1,1.95632E-1
-3.71673E-1,2.30178E-1
-3.46847E-1,2.81066E-1
-3.18008E-1,3.02658E-1
-2.95791E-1,3.31878E-1
-2.55035E-1,3.57269E-1
-2.14187E-1,3.62228E-1
-1.74652E-1,3.99978E-1
-1.02783E-1,4.12750E-1
-0.64224E-1,4.15618E-1
-0.20904E-1,4.36904E-1
0.31112E-1,4.33563E-1
0.79284E-1,4.28299E-1
1.37298E-1,4.10247E-1
1.78161E-1,3.98910E-1
2.21298E-1,3.94592E-1
2.63504E-1,3.74191E-1
2.85644E-1,3.35525E-1
3.10623E-1,3.01803E-1
3.44055E-1,2.57293E-1
3.73413E-1,2.15011E-1
4.06448E-1,1.69464E-1
4.17892E-1,1.18804E-1
4.26605E-1,0.84121E-1
4.31961E-1,0.28732E-1
4.30419E-1,-0.20431E-1
4.32312E-1,-0.63293E-1
4.26391E-1,-1.09130E-1
4.00390E-1,-1.37847E-1
3.88183E-1,-1.72897E-1
3.60580E-1,-2.22702E-1
3.28323E-1,-2.68096E-1
2.95608E-1,-3.11004E-1
2.56271E-1,-3.34915E-1
2.26181E-1,-3.58734E-1
1.78588E-1,-3.83575E-1
1.39114E-1,-4.04785E-1
1.11084E-1,-4.33212E-1
0.74218E-1,-4.58099E-1
0.45120E-1,-4.47235E-1
0.22033E-1,-4.43496E-1
-0.24414E-1,-4.40490E-1
-0.73638E-1,-4.40704E-1
-1.37603E-1,-4.39346E-1
-1.71600E-1,-4.11743E-1
-1.85638E-1,-4.06448E-1
-2.26196E-1,-3.90930E-1
-2.63549E-1,-3.60763E-1
-3.07922E-1,-3.37509E-1
-3.41812E-1,-3.07312E-1
-3.51272E-1,-2.93182E-1
-3.72802E-1,-2.83798E-1
-3.90152E-1,-2.52059E-1
-4.11087E-1,-2.17086E-1
-4.25445E-1,-1.64688E-1
-4.19174E-1,-1.35620E-1
-4.38598E-1,-1.24191E-1
-4.62066E-1,-0.88516E-1
-4.73342E-1,-0.48538E-1
-4.79278E-1,-0.05844E-1
-4.75189E-1,0.21926E-1
-4.84085E-1,0.40222E-1
-4.96048E-1,0.68847E-1
-4.98916E-1,1.09436E-1
-4.80575E-1,1.06552E-1
-5.57128E-1,0.51666E-1
-4.64462E-1,1.90536E-1
-4.63989E-1,2.20275E-1
-4.58038E-1,2.66647E-1
-4.33883E-1,3.12042E-1
-4.10812E-1,3.37646E-1
-4.01306E-1,3.63357E-1
-3.79211E-1,3.94516E-1
-3.63021E-1,4.23202E-1
-3.37173E-1,4.64294E-1
-3.0513E-1,4.85046E-1
-2.87979E-1,4.95712E-1
-2.60925E-1,5.11810E-1
-2.27630E-1,5.17791E-1
-1.94946E-1,5.44311E-1
-1.41052E-1,5.69854E-1
-1.02722E-1,5.74005E-1
-0.70007E-1,5.83953E-1
-0.23773E-1,5.80352E-1
0.23254E-1,5.87554E-1
1.01776E-1,5.94299E-1
1.45843E-1,5.77514E-1
1.64520E-1,5.85540E-1
1.98150E-1,5.81909E-1
2.22625E-1,5.54443E-1
2.71209E-1,5.40283E-1
3.26782E-1,4.96124E-1
3.58383E-1,4.74014E-1
3.98391E-1,4.58007E-1
4.27169E-1,4.12384E-1
4.51232E-1,3.71963E-1
4.97451E-1,3.09112E-1
5.18402E-1,2.60345E-1
5.52337E-1,2.38647E-1
5.86364E-1,1.95434E-1
5.71807E-1,1.49993E-1
5.76110E-1,1.22161E-1
5.84625E-1,0.55725E-1
5.77758E-1,0.06042E-1
5.84564E-1,-0.40618E-1
5.48980E-1,-0.96466E-1
5.12420E-1,-1.16729E-1
4.92157E-1,-1.77948E-1
4.51187E-1,-2.38189E-1
4.32556E-1,-2.91168E-1
3.95935E-1,-3.45062E-1
3.50540E-1,-3.43582E-1
3.36471E-1,-3.61221E-1
2.76245E-1,-3.96209E-1
2.22244E-1,-4.14413E-1
1.73568E-1,-4.47128E-1
1.20254E-1,-4.37271E-1
1.10321E-1,-4.24346E-1
0.54748E-1,-4.27154E-1
-0.12939E-1,-4.04190E-1
-0.74569E-1,-4.10354E-1
-1.46347E-1,-3.96408E-1
-1.49124E-1,-3.72100E-1
-1.71279E-1,-3.78784E-1
-2.07809E-1,-3.33969E-1
-2.31155E-1,-3.09890E-1
-2.95486E-1,-2.86514E-1
-3.11050E-1,-2.37136E-1
-3.03192E-1,-2.31964E-1
-3.13201E-1,-1.90643E-1
-3.08029E-1,-1.42349E-1
-3.53454E-1,-0.95153E-1
-3.75518E-1,-0.17059E-1
-3.55041E-1,-0.13031E-1
-3.64639E-1,0.01373E-1
-3.34854E-1,0.31341E-1
-3.49838E-1,0.65811E-1
END
