CITIFILE A.01.01
#NA VERSION HP8510C.08.10
NAME DATA
#NA REGISTER 4
VAR FREQ MAG 201
DATA S[1,1] RI
DATA S[2,1] RI
DATA S[1,2] RI
DATA S[2,2] RI
SEG_LIST_BEGIN
SEG 8000000000 12000000000 201
SEG_LIST_END
COMMENT       YEAR MONTH DAY HOUR MINUTE SECONDS
CONSTANT TIME 2013   12   09  20    33    41.0
BEGIN
-6.67999E-1,-2.31628E-1
-6.88110E-1,-1.63147E-1
-7.0401E-1,-0.84289E-1
-7.12677E-1,-0.13183E-1
-7.12799E-1,0.66711E-1
-7.00042E-1,1.38793E-1
-6.82800E-1,2.09625E-1
-6.64001E-1,2.73803E-1
-6.31713E-1,3.49182E-1
-5.91430E-1,4.10949E-1
-5.50109E-1,4.69848E-1
-4.96795E-1,5.19317E-1
-4.48974E-1,5.68695E-1
-3.79150E-1,6.18011E-1
-3.17169E-1,6.48681E-1
-2.50244E-1,6.78314E-1
-1.78100E-1,6.94183E-1
-1.14746E-1,7.07824E-1
-0.36468E-1,7.21160E-1
0.36132E-1,7.07763E-1
1.05682E-1,7.03186E-1
1.73797E-1,6.83685E-1
2.34314E-1,6.64428E-1
2.98004E-1,6.34735E-1
3.49212E-1,5.99945E-1
4.09362E-1,5.68481E-1
4.63043E-1,5.19836E-1
5.11322E-1,4.73754E-1
5.52154E-1,4.16564E-1
5.88714E-1,3.66363E-1
6.2323E-1,2.99774E-1
6.41845E-1,2.30499E-1
6.57775E-1,1.68121E-1
6.64886E-1,0.99304E-1
6.73370E-1,0.38818E-1
6.59668E-1,-0.35095E-1
6.44958E-1,-0.88867E-1
6.35925E-1,-1.44958E-1
6.22467E-1,-2.15179E-1
5.84808E-1,-2.68371E-1
5.56060E-1,-3.18328E-1
5.25268E-1,-3.66485E-1
4.83810E-1,-4.12353E-1
4.45068E-1,-4.59518E-1
3.83712E-1,-4.95727E-1
3.46038E-1,-5.24200E-1
2.93304E-1,-5.49224E-1
2.41760E-1,-5.70709E-1
1.86248E-1,-5.83801E-1
1.24542E-1,-6.01989E-1
0.73791E-1,-6.02783E-1
0.28015E-1,-6.15234E-1
-0.31158E-1,-6.17370E-1
-0.84869E-1,-6.08093E-1
-1.40960E-1,-5.96984E-1
-1.92413E-1,-5.76690E-1
-2.42187E-1,-5.67718E-1
-2.93487E-1,-5.39184E-1
-3.34106E-1,-5.10040E-1
-3.71566E-1,-4.81704E-1
-4.23599E-1,-4.4664E-1
-4.55947E-1,-4.07211E-1
-4.91226E-1,-3.71612E-1
-5.23437E-1,-3.28949E-1
-5.43701E-1,-2.83050E-1
-5.67291E-1,-2.38433E-1
-5.86425E-1,-1.88873E-1
-6.16027E-1,-1.38092E-1
-6.20727E-1,-0.82428E-1
-6.23504E-1,-0.33477E-1
-6.22985E-1,0.14801E-1
-6.24115E-1,0.77117E-1
-6.13861E-1,1.35070E-1
-5.99792E-1,1.80145E-1
-5.89263E-1,2.27294E-1
-5.70495E-1,2.78900E-1
-5.40496E-1,3.31329E-1
-5.11932E-1,3.77807E-1
-4.79202E-1,4.35516E-1
-4.37912E-1,4.77264E-1
-3.90258E-1,5.17028E-1
-3.35815E-1,5.38604E-1
-2.87292E-1,5.72021E-1
-2.20031E-1,6.01989E-1
-1.67694E-1,6.14532E-1
-1.138E-1,6.30432E-1
-0.53588E-1,6.28570E-1
0.05554E-1,6.30615E-1
0.75988E-1,6.27227E-1
1.47522E-1,6.15753E-1
2.07122E-1,5.97930E-1
2.66449E-1,5.68359E-1
3.08624E-1,5.30212E-1
3.65142E-1,4.92340E-1
4.17465E-1,4.40918E-1
4.57794E-1,3.88137E-1
4.89257E-1,3.43902E-1
5.19348E-1,2.94281E-1
5.46386E-1,2.26348E-1
5.60058E-1,1.61895E-1
5.76538E-1,0.93170E-1
5.84350E-1,0.27740E-1
5.83862E-1,-0.45074E-1
5.59997E-1,-1.09069E-1
5.34423E-1,-1.70929E-1
5.02441E-1,-2.37762E-1
4.65835E-1,-2.92953E-1
4.28680E-1,-3.37448E-1
3.89846E-1,-3.73428E-1
3.42590E-1,-4.13879E-1
2.85614E-1,-4.47464E-1
2.30026E-1,-4.76455E-1
1.83883E-1,-4.97329E-1
1.30188E-1,-5.23498E-1
0.70678E-1,-5.28381E-1
0.09185E-1,-5.26184E-1
-0.52063E-1,-5.18676E-1
-1.08367E-1,-5.10559E-1
-1.53106E-1,-5.04638E-1
-1.93954E-1,-4.95849E-1
-2.46810E-1,-4.74990E-1
-2.94021E-1,-4.40048E-1
-3.40332E-1,-4.05212E-1
-3.80310E-1,-3.81866E-1
-4.22775E-1,-3.55712E-1
-4.56573E-1,-3.14056E-1
-4.80438E-1,-2.62756E-1
-4.99282E-1,-2.09289E-1
-5.21789E-1,-1.65161E-1
-5.45867E-1,-1.23168E-1
-5.56518E-1,-0.85845E-1
-5.60821E-1,-0.37872E-1
-5.55572E-1,0.11993E-1
-5.51666E-1,0.66345E-1
-5.56030E-1,1.15997E-1
-5.54229E-1,1.61163E-1
-5.40008E-1,2.02575E-1
-5.14923E-1,2.41485E-1
-4.87716E-1,2.83676E-1
-4.6521E-1,3.33190E-1
-4.41207E-1,3.75793E-1
-4.16626E-1,4.0448E-1
-3.85574E-1,4.24575E-1
-3.48938E-1,4.52590E-1
-2.95639E-1,4.86038E-1
-2.54333E-1,5.15411E-1
-2.17620E-1,5.41076E-1
-1.81762E-1,5.48217E-1
-1.41906E-1,5.52093E-1
-0.85968E-1,5.56610E-1
-0.35064E-1,5.62774E-1
0.22094E-1,5.75805E-1
0.65979E-1,5.71197E-1
0.97747E-1,5.55877E-1
1.41967E-1,5.34271E-1
1.91558E-1,5.04699E-1
2.45315E-1,4.82437E-1
2.88742E-1,4.51980E-1
3.07891E-1,4.27017E-1
3.30673E-1,3.98834E-1
3.56689E-1,3.5289E-1
3.92318E-1,3.07968E-1
4.24087E-1,2.52243E-1
4.34082E-1,2.05307E-1
4.31640E-1,1.66641E-1
4.23034E-1,1.21322E-1
4.06814E-1,0.69305E-1
3.93005E-1,0.20874E-1
3.77227E-1,-0.14053E-1
3.61190E-1,-0.30075E-1
3.45275E-1,-0.43746E-1
3.2341E-1,-0.67001E-1
3.01559E-1,-0.97351E-1
2.80777E-1,-1.29470E-1
2.61627E-1,-1.51489E-1
2.42836E-1,-1.58042E-1
2.22030E-1,-1.62307E-1
1.87820E-1,-1.68762E-1
1.56448E-1,-1.76239E-1
1.34803E-1,-1.86531E-1
1.24305E-1,-1.87210E-1
1.26045E-1,-1.84845E-1
1.09146E-1,-1.84791E-1
0.86425E-1,-1.76719E-1
0.64109E-1,-1.83219E-1
0.43067E-1,-1.92359E-1
0.36788E-1,-1.96205E-1
0.31967E-1,-1.98066E-1
0.20858E-1,-1.81564E-1
0.10932E-1,-1.71310E-1
-0.11093E-1,-1.72714E-1
-0.21118E-1,-1.79084E-1
-0.20782E-1,-1.99028E-1
-0.30433E-1,-2.01324E-1
-0.34843E-1,-1.93626E-1
-0.60295E-1,-1.88316E-1
-0.87036E-1,-1.85920E-1
-1.13693E-1,-2.01095E-1
-1.37786E-1,-2.04879E-1
-1.38740E-1,-1.94084E-1
-1.48429E-1,-1.81510E-1
END
BEGIN
-6.43951E-1,3.16772E-1
-5.60180E-1,3.24432E-1
-5.82275E-1,3.78204E-1
-5.00610E-1,4.78332E-1
-4.40567E-1,4.96414E-1
-3.60778E-1,5.59692E-1
-2.70172E-1,5.15716E-1
-3.00094E-1,4.97482E-1
-2.77496E-1,5.78247E-1
-2.22961E-1,6.02661E-1
-1.65435E-1,6.65741E-1
-0.54687E-1,6.40014E-1
-0.76568E-1,6.21307E-1
-0.18554E-1,7.32788E-1
1.19201E-1,7.13317E-1
1.77825E-1,7.08374E-1
3.01361E-1,6.62841E-1
2.98095E-1,5.81787E-1
3.21960E-1,6.38092E-1
4.53979E-1,6.10900E-1
5.08667E-1,5.62713E-1
6.30645E-1,4.99267E-1
6.37054E-1,3.52752E-1
6.28967E-1,3.38775E-1
7.08648E-1,2.55676E-1
6.81335E-1,1.60888E-1
7.15057E-1,1.07971E-1
6.71295E-1,-0.26031E-1
5.82763E-1,-0.16021E-1
6.22772E-1,-0.04272E-1
6.28692E-1,-0.58166E-1
6.60003E-1,-0.74585E-1
6.92047E-1,-1.91772E-1
6.13952E-1,-2.33337E-1
6.62078E-1,-2.34436E-1
6.95526E-1,-3.66912E-1
6.60430E-1,-4.68048E-1
5.90698E-1,-6.29730E-1
3.87451E-1,-6.44897E-1
3.67248E-1,-5.75500E-1
3.51440E-1,-6.51702E-1
2.60040E-1,-6.60491E-1
2.34069E-1,-6.94763E-1
1.04766E-1,-7.19024E-1
0.78887E-1,-6.43798E-1
0.85601E-1,-7.08190E-1
-0.35339E-1,-7.34771E-1
-0.7724E-1,-7.23449E-1
-3.54492E-1,-6.26251E-1
-4.08203E-1,-5.78399E-1
-2.61901E-1,-5.78887E-1
-3.06854E-1,-5.83831E-1
-3.21563E-1,-5.52948E-1
-3.70971E-1,-5.89386E-1
-4.70275E-1,-5.27404E-1
-4.66186E-1,-4.81384E-1
-5.24017E-1,-4.87182E-1
-5.75836E-1,-4.33837E-1
-6.44378E-1,-4.28527E-1
-7.64434E-1,-2.93731E-1
-6.95037E-1,-1.59088E-1
-6.80969E-1,-1.48376E-1
-6.75872E-1,-0.82183E-1
-6.57257E-1,-0.93200E-1
-7.56530E-1,-0.57251E-1
-7.43286E-1,0.79742E-1
-7.14569E-1,0.93597E-1
-7.62664E-1,1.65679E-1
-7.40478E-1,2.50793E-1
-7.64862E-1,3.42926E-1
-6.6922E-1,5.04089E-1
-5.46203E-1,4.96582E-1
-5.22491E-1,5.26428E-1
-4.32800E-1,5.42633E-1
-4.30206E-1,5.18859E-1
-4.1745E-1,5.86883E-1
-3.56903E-1,6.00402E-1
-3.60321E-1,6.36291E-1
-2.89245E-1,7.07580E-1
-2.43743E-1,7.06146E-1
-2.16125E-1,7.93914E-1
-0.73577E-1,8.44299E-1
0.16540E-1,8.28338E-1
1.38183E-1,8.16894E-1
1.90277E-1,7.18566E-1
1.85058E-1,7.37457E-1
2.99102E-1,7.44293E-1
3.39141E-1,6.68365E-1
3.7677E-1,6.81366E-1
4.60296E-1,6.29180E-1
4.70062E-1,6.10168E-1
5.82824E-1,6.22894E-1
6.80511E-1,4.94018E-1
6.77398E-1,4.17144E-1
7.19970E-1,3.40972E-1
6.92077E-1,2.61474E-1
7.05383E-1,2.47100E-1
7.32543E-1,1.70806E-1
7.04742E-1,1.38580E-1
7.54608E-1,1.19049E-1
7.74597E-1,0.30120E-1
7.75634E-1,-0.08026E-1
8.26477E-1,-0.85876E-1
8.07251E-1,-1.88537E-1
8.08990E-1,-2.55676E-1
7.83264E-1,-3.94195E-1
6.71997E-1,-4.54437E-1
6.37512E-1,-4.76226E-1
5.85662E-1,-5.37780E-1
5.31951E-1,-5.59051E-1
4.92034E-1,-6.13464E-1
4.07409E-1,-6.33636E-1
3.85833E-1,-6.30523E-1
3.57299E-1,-6.87561E-1
2.89306E-1,-7.24121E-1
2.34314E-1,-7.62817E-1
1.33483E-1,-7.89306E-1
0.61370E-1,-7.63885E-1
0.05584E-1,-7.69714E-1
-0.73150E-1,-7.45056E-1
-1.00463E-1,-7.21221E-1
-1.55731E-1,-7.32391E-1
-2.18475E-1,-6.97937E-1
-2.49847E-1,-6.83410E-1
-3.07006E-1,-6.65985E-1
-3.38317E-1,-6.38580E-1
-3.85528E-1,-6.46362E-1
-4.65332E-1,-6.23687E-1
-5.26062E-1,-5.78430E-1
-5.87493E-1,-5.19561E-1
-6.02874E-1,-4.46136E-1
-6.22955E-1,-4.26239E-1
-6.83288E-1,-3.79028E-1
-7.04650E-1,-3.11157E-1
-7.35656E-1,-2.63000E-1
-7.47558E-1,-1.87164E-1
-7.42858E-1,-1.55883E-1
-7.93518E-1,-1.14044E-1
-8.15918E-1,-0.19836E-1
-8.13934E-1,0.50109E-1
-8.15734E-1,1.37023E-1
-7.74292E-1,2.03857E-1
-7.69104E-1,2.53479E-1
-7.41363E-1,3.42132E-1
-6.92565E-1,3.83575E-1
-6.73278E-1,4.42779E-1
-6.07940E-1,4.95483E-1
-5.82305E-1,5.03570E-1
-5.69397E-1,5.60241E-1
-5.26886E-1,6.12060E-1
-4.97039E-1,6.71081E-1
-4.16107E-1,7.44018E-1
-3.33862E-1,7.50335E-1
-2.92114E-1,7.74688E-1
-2.25769E-1,8.02154E-1
-1.69586E-1,8.23638E-1
-0.81146E-1,8.52569E-1
-0.01403E-1,8.25653E-1
0.32257E-1,8.26690E-1
1.03027E-1,8.44360E-1
1.67602E-1,8.39080E-1
2.45636E-1,8.53179E-1
3.48602E-1,8.20648E-1
4.07959E-1,7.75390E-1
4.77905E-1,7.50732E-1
5.43701E-1,6.98577E-1
5.95367E-1,6.58050E-1
6.63909E-1,6.02752E-1
7.03613E-1,5.35095E-1
7.39318E-1,4.85107E-1
7.80273E-1,4.24713E-1
8.11554E-1,3.67889E-1
8.56170E-1,3.08105E-1
8.89526E-1,2.24151E-1
9.05242E-1,1.47216E-1
9.21386E-1,0.66955E-1
9.23889E-1,-0.15228E-1
9.23522E-1,-0.90454E-1
9.19769E-1,-1.74835E-1
9.01855E-1,-2.60070E-1
8.78021E-1,-3.38836E-1
8.47961E-1,-4.25323E-1
7.95715E-1,-4.99420E-1
7.49664E-1,-5.61309E-1
6.99493E-1,-6.25610E-1
6.39465E-1,-6.80877E-1
5.84686E-1,-7.33612E-1
5.11932E-1,-7.91015E-1
4.36035E-1,-8.21624E-1
3.74328E-1,-8.52996E-1
2.93975E-1,-8.90258E-1
2.20672E-1,-9.08966E-1
1.33819E-1,-9.44213E-1
0.23010E-1,-9.37164E-1
-0.51727E-1,-9.18487E-1
-1.31164E-1,-9.05517E-1
-1.99462E-1,-8.72833E-1
-2.60070E-1,-8.61969E-1
-3.49700E-1,-8.31024E-1
-4.06036E-1,-7.78686E-1
-4.59808E-1,-7.44537E-1
END
BEGIN
-6.06903E-1,2.62512E-1
-6.11633E-1,3.38226E-1
-5.00824E-1,4.09942E-1
-4.86969E-1,3.62991E-1
-5.39611E-1,4.70459E-1
-4.27673E-1,5.57159E-1
-3.93432E-1,5.87066E-1
-2.80822E-1,6.64093E-1
-2.10205E-1,6.03302E-1
-2.47528E-1,6.58599E-1
-1.21276E-1,7.55310E-1
-0.23468E-1,7.31414E-1
0.87188E-1,7.41058E-1
1.67694E-1,6.42883E-1
1.42730E-1,6.39587E-1
2.51098E-1,6.89147E-1
3.34655E-1,6.17584E-1
4.06494E-1,5.97991E-1
4.79751E-1,4.66278E-1
4.08096E-1,4.10858E-1
4.44564E-1,4.61242E-1
5.25756E-1,3.94805E-1
5.43670E-1,3.64868E-1
6.26403E-1,2.87292E-1
5.75653E-1,1.90765E-1
5.70251E-1,2.25463E-1
6.51977E-1,1.73797E-1
6.57714E-1,1.07971E-1
7.14752E-1,0.29663E-1
6.51977E-1,-1.03271E-1
5.93719E-1,-0.78247E-1
6.49810E-1,-1.01745E-1
6.57470E-1,-1.67480E-1
7.02270E-1,-2.51037E-1
6.11877E-1,-4.15405E-1
4.87976E-1,-3.73626E-1
5.29785E-1,-3.59252E-1
5.35064E-1,-4.38812E-1
5.37109E-1,-5.12237E-1
4.46075E-1,-6.73095E-1
2.60406E-1,-6.26129E-1
2.79663E-1,-5.54962E-1
2.85858E-1,-6.12152E-1
2.64312E-1,-6.57287E-1
2.02179E-1,-7.93609E-1
-0.22949E-1,-7.87048E-1
-0.38177E-1,-6.65435E-1
-0.30975E-1,-6.99493E-1
-0.87066E-1,-7.11090E-1
-1.32171E-1,-7.80242E-1
-3.56323E-1,-7.88116E-1
-4.15039E-1,-5.98449E-1
-3.72314E-1,-5.76385E-1
-4.15252E-1,-5.67047E-1
-4.26361E-1,-5.79742E-1
-5.80230E-1,-6.11511E-1
-6.84631E-1,-4.11438E-1
-6.10656E-1,-3.35235E-1
-6.30523E-1,-3.20526E-1
-6.29394E-1,-2.93670E-1
-7.20825E-1,-3.20434E-1
-8.44451E-1,-1.39312E-1
-7.31628E-1,-0.05706E-1
-6.97998E-1,-0.03112E-1
-6.82952E-1,0.32501E-1
-7.11517E-1,0.09887E-1
-8.43109E-1,1.23291E-1
-7.46093E-1,3.17504E-1
-6.59576E-1,3.10821E-1
-6.47247E-1,3.46801E-1
-6.28418E-1,3.56750E-1
-7.00592E-1,4.38446E-1
-6.03210E-1,6.39984E-1
-4.43359E-1,6.25671E-1
-4.12353E-1,6.20391E-1
-3.58734E-1,6.28814E-1
-3.69567E-1,6.45324E-1
-3.11096E-1,7.69622E-1
-1.49169E-1,7.69866E-1
-0.94543E-1,7.25647E-1
-0.47363E-1,7.05108E-1
-0.51361E-1,7.04406E-1
0.02960E-1,7.94860E-1
1.58538E-1,7.74658E-1
1.98089E-1,7.09777E-1
2.59887E-1,6.85760E-1
2.73284E-1,6.21795E-1
2.68402E-1,6.63665E-1
3.89373E-1,6.99890E-1
4.78179E-1,6.19567E-1
5.22491E-1,5.73761E-1
5.52581E-1,4.97924E-1
5.43548E-1,4.90783E-1
6.37512E-1,5.0177E-1
7.37091E-1,4.04632E-1
7.69775E-1,3.03710E-1
7.65380E-1,1.89666E-1
7.05688E-1,1.64856E-1
7.64770E-1,1.78131E-1
8.43811E-1,0.64605E-1
8.22784E-1,-0.52612E-1
7.98431E-1,-1.49078E-1
7.20703E-1,-2.00286E-1
7.33154E-1,-1.86523E-1
7.78045E-1,-2.83630E-1
7.22961E-1,-3.81774E-1
6.89880E-1,-4.50714E-1
5.89996E-1,-5.32714E-1
5.27648E-1,-5.02288E-1
5.56549E-1,-5.43823E-1
5.06744E-1,-6.41967E-1
4.28070E-1,-6.95159E-1
3.13781E-1,-7.35443E-1
2.29492E-1,-6.71325E-1
2.4823E-1,-6.67816E-1
2.07672E-1,-7.38494E-1
1.21765E-1,-7.71484E-1
0.20416E-1,-7.86743E-1
-0.74066E-1,-7.17285E-1
-0.60119E-1,-6.71569E-1
-0.74157E-1,-7.12036E-1
-1.47735E-1,-7.37731E-1
-2.43011E-1,-7.40325E-1
-3.46710E-1,-6.69769E-1
-3.43200E-1,-5.89172E-1
-3.44116E-1,-6.01013E-1
-3.99841E-1,-6.06597E-1
-4.74151E-1,-5.96771E-1
-5.71411E-1,-5.26611E-1
-5.67443E-1,-4.13085E-1
-5.40985E-1,-4.03106E-1
-5.81756E-1,-4.08447E-1
-6.45568E-1,-3.82293E-1
-7.16278E-1,-3.14483E-1
-7.19116E-1,-2.08343E-1
-6.91894E-1,-1.73614E-1
-7.14080E-1,-1.49200E-1
-7.42004E-1,-1.02935E-1
-7.84637E-1,-0.47454E-1
-8.02124E-1,0.58227E-1
-7.58178E-1,1.24542E-1
-7.48901E-1,1.57470E-1
-7.47283E-1,2.07092E-1
-7.57629E-1,2.63793E-1
-7.56286E-1,3.64227E-1
-6.98516E-1,4.42840E-1
-6.65954E-1,4.81414E-1
-6.37023E-1,5.34118E-1
-6.11938E-1,5.84106E-1
-5.81756E-1,6.71875E-1
-4.80987E-1,7.51098E-1
-3.95629E-1,7.57080E-1
-3.53363E-1,7.84332E-1
-3.00872E-1,8.19427E-1
-2.42523E-1,8.70910E-1
-1.32690E-1,9.12597E-1
-0.27252E-1,8.92547E-1
0.38787E-1,8.80188E-1
1.10778E-1,8.76342E-1
1.78314E-1,8.75030E-1
2.72186E-1,8.74328E-1
3.60809E-1,8.22906E-1
4.12292E-1,7.78503E-1
4.68170E-1,7.42309E-1
5.21484E-1,7.08892E-1
5.92498E-1,6.77764E-1
6.61407E-1,6.13525E-1
7.02819E-1,5.48858E-1
7.43866E-1,4.87182E-1
7.73040E-1,4.23126E-1
8.06030E-1,3.68866E-1
8.47381E-1,2.9953E-1
8.68621E-1,2.16308E-1
8.79303E-1,1.41174E-1
8.84185E-1,0.64941E-1
8.80798E-1,-0.01739E-1
8.87237E-1,-0.66894E-1
8.87237E-1,-1.48101E-1
8.72711E-1,-2.27447E-1
8.49914E-1,-3.06427E-1
8.08227E-1,-3.80554E-1
7.70446E-1,-4.31427E-1
7.47558E-1,-4.94995E-1
7.05017E-1,-5.63720E-1
6.60125E-1,-6.27105E-1
5.92804E-1,-6.92504E-1
5.13580E-1,-7.21466E-1
4.68383E-1,-7.50579E-1
4.07562E-1,-7.95776E-1
3.46740E-1,-8.30108E-1
2.75939E-1,-8.78662E-1
1.70776E-1,-8.96972E-1
0.98358E-1,-8.79211E-1
0.35583E-1,-8.85833E-1
-0.34759E-1,-8.85284E-1
-1.01898E-1,-8.98590E-1
-2.04315E-1,-8.95599E-1
-2.83355E-1,-8.44726E-1
-3.31420E-1,-8.13232E-1
-3.9151E-1,-7.81585E-1
-4.44641E-1,-7.54333E-1
END
BEGIN
-7.00805E-1,2.09899E-1
-6.74591E-1,2.87628E-1
-6.35742E-1,3.69140E-1
-5.94177E-1,4.42535E-1
-5.31768E-1,5.13519E-1
-4.64752E-1,5.68786E-1
-3.93524E-1,6.20117E-1
-3.25134E-1,6.63970E-1
-2.41851E-1,6.99737E-1
-1.57775E-1,7.18841E-1
-0.76324E-1,7.31384E-1
0.08758E-1,7.29431E-1
0.90423E-1,7.26287E-1
1.86004E-1,7.04864E-1
2.59674E-1,6.72210E-1
3.34686E-1,6.37054E-1
4.00817E-1,5.88104E-1
4.63073E-1,5.39520E-1
5.27191E-1,4.78942E-1
5.62683E-1,4.07104E-1
5.98877E-1,3.40393E-1
6.26037E-1,2.67272E-1
6.49963E-1,1.91436E-1
6.62689E-1,1.07421E-1
6.63116E-1,0.28350E-1
6.64154E-1,-0.51269E-1
6.47766E-1,-1.28051E-1
6.28234E-1,-2.00592E-1
5.90942E-1,-2.70324E-1
5.61218E-1,-3.32794E-1
5.17761E-1,-3.95385E-1
4.66156E-1,-4.43695E-1
4.21875E-1,-4.82894E-1
3.67523E-1,-5.20416E-1
3.17749E-1,-5.56396E-1
2.42584E-1,-5.80535E-1
1.83410E-1,-5.94421E-1
1.25854E-1,-6.16546E-1
0.51422E-1,-6.34399E-1
-0.15960E-1,-6.25732E-1
-0.8078E-1,-6.17981E-1
-1.42730E-1,-6.05072E-1
-2.0578E-1,-5.85174E-1
-2.69439E-1,-5.65765E-1
-3.30993E-1,-5.25299E-1
-3.81897E-1,-4.9646E-1
-4.29000E-1,-4.51034E-1
-4.74975E-1,-4.03213E-1
-5.25573E-1,-3.52020E-1
-5.74859E-1,-2.86926E-1
-5.76995E-1,-2.25769E-1
-6.03668E-1,-1.75750E-1
-6.24816E-1,-1.15020E-1
-6.35406E-1,-0.51361E-1
-6.39038E-1,0.11657E-1
-6.29394E-1,0.75225E-1
-6.25366E-1,1.35314E-1
-6.05621E-1,2.02941E-1
-5.78643E-1,2.69622E-1
-5.46234E-1,3.28186E-1
-5.11138E-1,3.96148E-1
-4.62219E-1,4.42169E-1
-4.20532E-1,4.86740E-1
-3.67187E-1,5.38635E-1
-3.00537E-1,5.74676E-1
-2.44628E-1,6.02569E-1
-1.82251E-1,6.21032E-1
-1.21490E-1,6.42883E-1
-0.50781E-1,6.45599E-1
0.23040E-1,6.38031E-1
0.88836E-1,6.25396E-1
1.75384E-1,6.11145E-1
2.40387E-1,5.77545E-1
2.95532E-1,5.53070E-1
3.61724E-1,5.21118E-1
4.18426E-1,4.7612E-1
4.66918E-1,4.20608E-1
4.9646E-1,3.68057E-1
5.37139E-1,3.18878E-1
5.70098E-1,2.59002E-1
5.89782E-1,1.87439E-1
5.90118E-1,1.26129E-1
5.96771E-1,0.67077E-1
5.98815E-1,0.00213E-1
5.93597E-1,-0.62439E-1
5.8255E-1,-1.28723E-1
5.61828E-1,-1.87133E-1
5.41900E-1,-2.41943E-1
5.11322E-1,-2.81646E-1
4.87289E-1,-3.26904E-1
4.48440E-1,-3.68286E-1
4.04586E-1,-4.07714E-1
3.61022E-1,-4.37667E-1
3.14315E-1,-4.73266E-1
2.66906E-1,-5.03631E-1
2.11669E-1,-5.25054E-1
1.61987E-1,-5.40557E-1
1.07391E-1,-5.54565E-1
0.47729E-1,-5.60089E-1
0.11108E-1,-5.58837E-1
-0.31860E-1,-5.69854E-1
-0.74035E-1,-5.69763E-1
-1.21398E-1,-5.63903E-1
-1.58264E-1,-5.43212E-1
-1.91864E-1,-5.30670E-1
-2.42279E-1,-5.18158E-1
-2.88574E-1,-4.90539E-1
-3.28170E-1,-4.62738E-1
-3.64334E-1,-4.32449E-1
-3.97628E-1,-4.05212E-1
-4.30038E-1,-3.77151E-1
-4.57901E-1,-3.39523E-1
-4.78622E-1,-3.06640E-1
-5.05889E-1,-2.68646E-1
-5.23742E-1,-2.29187E-1
-5.41290E-1,-1.91864E-1
-5.56243E-1,-1.51153E-1
-5.64025E-1,-1.05987E-1
-5.67230E-1,-0.60211E-1
-5.69793E-1,-0.16662E-1
-5.74676E-1,0.34942E-1
-5.73669E-1,0.83343E-1
-5.71136E-1,1.28387E-1
-5.64819E-1,1.67236E-1
-5.54107E-1,2.08435E-1
-5.39550E-1,2.52380E-1
-5.13458E-1,2.93212E-1
-4.91058E-1,3.28262E-1
-4.66995E-1,3.66684E-1
-4.31564E-1,4.03091E-1
-4.02389E-1,4.32067E-1
-3.60397E-1,4.69512E-1
-3.17688E-1,4.94567E-1
-2.76947E-1,5.20752E-1
-2.32910E-1,5.44342E-1
-1.91589E-1,5.59845E-1
-1.45080E-1,5.79284E-1
-0.94360E-1,5.83160E-1
-0.54870E-1,5.83038E-1
-0.08758E-1,5.82885E-1
0.41320E-1,5.72387E-1
0.86731E-1,5.61157E-1
1.41204E-1,5.43365E-1
1.88079E-1,5.22369E-1
2.39471E-1,4.97345E-1
2.81601E-1,4.66217E-1
3.22113E-1,4.36080E-1
3.66943E-1,3.93142E-1
4.00100E-1,3.39813E-1
4.22241E-1,2.91870E-1
4.37439E-1,2.55889E-1
4.58801E-1,2.13623E-1
4.67956E-1,1.67755E-1
4.68978E-1,1.10473E-1
4.59335E-1,0.53482E-1
4.44793E-1,0.00625E-1
4.40246E-1,-0.47851E-1
4.27856E-1,-0.98770E-1
4.08874E-1,-1.42044E-1
3.78814E-1,-1.81167E-1
3.43429E-1,-2.06527E-1
3.22418E-1,-2.30453E-1
2.92282E-1,-2.64358E-1
2.58606E-1,-2.83233E-1
2.20916E-1,-3.02322E-1
1.76757E-1,-3.06304E-1
1.36367E-1,-3.04901E-1
0.94207E-1,-3.09143E-1
0.49255E-1,-3.06167E-1
0.08453E-1,-3.05969E-1
-0.40603E-1,-2.97531E-1
-0.76049E-1,-2.78884E-1
-1.01760E-1,-2.68966E-1
-1.31012E-1,-2.56988E-1
-1.58989E-1,-2.42240E-1
-1.91398E-1,-2.12509E-1
-2.05192E-1,-1.74369E-1
-2.15080E-1,-1.47003E-1
-2.31689E-1,-1.21849E-1
-2.46337E-1,-0.92292E-1
-2.60803E-1,-0.54260E-1
-2.56240E-1,-0.11337E-1
-2.50320E-1,0.17532E-1
-2.49679E-1,0.49415E-1
-2.45971E-1,0.79002E-1
-2.41493E-1,1.08955E-1
-2.25059E-1,1.38717E-1
-2.01316E-1,1.52961E-1
-1.79054E-1,1.69738E-1
-1.49459E-1,1.87553E-1
-1.21749E-1,2.06123E-1
-0.92147E-1,2.28973E-1
-0.53329E-1,2.41424E-1
-0.26161E-1,2.42157E-1
0.02075E-1,2.44079E-1
0.33592E-1,2.42988E-1
0.65162E-1,2.38487E-1
0.93025E-1,2.35969E-1
1.15997E-1,2.21283E-1
1.36627E-1,2.08915E-1
1.63124E-1,1.86752E-1
END
