CITIFILE A.01.01
#NA VERSION HP8510C.08.10
NAME DATA
#NA REGISTER 4
VAR FREQ MAG 201
DATA S[1,1] RI
DATA S[2,1] RI
DATA S[1,2] RI
DATA S[2,2] RI
SEG_LIST_BEGIN
SEG 8000000000 12000000000 201
SEG_LIST_END
COMMENT       YEAR MONTH DAY HOUR MINUTE SECONDS
CONSTANT TIME 2013   12   09  20    26    48.0
BEGIN
-5.55664E-1,-2.15087E-1
-5.74157E-1,-1.58233E-1
-5.88195E-1,-0.91247E-1
-5.94299E-1,-0.32074E-1
-5.97595E-1,0.35064E-1
-5.88348E-1,0.97595E-1
-5.74554E-1,1.57775E-1
-5.57251E-1,2.09320E-1
-5.35736E-1,2.73834E-1
-5.01037E-1,3.27758E-1
-4.67758E-1,3.75457E-1
-4.22897E-1,4.19906E-1
-3.83743E-1,4.55246E-1
-3.31329E-1,5.03967E-1
-2.75787E-1,5.29022E-1
-2.23449E-1,5.55450E-1
-1.60003E-1,5.71533E-1
-1.07147E-1,5.78826E-1
-0.48156E-1,5.93994E-1
0.18646E-1,5.84228E-1
0.74981E-1,5.79742E-1
1.35742E-1,5.63873E-1
1.84112E-1,5.43853E-1
2.34985E-1,5.18829E-1
2.78259E-1,4.85809E-1
3.21701E-1,4.62158E-1
3.67660E-1,4.24819E-1
4.05319E-1,3.87161E-1
4.38827E-1,3.38226E-1
4.63867E-1,3.01681E-1
4.95117E-1,2.52456E-1
5.13427E-1,1.93939E-1
5.26001E-1,1.42852E-1
5.33203E-1,0.84075E-1
5.37872E-1,0.40466E-1
5.34423E-1,-0.24200E-1
5.17120E-1,-0.70953E-1
5.06256E-1,-1.14318E-1
4.99801E-1,-1.69555E-1
4.63760E-1,-2.17681E-1
4.39697E-1,-2.56134E-1
4.12963E-1,-2.89596E-1
3.81424E-1,-3.26232E-1
3.52142E-1,-3.61099E-1
3.02749E-1,-3.98056E-1
2.70858E-1,-4.17831E-1
2.24044E-1,-4.38537E-1
1.80221E-1,-4.53445E-1
1.40106E-1,-4.62249E-1
0.93582E-1,-4.83718E-1
0.41992E-1,-4.70047E-1
0.1297E-1,-4.73297E-1
-0.28793E-1,-4.76135E-1
-0.71060E-1,-4.67758E-1
-1.13189E-1,-4.57061E-1
-1.55090E-1,-4.39682E-1
-1.86370E-1,-4.32296E-1
-2.25799E-1,-4.11972E-1
-2.57202E-1,-3.85040E-1
-2.78015E-1,-3.56765E-1
-3.08776E-1,-3.41659E-1
-3.38577E-1,-3.15811E-1
-3.65524E-1,-2.89566E-1
-3.90197E-1,-2.62634E-1
-4.09851E-1,-2.26089E-1
-4.22256E-1,-1.92001E-1
-4.37652E-1,-1.53427E-1
-4.59777E-1,-1.23596E-1
-4.67697E-1,-0.79742E-1
-4.66384E-1,-0.43365E-1
-4.60540E-1,-0.12786E-1
-4.70367E-1,0.25528E-1
-4.66964E-1,0.70373E-1
-4.57595E-1,1.05743E-1
-4.52896E-1,1.35330E-1
-4.43328E-1,1.70166E-1
-4.28070E-1,2.08313E-1
-4.08905E-1,2.42919E-1
-3.97827E-1,2.85934E-1
-3.72695E-1,3.23196E-1
-3.43368E-1,3.56948E-1
-3.03863E-1,3.76098E-1
-2.74795E-1,4.02343E-1
-2.33795E-1,4.37942E-1
-1.92260E-1,4.56314E-1
-1.56478E-1,4.73831E-1
-1.12060E-1,4.82452E-1
-0.70709E-1,4.91073E-1
-0.17028E-1,5.01464E-1
0.42846E-1,5.09399E-1
1.01654E-1,5.07110E-1
1.58172E-1,4.91058E-1
2.03064E-1,4.56985E-1
2.51159E-1,4.28848E-1
3.00582E-1,3.93661E-1
3.45153E-1,3.50112E-1
3.72283E-1,3.09448E-1
3.95629E-1,2.69897E-1
4.22073E-1,2.20977E-1
4.34890E-1,1.65496E-1
4.53872E-1,1.13632E-1
4.66293E-1,0.62881E-1
4.77676E-1,0.05844E-1
4.66705E-1,-0.54184E-1
4.48928E-1,-1.08688E-1
4.30892E-1,-1.68472E-1
4.03274E-1,-2.24884E-1
3.71231E-1,-2.69332E-1
3.36120E-1,-3.02581E-1
2.99774E-1,-3.38485E-1
2.51098E-1,-3.73092E-1
2.01339E-1,-4.01107E-1
1.59896E-1,-4.18212E-1
1.22940E-1,-4.43924E-1
0.71487E-1,-4.57382E-1
0.13748E-1,-4.60495E-1
-0.46157E-1,-4.57748E-1
-1.00463E-1,-4.50698E-1
-1.40914E-1,-4.43298E-1
-1.73217E-1,-4.32357E-1
-2.15957E-1,-4.21981E-1
-2.63458E-1,-3.92700E-1
-3.07998E-1,-3.60900E-1
-3.41293E-1,-3.38943E-1
-3.76861E-1,-3.23974E-1
-4.13131E-1,-2.95547E-1
-4.44534E-1,-2.51098E-1
-4.67849E-1,-1.96044E-1
-4.88784E-1,-1.52877E-1
-5.1297E-1,-1.15722E-1
-5.22857E-1,-0.84442E-1
-5.33599E-1,-0.40863E-1
-5.3125E-1,0.11474E-1
-5.27801E-1,0.64025E-1
-5.33905E-1,1.09497E-1
-5.35278E-1,1.51092E-1
-5.31311E-1,1.90704E-1
-5.10040E-1,2.37518E-1
-4.78668E-1,2.80441E-1
-4.57809E-1,3.26797E-1
-4.36508E-1,3.72299E-1
-4.13894E-1,4.00985E-1
-3.83804E-1,4.27307E-1
-3.45184E-1,4.52102E-1
-2.99774E-1,4.87167E-1
-2.58728E-1,5.18341E-1
-2.25647E-1,5.42297E-1
-1.93634E-1,5.60089E-1
-1.49017E-1,5.68695E-1
-0.90759E-1,5.75164E-1
-0.36926E-1,5.79315E-1
0.15411E-1,5.94879E-1
0.58380E-1,5.98754E-1
0.97442E-1,5.89691E-1
1.47125E-1,5.70343E-1
2.01232E-1,5.44067E-1
2.56042E-1,5.29235E-1
3.10577E-1,5.08636E-1
3.46038E-1,4.80346E-1
3.75824E-1,4.47586E-1
4.10522E-1,3.99169E-1
4.45983E-1,3.56842E-1
4.92706E-1,3.11386E-1
5.24810E-1,2.60528E-1
5.37994E-1,2.11761E-1
5.44616E-1,1.58172E-1
5.48553E-1,0.90240E-1
5.51818E-1,0.20660E-1
5.47973E-1,-0.48645E-1
5.27008E-1,-0.97625E-1
5.04211E-1,-1.38275E-1
4.67773E-1,-1.88369E-1
4.31259E-1,-2.32009E-1
4.02206E-1,-2.83203E-1
3.69537E-1,-3.24569E-1
3.32809E-1,-3.53912E-1
2.87155E-1,-3.75518E-1
2.29171E-1,-3.91784E-1
1.73278E-1,-4.14184E-1
1.20147E-1,-4.32495E-1
0.75073E-1,-4.39712E-1
0.32775E-1,-4.30557E-1
-0.09170E-1,-4.13467E-1
-0.55038E-1,-3.95980E-1
-1.02798E-1,-3.86383E-1
-1.45294E-1,-3.79623E-1
-1.79077E-1,-3.66882E-1
-2.03933E-1,-3.39813E-1
-2.32025E-1,-3.06106E-1
-2.66845E-1,-2.67471E-1
-3.01620E-1,-2.36953E-1
-3.26965E-1,-2.08847E-1
-3.34411E-1,-1.77276E-1
-3.28445E-1,-1.44287E-1
-3.31024E-1,-1.04492E-1
-3.43536E-1,-0.63873E-1
-3.55346E-1,-0.27755E-1
-3.59115E-1,-0.09857E-1
-3.48587E-1,0.08178E-1
-3.32351E-1,0.32959E-1
-3.19732E-1,0.77560E-1
END
BEGIN
-8.51684E-1,1.05468E-1
-7.62146E-1,1.8396E-1
-7.79693E-1,2.16949E-1
-7.57263E-1,3.54644E-1
-6.90582E-1,4.14764E-1
-6.43005E-1,5.17822E-1
-5.06439E-1,5.47088E-1
-4.82971E-1,5.07568E-1
-4.85961E-1,5.70739E-1
-4.30481E-1,6.13922E-1
-4.00726E-1,6.81274E-1
-2.76031E-1,7.23022E-1
-2.43652E-1,6.76208E-1
-2.51190E-1,7.60070E-1
-1.24481E-1,8.17535E-1
-0.57891E-1,8.24493E-1
0.74066E-1,8.52905E-1
1.52587E-1,7.63519E-1
1.43920E-1,7.76184E-1
2.53418E-1,8.13751E-1
3.30017E-1,7.83844E-1
4.48669E-1,7.96234E-1
5.69091E-1,6.75445E-1
5.71533E-1,6.14471E-1
6.70532E-1,5.85845E-1
7.17163E-1,4.67956E-1
7.60986E-1,4.21356E-1
8.23852E-1,2.71118E-1
7.33886E-1,1.69891E-1
7.25219E-1,1.75201E-1
7.40661E-1,1.16607E-1
7.41149E-1,1.01470E-1
8.10821E-1,0.30639E-1
7.62023E-1,-0.73120E-1
7.54943E-1,-0.62591E-1
8.26110E-1,-1.29943E-1
8.38134E-1,-2.24334E-1
8.75885E-1,-3.63189E-1
7.45025E-1,-5.38848E-1
6.31469E-1,-5.16479E-1
6.35406E-1,-5.65734E-1
5.49682E-1,-6.33361E-1
5.17791E-1,-6.59973E-1
4.26605E-1,-7.53570E-1
3.15643E-1,-7.11792E-1
3.31787E-1,-7.16461E-1
2.62359E-1,-7.96264E-1
1.99493E-1,-7.99469E-1
1.29730E-1,-8.88549E-1
-0.59509E-1,-8.63128E-1
-0.91339E-1,-7.73468E-1
-1.31927E-1,-7.76794E-1
-1.80694E-1,-7.34832E-1
-1.96624E-1,-7.55249E-1
-3.07464E-1,-7.58850E-1
-3.50555E-1,-6.91345E-1
-3.84002E-1,-6.97113E-1
-4.54162E-1,-6.66595E-1
-4.94232E-1,-6.69952E-1
-6.45935E-1,-6.53045E-1
-7.12005E-1,-4.89074E-1
-6.92260E-1,-4.32769E-1
-7.30529E-1,-3.60931E-1
-6.96563E-1,-3.14361E-1
-7.55859E-1,-3.30474E-1
-8.27789E-1,-2.17620E-1
-7.96234E-1,-1.53503E-1
-8.43261E-1,-1.21795E-1
-8.63678E-1,-0.34942E-1
-9.0802E-1,0.18493E-1
-9.48852E-1,1.85455E-1
-8.48632E-1,3.02856E-1
-8.15002E-1,3.53637E-1
-7.40112E-1,4.43634E-1
-6.75933E-1,4.42901E-1
-6.75537E-1,4.93743E-1
-6.09954E-1,5.46630E-1
-5.94940E-1,5.64544E-1
-5.63354E-1,6.45599E-1
-4.98382E-1,6.69342E-1
-4.98718E-1,7.28118E-1
-4.13818E-1,8.30566E-1
-3.15704E-1,8.64898E-1
-2.06817E-1,9.15618E-1
-0.80505E-1,8.72955E-1
-0.60699E-1,8.52996E-1
0.27374E-1,8.92608E-1
1.18743E-1,8.41430E-1
1.55700E-1,8.33007E-1
2.38464E-1,8.14880E-1
2.64373E-1,7.78900E-1
3.15338E-1,8.14147E-1
4.38659E-1,7.97546E-1
5.09613E-1,7.32055E-1
5.9021E-1,6.83227E-1
6.36322E-1,5.87493E-1
6.52252E-1,5.47943E-1
7.15728E-1,4.88586E-1
7.13073E-1,4.09393E-1
7.39379E-1,3.95080E-1
7.91076E-1,3.24646E-1
7.97149E-1,2.70141E-1
8.53302E-1,2.30011E-1
8.85894E-1,1.32751E-1
9.02374E-1,0.70465E-1
9.50317E-1,-0.41015E-1
9.02771E-1,-1.75445E-1
8.60076E-1,-2.30835E-1
8.37341E-1,-3.13354E-1
7.83386E-1,-3.72894E-1
7.60009E-1,-4.35821E-1
6.86248E-1,-5.09979E-1
6.29638E-1,-5.18005E-1
6.16790E-1,-5.61340E-1
5.70556E-1,-6.20178E-1
5.31707E-1,-6.68365E-1
4.62738E-1,-7.39685E-1
3.67889E-1,-7.59765E-1
3.12408E-1,-7.80761E-1
2.21405E-1,-8.02978E-1
1.59729E-1,-7.78595E-1
1.14227E-1,-7.96691E-1
0.32959E-1,-7.91381E-1
-0.10925E-1,-7.71453E-1
-0.67596E-1,-7.69470E-1
-1.15051E-1,-7.43530E-1
-1.43035E-1,-7.48840E-1
-2.08404E-1,-7.60376E-1
-2.76031E-1,-7.47283E-1
-3.54492E-1,-7.27691E-1
-4.15924E-1,-6.63696E-1
-4.34692E-1,-6.31591E-1
-4.94537E-1,-6.16882E-1
-5.44342E-1,-5.62591E-1
-5.82092E-1,-5.29724E-1
-6.31652E-1,-4.68170E-1
-6.30401E-1,-4.16290E-1
-6.66839E-1,-4.06799E-1
-7.25158E-1,-3.51318E-1
-7.51983E-1,-2.92755E-1
-7.95654E-1,-2.30926E-1
-8.01391E-1,-1.4328E-1
-8.05877E-1,-0.96740E-1
-8.33465E-1,-0.14923E-1
-8.07312E-1,0.62683E-1
-8.08532E-1,1.16760E-1
-7.85797E-1,2.08801E-1
-7.34497E-1,2.40905E-1
-7.34436E-1,2.76428E-1
-7.14935E-1,3.32794E-1
-7.10907E-1,3.74176E-1
-7.02026E-1,4.63256E-1
-6.34521E-1,5.31127E-1
-5.96405E-1,5.64544E-1
-5.49102E-1,6.17157E-1
-5.05004E-1,6.49505E-1
-4.63714E-1,7.14416E-1
-3.65264E-1,7.52349E-1
-3.15673E-1,7.44598E-1
-2.72155E-1,7.80670E-1
-2.13073E-1,7.93884E-1
-1.73309E-1,8.26385E-1
-0.84259E-1,8.65753E-1
-0.00244E-1,8.54705E-1
0.60394E-1,8.64196E-1
1.49414E-1,8.57177E-1
2.07672E-1,8.34137E-1
2.85522E-1,8.31939E-1
3.66394E-1,7.85095E-1
4.12841E-1,7.46002E-1
4.72320E-1,7.07000E-1
5.04791E-1,6.63208E-1
5.52703E-1,6.47491E-1
6.23016E-1,6.02081E-1
6.65802E-1,5.45349E-1
7.14508E-1,4.95880E-1
7.49176E-1,4.29351E-1
7.78442E-1,3.79943E-1
8.22723E-1,3.17016E-1
8.44146E-1,2.40905E-1
8.62182E-1,1.75964E-1
8.81500E-1,1.02478E-1
8.85803E-1,0.26947E-1
8.88610E-1,-0.43762E-1
8.81713E-1,-1.22833E-1
8.64379E-1,-1.90918E-1
8.48846E-1,-2.57995E-1
8.28704E-1,-3.32366E-1
7.92541E-1,-3.99261E-1
7.55706E-1,-4.56390E-1
7.17407E-1,-5.16296E-1
6.75964E-1,-5.63171E-1
6.48986E-1,-6.20697E-1
5.87982E-1,-6.99585E-1
5.10070E-1,-7.40631E-1
4.42230E-1,-7.74902E-1
3.68164E-1,-7.9245E-1
3.22418E-1,-8.03161E-1
2.67150E-1,-8.44879E-1
1.83807E-1,-8.59527E-1
1.18255E-1,-8.62060E-1
END
BEGIN
-7.59094E-1,1.00647E-1
-7.82409E-1,1.76818E-1
-6.96624E-1,2.84759E-1
-6.66290E-1,2.52990E-1
-7.40875E-1,3.45703E-1
-6.58599E-1,4.67071E-1
-6.29119E-1,5.11871E-1
-5.43304E-1,6.22833E-1
-4.51293E-1,5.97747E-1
-4.91912E-1,6.42364E-1
-3.98895E-1,7.72430E-1
-2.93335E-1,7.88024E-1
-1.86706E-1,8.34899E-1
-0.69885E-1,7.77618E-1
-0.78949E-1,7.68219E-1
0.15075E-1,8.47076E-1
1.26007E-1,8.10852E-1
2.08526E-1,8.14483E-1
3.31726E-1,7.19848E-1
2.98645E-1,6.39495E-1
3.28765E-1,6.92901E-1
4.34631E-1,6.52679E-1
4.72808E-1,6.24267E-1
5.82855E-1,5.71563E-1
5.8078E-1,4.60083E-1
5.7724E-1,4.77203E-1
6.76178E-1,4.42077E-1
7.10418E-1,3.71002E-1
7.91229E-1,3.02764E-1
7.83050E-1,1.48803E-1
7.23419E-1,1.34674E-1
7.83599E-1,1.15539E-1
8.10394E-1,0.41564E-1
8.72436E-1,-0.35247E-1
8.39538E-1,-2.24334E-1
7.07946E-1,-2.42584E-1
7.36389E-1,-2.30102E-1
7.55615E-1,-3.14605E-1
7.69714E-1,-3.93554E-1
7.23388E-1,-5.74066E-1
5.33508E-1,-5.99792E-1
5.16052E-1,-5.37292E-1
5.25573E-1,-5.93353E-1
5.03692E-1,-6.44805E-1
4.75189E-1,-7.83294E-1
2.67272E-1,-8.44879E-1
2.06298E-1,-7.45727E-1
2.12310E-1,-7.77771E-1
1.54113E-1,-8.06549E-1
1.21551E-1,-8.81988E-1
-0.83953E-1,-9.51995E-1
-2.07031E-1,-8.06304E-1
-1.89636E-1,-7.68920E-1
-2.42401E-1,-7.68341E-1
-2.59613E-1,-7.77648E-1
-3.93890E-1,-8.43139E-1
-5.54565E-1,-6.99585E-1
-5.26153E-1,-6.00708E-1
-5.56793E-1,-5.83984E-1
-5.73120E-1,-5.49102E-1
-6.47735E-1,-5.83313E-1
-8.02246E-1,-4.67865E-1
-7.65472E-1,-3.13659E-1
-7.46368E-1,-2.86010E-1
-7.49328E-1,-2.34588E-1
-7.67120E-1,-2.49877E-1
-9.12536E-1,-1.84326E-1
-8.98559E-1,0.18035E-1
-8.2547E-1,0.56610E-1
-8.26019E-1,1.04766E-1
-8.11554E-1,1.34887E-1
-8.92089E-1,1.91223E-1
-8.76983E-1,3.96728E-1
-7.42004E-1,4.59259E-1
-7.04711E-1,4.81964E-1
-6.53625E-1,5.24231E-1
-6.53106E-1,5.48095E-1
-6.33392E-1,6.75933E-1
-4.95178E-1,7.46002E-1
-4.15893E-1,7.42950E-1
-3.50372E-1,7.50671E-1
-3.32794E-1,7.52258E-1
-3.00140E-1,8.42834E-1
-1.52252E-1,8.83453E-1
-0.74401E-1,8.46405E-1
0.04150E-1,8.43597E-1
0.60485E-1,7.88513E-1
0.59509E-1,8.03588E-1
1.52221E-1,8.55926E-1
2.52502E-1,8.11157E-1
3.03009E-1,7.83783E-1
3.56994E-1,7.35961E-1
3.63250E-1,7.30041E-1
4.51599E-1,7.69012E-1
5.80108E-1,7.15789E-1
6.51702E-1,6.38946E-1
7.04071E-1,5.39459E-1
6.82281E-1,4.83856E-1
7.37976E-1,4.96551E-1
8.47473E-1,4.10827E-1
8.76586E-1,2.91534E-1
8.95904E-1,1.86706E-1
8.52783E-1,0.95550E-1
8.56079E-1,0.92041E-1
9.21875E-1,0.09674E-1
9.05242E-1,-1.05529E-1
8.95660E-1,-1.89544E-1
8.35784E-1,-3.06640E-1
7.63061E-1,-3.18176E-1
7.91626E-1,-3.55255E-1
7.72491E-1,-4.65911E-1
7.13378E-1,-5.45715E-1
6.21917E-1,-6.27441E-1
5.11016E-1,-6.13861E-1
5.11749E-1,-6.04919E-1
4.89654E-1,-6.82403E-1
4.15924E-1,-7.40783E-1
3.25622E-1,-7.90893E-1
2.06268E-1,-7.66723E-1
1.88476E-1,-7.17681E-1
1.82586E-1,-7.52014E-1
1.19354E-1,-7.96905E-1
0.30700E-1,-8.28704E-1
-0.93689E-1,-8.04199E-1
-1.32568E-1,-7.22625E-1
-1.30737E-1,-7.21588E-1
-1.79565E-1,-7.40173E-1
-2.49969E-1,-7.51098E-1
-3.61999E-1,-7.21649E-1
-4.06280E-1,-6.10656E-1
-3.83209E-1,-5.80322E-1
-4.11834E-1,-5.96099E-1
-4.75006E-1,-5.91369E-1
-5.59631E-1,-5.57037E-1
-6.03607E-1,-4.59320E-1
-5.86822E-1,-4.08660E-1
-6.07025E-1,-3.93798E-1
-6.42486E-1,-3.64074E-1
-6.94671E-1,-3.32000E-1
-7.4823E-1,-2.49389E-1
-7.31231E-1,-1.69799E-1
-7.25830E-1,-1.40167E-1
-7.38616E-1,-1.02600E-1
-7.64709E-1,-0.64056E-1
-8.05023E-1,0.13244E-1
-7.88604E-1,1.04858E-1
-7.69348E-1,1.47216E-1
-7.67791E-1,1.94274E-1
-7.69683E-1,2.40722E-1
-7.88452E-1,3.20404E-1
-7.44995E-1,4.36950E-1
-6.66046E-1,4.79034E-1
-6.42181E-1,5.08026E-1
-6.21643E-1,5.53344E-1
-6.08062E-1,6.17889E-1
-5.50170E-1,7.15026E-1
-4.42962E-1,7.58239E-1
-3.78418E-1,7.71087E-1
-3.21106E-1,7.98248E-1
-2.71301E-1,8.31512E-1
-1.94183E-1,8.86322E-1
-0.81848E-1,8.91479E-1
-0.11962E-1,8.67431E-1
0.48065E-1,8.55712E-1
0.96893E-1,8.49670E-1
1.64764E-1,8.70147E-1
2.64801E-1,8.57666E-1
3.36517E-1,8.14331E-1
3.97583E-1,7.75024E-1
4.37225E-1,7.33276E-1
4.87213E-1,7.20642E-1
5.70159E-1,6.87622E-1
6.33483E-1,6.17095E-1
6.73004E-1,5.51940E-1
6.99829E-1,4.92157E-1
7.29339E-1,4.55200E-1
7.80822E-1,4.05517E-1
8.22174E-1,3.2901E-1
8.41217E-1,2.52441E-1
8.52722E-1,1.82037E-1
8.60870E-1,1.17431E-1
8.72833E-1,0.50018E-1
8.81134E-1,-0.20629E-1
8.78234E-1,-0.96466E-1
8.68866E-1,-1.67724E-1
8.52783E-1,-2.43927E-1
8.15979E-1,-3.14605E-1
7.83477E-1,-3.67523E-1
7.57202E-1,-4.28100E-1
7.23022E-1,-4.84100E-1
6.98730E-1,-5.45745E-1
6.41662E-1,-6.23107E-1
5.64575E-1,-6.60308E-1
5.13519E-1,-6.86706E-1
4.60083E-1,-7.17498E-1
4.24957E-1,-7.51922E-1
3.60137E-1,-8.21868E-1
2.53631E-1,-8.35235E-1
1.93786E-1,-8.17260E-1
1.45904E-1,-8.16284E-1
1.10046E-1,-8.18420E-1
END
BEGIN
-5.96771E-1,-1.2323E-1
-6.06262E-1,-0.58563E-1
-6.09802E-1,0.12390E-1
-6.06628E-1,0.73242E-1
-5.94116E-1,1.47918E-1
-5.65856E-1,2.12371E-1
-5.37750E-1,2.75421E-1
-5.06866E-1,3.28918E-1
-4.69604E-1,3.89389E-1
-4.20013E-1,4.38232E-1
-3.71536E-1,4.76791E-1
-3.13598E-1,5.10772E-1
-2.60467E-1,5.38879E-1
-1.89758E-1,5.73303E-1
-1.23779E-1,5.81573E-1
-0.61096E-1,5.91247E-1
0.05035E-1,5.88806E-1
0.65094E-1,5.83252E-1
1.30950E-1,5.79376E-1
1.92688E-1,5.46264E-1
2.43591E-1,5.17120E-1
2.93121E-1,4.81079E-1
3.39248E-1,4.44244E-1
3.87222E-1,3.95446E-1
4.24209E-1,3.41644E-1
4.60098E-1,2.94677E-1
4.86663E-1,2.34741E-1
5.08087E-1,1.79504E-1
5.20385E-1,1.09436E-1
5.28411E-1,0.54718E-1
5.33142E-1,-0.10742E-1
5.22613E-1,-0.72967E-1
5.09460E-1,-1.18530E-1
4.90341E-1,-1.69143E-1
4.73342E-1,-2.09365E-1
4.37576E-1,-2.68341E-1
3.96225E-1,-3.03802E-1
3.69232E-1,-3.37341E-1
3.38134E-1,-3.84979E-1
2.83737E-1,-4.13970E-1
2.36145E-1,-4.37271E-1
1.87606E-1,-4.51583E-1
1.35009E-1,-4.62326E-1
0.90591E-1,-4.73907E-1
0.34866E-1,-4.76760E-1
0.03051E-1,-4.81857E-1
-0.47699E-1,-4.85015E-1
-1.02462E-1,-4.78088E-1
-1.54861E-1,-4.64248E-1
-2.18170E-1,-4.50439E-1
-2.65701E-1,-4.04953E-1
-3.01254E-1,-3.82034E-1
-3.41278E-1,-3.54370E-1
-3.76510E-1,-3.19229E-1
-4.05609E-1,-2.81631E-1
-4.27566E-1,-2.36312E-1
-4.48883E-1,-2.00164E-1
-4.67132E-1,-1.49581E-1
-4.78332E-1,-0.96496E-1
-4.78469E-1,-0.43426E-1
-4.85076E-1,0.01663E-1
-4.84161E-1,0.48797E-1
-4.79690E-1,1.02478E-1
-4.72473E-1,1.57547E-1
-4.51049E-1,2.16690E-1
-4.26071E-1,2.60879E-1
-3.97003E-1,3.02551E-1
-3.74633E-1,3.39569E-1
-3.33343E-1,3.73001E-1
-2.84149E-1,4.00192E-1
-2.33810E-1,4.14581E-1
-1.83746E-1,4.45678E-1
-1.22222E-1,4.58862E-1
-0.72876E-1,4.61608E-1
-0.23223E-1,4.71527E-1
0.33279E-1,4.69711E-1
0.91415E-1,4.59320E-1
1.38946E-1,4.35867E-1
1.84463E-1,4.25155E-1
2.31323E-1,4.04998E-1
2.78945E-1,3.70681E-1
3.04748E-1,3.23608E-1
3.27804E-1,2.85980E-1
3.56781E-1,2.42141E-1
3.74435E-1,1.93847E-1
3.91525E-1,1.45629E-1
3.96575E-1,0.94497E-1
3.92700E-1,0.55252E-1
3.75122E-1,0.24642E-1
3.66531E-1,0.08056E-1
3.59817E-1,-0.04760E-1
3.66210E-1,-0.22979E-1
3.72406E-1,-0.50888E-1
3.79577E-1,-0.92086E-1
3.74298E-1,-1.34826E-1
3.61938E-1,-1.72317E-1
3.49090E-1,-2.09976E-1
3.28216E-1,-2.54486E-1
2.96859E-1,-3.01910E-1
2.66037E-1,-3.28781E-1
2.45056E-1,-3.64044E-1
2.20047E-1,-3.90411E-1
1.91391E-1,-4.17343E-1
1.53152E-1,-4.26361E-1
1.24130E-1,-4.32098E-1
0.89111E-1,-4.51507E-1
0.43243E-1,-4.62204E-1
-0.00335E-1,-4.66873E-1
-0.43060E-1,-4.6492E-1
-0.79559E-1,-4.62280E-1
-1.17569E-1,-4.5961E-1
-1.59973E-1,-4.49707E-1
-1.93756E-1,-4.36065E-1
-2.33062E-1,-4.28741E-1
-2.69821E-1,-4.11224E-1
-3.00399E-1,-3.95202E-1
-3.31756E-1,-3.78036E-1
-3.61373E-1,-3.51959E-1
-3.89404E-1,-3.21914E-1
-4.11926E-1,-2.87963E-1
-4.41497E-1,-2.55386E-1
-4.68414E-1,-2.19360E-1
-4.91973E-1,-1.8396E-1
-5.09826E-1,-1.51886E-1
-5.26855E-1,-1.16546E-1
-5.41564E-1,-0.77270E-1
-5.48065E-1,-0.32745E-1
-5.50598E-1,0.05889E-1
-5.56884E-1,0.42663E-1
-5.57617E-1,0.90942E-1
-5.48034E-1,1.28021E-1
-5.40741E-1,1.75384E-1
-5.22735E-1,2.18902E-1
-5.08636E-1,2.60223E-1
-4.94186E-1,3.05648E-1
-4.71115E-1,3.46221E-1
-4.53445E-1,3.85772E-1
-4.21890E-1,4.22988E-1
-3.93692E-1,4.45541E-1
-3.67446E-1,4.74762E-1
-3.27880E-1,5.03570E-1
-2.89703E-1,5.21759E-1
-2.47375E-1,5.45166E-1
-2.03430E-1,5.57800E-1
-1.61834E-1,5.75561E-1
-1.11328E-1,5.87249E-1
-0.62530E-1,5.9198E-1
-0.07141E-1,5.99212E-1
0.53772E-1,5.94757E-1
1.0495E-1,5.84106E-1
1.48284E-1,5.75256E-1
1.95617E-1,5.67535E-1
2.35565E-1,5.49011E-1
2.79632E-1,5.22308E-1
3.17123E-1,4.87121E-1
3.56124E-1,4.49264E-1
3.96987E-1,4.14199E-1
4.36218E-1,3.70300E-1
4.67376E-1,3.26919E-1
4.90615E-1,2.76504E-1
5.04089E-1,2.26898E-1
5.16998E-1,1.83990E-1
5.36071E-1,1.34582E-1
5.43182E-1,0.90148E-1
5.49072E-1,0.45135E-1
5.40252E-1,0.02960E-1
5.27801E-1,-0.37963E-1
5.13427E-1,-0.84899E-1
4.89608E-1,-1.33422E-1
4.66110E-1,-1.75842E-1
4.36630E-1,-2.23785E-1
4.01351E-1,-2.62664E-1
3.68286E-1,-2.93319E-1
3.35464E-1,-3.24905E-1
3.04321E-1,-3.52630E-1
2.62710E-1,-3.84231E-1
2.14859E-1,-3.95553E-1
1.75796E-1,-4.02252E-1
1.37985E-1,-4.12323E-1
0.97824E-1,-4.16564E-1
0.51788E-1,-4.23248E-1
-0.01861E-1,-4.11743E-1
-0.42205E-1,-3.95385E-1
-0.85693E-1,-3.82949E-1
-1.25427E-1,-3.66882E-1
-1.64932E-1,-3.55987E-1
-2.08496E-1,-3.34487E-1
-2.31582E-1,-3.05282E-1
-2.51709E-1,-2.81433E-1
-2.69027E-1,-2.48123E-1
-2.79678E-1,-2.18536E-1
-3.00582E-1,-1.86111E-1
-3.12942E-1,-1.38977E-1
-3.09997E-1,-1.02172E-1
-3.05236E-1,-0.68450E-1
-2.95272E-1,-0.38726E-1
-2.88711E-1,-0.06942E-1
-2.82913E-1,0.26001E-1
-2.67913E-1,0.51940E-1
-2.58087E-1,0.62484E-1
-2.47116E-1,0.70190E-1
END
