CITIFILE A.01.01
#NA VERSION HP8510C.08.10
NAME DATA
#NA REGISTER 4
VAR FREQ MAG 201
DATA S[1,1] RI
DATA S[2,1] RI
DATA S[1,2] RI
DATA S[2,2] RI
SEG_LIST_BEGIN
SEG 8000000000 12000000000 201
SEG_LIST_END
COMMENT       YEAR MONTH DAY HOUR MINUTE SECONDS
CONSTANT TIME 2013   12   09  20    29    53.0
BEGIN
-5.96649E-1,-1.78649E-1
-6.11633E-1,-1.17218E-1
-6.22192E-1,-0.45684E-1
-6.24115E-1,0.16937E-1
-6.21582E-1,0.86731E-1
-6.06658E-1,1.51214E-1
-5.87432E-1,2.13439E-1
-5.65307E-1,2.66998E-1
-5.36682E-1,3.31878E-1
-4.95803E-1,3.85574E-1
-4.57412E-1,4.32891E-1
-4.06341E-1,4.75753E-1
-3.60626E-1,5.10803E-1
-3.00994E-1,5.54992E-1
-2.42309E-1,5.77209E-1
-1.84845E-1,5.99884E-1
-1.18042E-1,6.11572E-1
-0.60943E-1,6.15112E-1
0.02807E-1,6.25335E-1
0.70800E-1,6.09436E-1
1.28875E-1,6.00067E-1
1.90673E-1,5.79284E-1
2.40997E-1,5.54840E-1
2.92846E-1,5.23681E-1
3.35723E-1,4.86496E-1
3.80584E-1,4.57717E-1
4.24881E-1,4.13284E-1
4.62463E-1,3.70513E-1
4.91821E-1,3.16116E-1
5.16235E-1,2.74566E-1
5.44006E-1,2.19268E-1
5.58441E-1,1.56127E-1
5.67474E-1,1.01135E-1
5.69122E-1,0.38513E-1
5.69641E-1,-0.09155E-1
5.58746E-1,-0.75988E-1
5.36712E-1,-1.23748E-1
5.22033E-1,-1.69067E-1
5.08606E-1,-2.26287E-1
4.67636E-1,-2.70980E-1
4.40597E-1,-3.09143E-1
4.11819E-1,-3.44314E-1
3.75061E-1,-3.83041E-1
3.36746E-1,-4.21539E-1
2.77755E-1,-4.52560E-1
2.40829E-1,-4.68292E-1
1.90444E-1,-4.83337E-1
1.44271E-1,-4.93972E-1
1.02356E-1,-5.00488E-1
0.49835E-1,-5.17089E-1
-0.00061E-1,-4.98733E-1
-0.31921E-1,-5.00885E-1
-0.77179E-1,-4.99908E-1
-1.22146E-1,-4.87548E-1
-1.65679E-1,-4.72045E-1
-2.07901E-1,-4.49691E-1
-2.42218E-1,-4.39422E-1
-2.82089E-1,-4.12963E-1
-3.13064E-1,-3.81790E-1
-3.34701E-1,-3.51562E-1
-3.72695E-1,-3.29849E-1
-3.97949E-1,-2.90023E-1
-4.19158E-1,-2.60437E-1
-4.41955E-1,-2.28439E-1
-4.55871E-1,-1.87423E-1
-4.66873E-1,-1.51351E-1
-4.78576E-1,-1.09329E-1
-4.98138E-1,-0.74005E-1
-5.00946E-1,-0.28106E-1
-4.95986E-1,0.10299E-1
-4.87640E-1,0.41839E-1
-4.93606E-1,0.86349E-1
-4.84832E-1,1.32766E-1
-4.73175E-1,1.68853E-1
-4.66217E-1,2.03125E-1
-4.53277E-1,2.43179E-1
-4.32434E-1,2.89657E-1
-4.02587E-1,3.33358E-1
-3.73596E-1,3.80950E-1
-3.32763E-1,4.15832E-1
-2.88726E-1,4.41665E-1
-2.39563E-1,4.51065E-1
-2.02652E-1,4.69848E-1
-1.52099E-1,4.95941E-1
-1.04675E-1,5.05279E-1
-0.61462E-1,5.12664E-1
-0.13549E-1,5.07232E-1
0.32379E-1,5.05218E-1
0.87478E-1,4.99023E-1
1.44577E-1,4.91394E-1
1.94809E-1,4.75112E-1
2.42309E-1,4.50851E-1
2.76947E-1,4.14672E-1
3.23516E-1,3.82019E-1
3.68347E-1,3.37722E-1
4.03244E-1,2.88055E-1
4.23202E-1,2.47070E-1
4.42459E-1,2.05246E-1
4.63531E-1,1.49185E-1
4.68536E-1,0.92712E-1
4.81658E-1,0.36880E-1
4.87350E-1,-0.17181E-1
4.90020E-1,-0.77575E-1
4.68551E-1,-1.37329E-1
4.43069E-1,-1.91970E-1
4.14520E-1,-2.52594E-1
3.76144E-1,-3.04733E-1
3.36883E-1,-3.43200E-1
2.96234E-1,-3.71398E-1
2.51937E-1,-4.03213E-1
1.96945E-1,-4.30267E-1
1.42334E-1,-4.51065E-1
0.99273E-1,-4.62936E-1
0.55770E-1,-4.83902E-1
0.01663E-1,-4.87747E-1
-0.58151E-1,-4.84085E-1
-1.19842E-1,-4.71664E-1
-1.72561E-1,-4.56939E-1
-2.12081E-1,-4.44427E-1
-2.44689E-1,-4.28497E-1
-2.87292E-1,-4.09362E-1
-3.33068E-1,-3.72802E-1
-3.72634E-1,-3.3461E-1
-4.03884E-1,-3.09906E-1
-4.38720E-1,-2.86956E-1
-4.69512E-1,-2.52990E-1
-4.96429E-1,-2.01156E-1
-5.12237E-1,-1.42791E-1
-5.29724E-1,-0.97381E-1
-5.48614E-1,-0.55694E-1
-5.53772E-1,-0.21606E-1
-5.57891E-1,0.23956E-1
-5.48278E-1,0.78460E-1
-5.39032E-1,1.31561E-1
-5.39550E-1,1.78283E-1
-5.34851E-1,2.19696E-1
-5.23376E-1,2.58728E-1
-4.96093E-1,3.04061E-1
-4.59777E-1,3.4552E-1
-4.33471E-1,3.90060E-1
-4.05960E-1,4.32998E-1
-3.78509E-1,4.58236E-1
-3.45459E-1,4.80835E-1
-2.99865E-1,5.03570E-1
-2.50671E-1,5.33386E-1
-2.04498E-1,5.61554E-1
-1.68365E-1,5.80566E-1
-1.32812E-1,5.93475E-1
-0.86151E-1,5.96405E-1
-0.25146E-1,5.96221E-1
0.30883E-1,5.95703E-1
0.86944E-1,6.05590E-1
1.29272E-1,6.03118E-1
1.69250E-1,5.88775E-1
2.17895E-1,5.62835E-1
2.72125E-1,5.30456E-1
3.27941E-1,5.07659E-1
3.79303E-1,4.79003E-1
4.12475E-1,4.45678E-1
4.39926E-1,4.07287E-1
4.70123E-1,3.52172E-1
5.04608E-1,3.03253E-1
5.45867E-1,2.47558E-1
5.70098E-1,1.91192E-1
5.76843E-1,1.37146E-1
5.74768E-1,0.77728E-1
5.66772E-1,0.04821E-1
5.58868E-1,-0.67932E-1
5.41626E-1,-1.35772E-1
5.12817E-1,-1.81274E-1
4.79888E-1,-2.19345E-1
4.34799E-1,-2.64938E-1
3.89663E-1,-3.05526E-1
3.50067E-1,-3.50555E-1
3.11340E-1,-3.83972E-1
2.68692E-1,-4.05853E-1
2.17941E-1,-4.18975E-1
1.54602E-1,-4.25918E-1
0.95901E-1,-4.37149E-1
0.43365E-1,-4.4664E-1
-0.01846E-1,-4.45632E-1
-0.42663E-1,-4.27261E-1
-0.84182E-1,-4.00619E-1
-1.28067E-1,-3.73138E-1
-1.71310E-1,-3.55682E-1
-2.09014E-1,-3.42559E-1
-2.36923E-1,-3.22433E-1
-2.54516E-1,-2.89672E-1
-2.75939E-1,-2.49527E-1
-3.02093E-1,-2.06863E-1
-3.29299E-1,-1.73355E-1
-3.47015E-1,-1.43753E-1
-3.44497E-1,-1.10763E-1
-3.29162E-1,-0.78048E-1
-3.20541E-1,-0.40084E-1
-3.24081E-1,-0.02853E-1
-3.28048E-1,0.26611E-1
-3.28186E-1,0.36315E-1
-3.11035E-1,0.45867E-1
-2.95501E-1,0.60257E-1
-2.81372E-1,0.98770E-1
END
BEGIN
-8.22784E-1,1.46698E-1
-7.27691E-1,2.17834E-1
-7.45391E-1,2.49450E-1
-7.15301E-1,3.84277E-1
-6.46637E-1,4.38324E-1
-5.93841E-1,5.36987E-1
-4.57275E-1,5.54931E-1
-4.38659E-1,5.12359E-1
-4.40063E-1,5.75195E-1
-3.84521E-1,6.14257E-1
-3.54095E-1,6.79687E-1
-2.26684E-1,7.13195E-1
-2.01751E-1,6.63513E-1
-2.08618E-1,7.49084E-1
-0.77972E-1,8.00201E-1
-0.14373E-1,8.03649E-1
1.19415E-1,8.24554E-1
1.89453E-1,7.28759E-1
1.77368E-1,7.45147E-1
2.89825E-1,7.78167E-1
3.62457E-1,7.44659E-1
4.82940E-1,7.51068E-1
5.93872E-1,6.20971E-1
5.88897E-1,5.62652E-1
6.86767E-1,5.29235E-1
7.23175E-1,4.07653E-1
7.62542E-1,3.61267E-1
8.125E-1,2.06390E-1
7.12982E-1,1.17462E-1
7.05230E-1,1.26800E-1
7.16369E-1,0.70007E-1
7.17804E-1,0.58319E-1
7.81616E-1,-0.15533E-1
7.27294E-1,-1.11267E-1
7.22564E-1,-0.97656E-1
7.90313E-1,-1.65863E-1
7.98217E-1,-2.58697E-1
8.30352E-1,-3.97247E-1
6.90582E-1,-5.63171E-1
5.79376E-1,-5.32165E-1
5.81420E-1,-5.77636E-1
4.94842E-1,-6.35162E-1
4.70123E-1,-6.54174E-1
3.85498E-1,-7.48626E-1
2.74658E-1,-7.06024E-1
2.94799E-1,-7.14355E-1
2.17590E-1,-7.94830E-1
1.53503E-1,-7.91961E-1
0.80047E-1,-8.79638E-1
-1.10961E-1,-8.40850E-1
-1.34948E-1,-7.46673E-1
-1.73614E-1,-7.48016E-1
-2.17712E-1,-7.02423E-1
-2.31384E-1,-7.23083E-1
-3.42620E-1,-7.21679E-1
-3.79547E-1,-6.49963E-1
-4.10858E-1,-6.56433E-1
-4.78271E-1,-6.22985E-1
-5.16479E-1,-6.26098E-1
-6.67419E-1,-6.00647E-1
-7.17742E-1,-4.36645E-1
-7.02758E-1,-3.84796E-1
-7.34954E-1,-3.07617E-1
-6.94763E-1,-2.64709E-1
-7.56439E-1,-2.80304E-1
-8.21777E-1,-1.61987E-1
-7.84637E-1,-1.01928E-1
-8.30627E-1,-0.68481E-1
-8.45214E-1,0.18737E-1
-8.86474E-1,0.75744E-1
-9.15222E-1,2.47253E-1
-8.01178E-1,3.55346E-1
-7.61413E-1,4.01733E-1
-6.77917E-1,4.79980E-1
-6.15387E-1,4.71099E-1
-6.05621E-1,5.1474E-1
-5.40679E-1,5.513E-1
-5.26123E-1,5.58319E-1
-5.04364E-1,6.20788E-1
-4.53491E-1,6.44500E-1
-4.61731E-1,6.94885E-1
-3.96270E-1,8.00994E-1
-3.07220E-1,8.45672E-1
-2.04772E-1,9.09271E-1
-0.65094E-1,8.79211E-1
-0.4422E-1,8.52386E-1
0.38940E-1,9.03778E-1
1.45294E-1,8.57605E-1
1.81518E-1,8.51379E-1
2.83813E-1,8.38531E-1
3.17321E-1,7.92938E-1
3.83941E-1,8.32183E-1
5.28564E-1,7.88269E-1
5.88378E-1,6.98211E-1
6.64978E-1,6.39160E-1
6.99157E-1,5.26794E-1
7.03887E-1,4.83215E-1
7.59399E-1,4.14581E-1
7.41455E-1,3.36914E-1
7.65197E-1,3.22570E-1
8.08685E-1,2.48779E-1
8.06945E-1,1.95678E-1
8.58917E-1,1.52343E-1
8.81378E-1,0.53070E-1
8.91754E-1,-0.08697E-1
9.30114E-1,-1.23626E-1
8.68866E-1,-2.52441E-1
8.21044E-1,-2.99896E-1
7.89733E-1,-3.80523E-1
7.30743E-1,-4.32037E-1
7.02850E-1,-4.90814E-1
6.22283E-1,-5.55603E-1
5.66406E-1,-5.54901E-1
5.52856E-1,-5.94512E-1
5.02075E-1,-6.48101E-1
4.62097E-1,-6.92016E-1
3.87695E-1,-7.55828E-1
2.93792E-1,-7.66357E-1
2.39013E-1,-7.81189E-1
1.47369E-1,-7.94525E-1
0.91613E-1,-7.64587E-1
0.48492E-1,-7.78778E-1
-0.30334E-1,-7.65472E-1
-0.68969E-1,-7.42584E-1
-1.22070E-1,-7.37365E-1
-1.64611E-1,-7.07702E-1
-1.90399E-1,-7.13623E-1
-2.55737E-1,-7.20733E-1
-3.19702E-1,-7.04132E-1
-3.9505E-1,-6.80023E-1
-4.49768E-1,-6.1203E-1
-4.64477E-1,-5.81848E-1
-5.22674E-1,-5.63812E-1
-5.66314E-1,-5.08392E-1
-6.01470E-1,-4.74395E-1
-6.45446E-1,-4.11102E-1
-6.40075E-1,-3.62365E-1
-6.76452E-1,-3.51318E-1
-7.30712E-1,-2.92022E-1
-7.53295E-1,-2.34283E-1
-7.92236E-1,-1.69708E-1
-7.90649E-1,-0.83618E-1
-7.93243E-1,-0.38147E-1
-8.14147E-1,0.44982E-1
-7.82562E-1,1.19384E-1
-7.81219E-1,1.71112E-1
-7.50518E-1,2.59826E-1
-6.99340E-1,2.86041E-1
-6.97998E-1,3.21289E-1
-6.73858E-1,3.76251E-1
-6.6745E-1,4.16961E-1
-6.50512E-1,5.05310E-1
-5.78308E-1,5.64971E-1
-5.39245E-1,5.94940E-1
-4.89105E-1,6.42913E-1
-4.44335E-1,6.69921E-1
-3.96820E-1,7.30712E-1
-2.97699E-1,7.57232E-1
-2.52929E-1,7.46673E-1
-2.06848E-1,7.78747E-1
-1.47796E-1,7.86621E-1
-1.05529E-1,8.15246E-1
-0.16204E-1,8.43841E-1
0.62042E-1,8.25073E-1
1.19751E-1,8.29772E-1
2.03735E-1,8.14941E-1
2.55004E-1,7.90039E-1
3.28338E-1,7.82409E-1
3.99475E-1,7.35046E-1
4.41772E-1,6.98486E-1
4.97436E-1,6.60278E-1
5.28595E-1,6.17767E-1
5.75378E-1,5.99609E-1
6.40838E-1,5.51635E-1
6.79626E-1,4.97589E-1
7.26165E-1,4.45831E-1
7.57843E-1,3.79364E-1
7.84484E-1,3.29925E-1
8.24157E-1,2.65075E-1
8.4198E-1,1.91253E-1
8.57421E-1,1.28753E-1
8.74054E-1,0.54534E-1
8.75946E-1,-0.19989E-1
8.75549E-1,-0.90301E-1
8.65509E-1,-1.66809E-1
8.46221E-1,-2.34008E-1
8.29406E-1,-2.99285E-1
8.08136E-1,-3.71093E-1
7.71087E-1,-4.36828E-1
7.33001E-1,-4.92553E-1
6.94946E-1,-5.50048E-1
6.54449E-1,-5.96832E-1
6.30645E-1,-6.52465E-1
5.71655E-1,-7.38311E-1
4.89746E-1,-7.84637E-1
4.19677E-1,-8.22021E-1
3.39141E-1,-8.43566E-1
2.88116E-1,-8.56842E-1
2.23571E-1,-9.06097E-1
1.22833E-1,-9.20349E-1
0.45257E-1,-9.15435E-1
END
BEGIN
-7.26104E-1,1.36108E-1
-7.45819E-1,2.13378E-1
-6.5271E-1,3.08410E-1
-6.33087E-1,2.72155E-1
-7.0224E-1,3.75579E-1
-6.10199E-1,4.86145E-1
-5.82122E-1,5.29937E-1
-4.87213E-1,6.31012E-1
-4.05761E-1,5.96344E-1
-4.46838E-1,6.50054E-1
-3.40820E-1,7.72369E-1
-2.37854E-1,7.77862E-1
-1.29943E-1,8.14941E-1
-0.25177E-1,7.48291E-1
-0.39337E-1,7.45971E-1
0.63507E-1,8.19549E-1
1.68060E-1,7.73895E-1
2.50244E-1,7.72308E-1
3.59252E-1,6.66198E-1
3.13873E-1,5.98419E-1
3.51013E-1,6.54846E-1
4.53369E-1,6.06964E-1
4.89685E-1,5.80261E-1
5.95092E-1,5.17974E-1
5.78857E-1,4.11895E-1
5.79956E-1,4.37042E-1
6.79443E-1,3.94226E-1
7.08984E-1,3.22448E-1
7.86560E-1,2.46521E-1
7.59155E-1,0.96496E-1
7.01812E-1,0.96344E-1
7.64404E-1,0.74493E-1
7.88330E-1,-0.00854E-1
8.47747E-1,-0.83740E-1
7.93273E-1,-2.67303E-1
6.66809E-1,-2.6474E-1
7.05627E-1,-2.54791E-1
7.21862E-1,-3.43933E-1
7.31567E-1,-4.27276E-1
6.63909E-1,-6.05224E-1
4.73724E-1,-6.03485E-1
4.72564E-1,-5.36682E-1
4.85687E-1,-5.94665E-1
4.70184E-1,-6.49597E-1
4.29840E-1,-7.99377E-1
2.09747E-1,-8.40881E-1
1.64001E-1,-7.37731E-1
1.67022E-1,-7.74780E-1
1.07330E-1,-8.01178E-1
0.65460E-1,-8.80218E-1
-1.52984E-1,-9.2453E-1
-2.52685E-1,-7.65167E-1
-2.29003E-1,-7.36022E-1
-2.81158E-1,-7.34314E-1
-2.99438E-1,-7.47528E-1
-4.47174E-1,-7.99163E-1
-5.85449E-1,-6.34124E-1
-5.42572E-1,-5.47027E-1
-5.72509E-1,-5.32653E-1
-5.85723E-1,-5.01098E-1
-6.66809E-1,-5.36468E-1
-8.17230E-1,-3.98590E-1
-7.57415E-1,-2.53631E-1
-7.39349E-1,-2.34252E-1
-7.39685E-1,-1.87255E-1
-7.67334E-1,-2.02941E-1
-9.10522E-1,-1.13403E-1
-8.65783E-1,0.83160E-1
-7.94189E-1,1.06506E-1
-7.94097E-1,1.53625E-1
-7.81646E-1,1.81152E-1
-8.61053E-1,2.54577E-1
-8.10363E-1,4.60022E-1
-6.68487E-1,4.94628E-1
-6.31012E-1,5.10681E-1
-5.74859E-1,5.36132E-1
-5.78765E-1,5.50140E-1
-5.50872E-1,6.64611E-1
-4.25140E-1,7.01293E-1
-3.76922E-1,6.92108E-1
-3.32000E-1,7.05932E-1
-3.30566E-1,7.25189E-1
-2.89428E-1,8.35022E-1
-1.37146E-1,8.65417E-1
-0.73150E-1,8.33435E-1
0.05615E-1,8.38195E-1
0.51452E-1,7.94494E-1
0.60577E-1,8.37524E-1
1.85363E-1,8.94561E-1
2.97668E-1,8.40820E-1
3.65722E-1,8.07861E-1
4.25384E-1,7.43347E-1
4.37988E-1,7.32116E-1
5.41381E-1,7.52075E-1
6.63208E-1,6.72851E-1
7.26379E-1,5.79681E-1
7.56805E-1,4.68627E-1
7.24945E-1,4.23217E-1
7.91564E-1,4.29901E-1
8.88061E-1,3.21289E-1
8.96148E-1,1.98303E-1
8.98590E-1,0.92620E-1
8.41705E-1,0.16632E-1
8.53973E-1,0.16815E-1
9.12963E-1,-0.79895E-1
8.77288E-1,-1.91955E-1
8.58337E-1,-2.73376E-1
7.78869E-1,-3.77624E-1
7.15576E-1,-3.72985E-1
7.45971E-1,-4.19677E-1
7.09808E-1,-5.29754E-1
6.40075E-1,-5.99975E-1
5.36865E-1,-6.64703E-1
4.3927E-1,-6.29150E-1
4.50378E-1,-6.27868E-1
4.16931E-1,-7.06024E-1
3.36151E-1,-7.54241E-1
2.40509E-1,-7.89856E-1
1.34979E-1,-7.46978E-1
1.31805E-1,-7.04834E-1
1.20636E-1,-7.45605E-1
0.50811E-1,-7.83203E-1
-0.41107E-1,-8.03375E-1
-1.56219E-1,-7.59491E-1
-1.75689E-1,-6.81884E-1
-1.76361E-1,-6.90185E-1
-2.29278E-1,-7.05535E-1
-3.01513E-1,-7.08526E-1
-4.0625E-1,-6.62658E-1
-4.28527E-1,-5.55297E-1
-4.05059E-1,-5.38452E-1
-4.40704E-1,-5.53497E-1
-5.05584E-1,-5.42663E-1
-5.85357E-1,-4.97436E-1
-6.13159E-1,-3.99841E-1
-5.94177E-1,-3.59314E-1
-6.16546E-1,-3.45184E-1
-6.52862E-1,-3.12164E-1
-7.02270E-1,-2.74078E-1
-7.45269E-1,-1.85607E-1
-7.20336E-1,-1.15203E-1
-7.16217E-1,-0.89660E-1
-7.29522E-1,-0.52002E-1
-7.55828E-1,-0.09613E-1
-7.87536E-1,0.72784E-1
-7.60742E-1,1.60278E-1
-7.42187E-1,1.98333E-1
-7.39532E-1,2.45208E-1
-7.39746E-1,2.93792E-1
-7.5E-1,3.78692E-1
-6.90033E-1,4.90234E-1
-6.09466E-1,5.17334E-1
-5.88165E-1,5.44281E-1
-5.65185E-1,5.88531E-1
-5.47210E-1,6.54174E-1
-4.76043E-1,7.45452E-1
-3.65814E-1,7.71759E-1
-3.05053E-1,7.76886E-1
-2.48046E-1,7.99011E-1
-1.96167E-1,8.28643E-1
-1.14166E-1,8.75366E-1
-0.04882E-1,8.65112E-1
0.56640E-1,8.33496E-1
1.10778E-1,8.16894E-1
1.54296E-1,8.08288E-1
2.20550E-1,8.22845E-1
3.13690E-1,8.02063E-1
3.74908E-1,7.55401E-1
4.26910E-1,7.16400E-1
4.59503E-1,6.79107E-1
5.06744E-1,6.68853E-1
5.86151E-1,6.35620E-1
6.43249E-1,5.66803E-1
6.79504E-1,5.04150E-1
7.04376E-1,4.48974E-1
7.35229E-1,4.13147E-1
7.87078E-1,3.61755E-1
8.26355E-1,2.85888E-1
8.42559E-1,2.09503E-1
8.52539E-1,1.39679E-1
8.59680E-1,0.75286E-1
8.69720E-1,0.06713E-1
8.77105E-1,-0.64239E-1
8.73138E-1,-1.41174E-1
8.62060E-1,-2.13897E-1
8.41857E-1,-2.90100E-1
8.02520E-1,-3.60839E-1
7.68158E-1,-4.12170E-1
7.40264E-1,-4.73297E-1
7.04254E-1,-5.29266E-1
6.77551E-1,-5.94970E-1
6.14807E-1,-6.71844E-1
5.35308E-1,-7.05505E-1
4.83825E-1,-7.32757E-1
4.28314E-1,-7.65655E-1
3.89190E-1,-8.06457E-1
3.10180E-1,-8.77777E-1
1.95465E-1,-8.84918E-1
1.31195E-1,-8.62060E-1
0.78704E-1,-8.59069E-1
0.34881E-1,-8.60015E-1
END
BEGIN
-6.26068E-1,-1.18591E-1
-6.35650E-1,-0.50354E-1
-6.38427E-1,0.23590E-1
-6.35253E-1,0.89080E-1
-6.20880E-1,1.66717E-1
-5.90972E-1,2.33795E-1
-5.59722E-1,2.99469E-1
-5.27252E-1,3.56475E-1
-4.87045E-1,4.18457E-1
-4.33792E-1,4.68582E-1
-3.82537E-1,5.09704E-1
-3.20922E-1,5.44311E-1
-2.63946E-1,5.73608E-1
-1.88568E-1,6.07208E-1
-1.19171E-1,6.15112E-1
-0.51391E-1,6.24572E-1
0.18554E-1,6.20300E-1
0.82733E-1,6.13403E-1
1.54327E-1,6.06414E-1
2.16918E-1,5.70068E-1
2.70904E-1,5.38879E-1
3.22555E-1,4.99847E-1
3.71368E-1,4.59991E-1
4.19876E-1,4.06448E-1
4.57275E-1,3.48785E-1
4.94476E-1,2.96188E-1
5.20141E-1,2.31781E-1
5.40771E-1,1.71661E-1
5.48431E-1,0.98297E-1
5.53253E-1,0.40161E-1
5.53802E-1,-0.2771E-1
5.37323E-1,-0.90728E-1
5.22033E-1,-1.34582E-1
5.01373E-1,-1.82678E-1
4.84252E-1,-2.22366E-1
4.48074E-1,-2.78900E-1
4.08447E-1,-3.13934E-1
3.81073E-1,-3.49594E-1
3.47808E-1,-3.97735E-1
2.93869E-1,-4.24148E-1
2.48764E-1,-4.44992E-1
2.08114E-1,-4.60144E-1
1.62872E-1,-4.80331E-1
1.16790E-1,-5.06805E-1
0.48187E-1,-5.20294E-1
0.00732E-1,-5.25909E-1
-0.58197E-1,-5.20629E-1
-1.13220E-1,-5.07812E-1
-1.66000E-1,-4.92309E-1
-2.31124E-1,-4.77157E-1
-2.78228E-1,-4.31243E-1
-3.18145E-1,-4.08676E-1
-3.61908E-1,-3.78845E-1
-4.00741E-1,-3.40835E-1
-4.32174E-1,-2.99667E-1
-4.56436E-1,-2.50335E-1
-4.79507E-1,-2.10952E-1
-4.98046E-1,-1.55868E-1
-5.08361E-1,-0.98907E-1
-5.05554E-1,-0.43365E-1
-5.12695E-1,0.00213E-1
-5.13732E-1,0.55694E-1
-5.06012E-1,1.09252E-1
-4.98031E-1,1.67800E-1
-4.73999E-1,2.29705E-1
-4.46914E-1,2.76382E-1
-4.15145E-1,3.20419E-1
-3.90197E-1,3.61465E-1
-3.44497E-1,3.96575E-1
-2.91442E-1,4.24041E-1
-2.36709E-1,4.38201E-1
-1.79382E-1,4.67895E-1
-1.12396E-1,4.75204E-1
-0.58898E-1,4.71313E-1
-0.05172E-1,4.69085E-1
0.47393E-1,4.49249E-1
0.85586E-1,4.21356E-1
1.01501E-1,3.97888E-1
1.20147E-1,4.05105E-1
1.55715E-1,4.15374E-1
2.06817E-1,4.10430E-1
2.47985E-1,3.84231E-1
2.86224E-1,3.61297E-1
3.32870E-1,3.28399E-1
3.67584E-1,2.86453E-1
4.04983E-1,2.42294E-1
4.31503E-1,1.89682E-1
4.53048E-1,1.46530E-1
4.60861E-1,0.99334E-1
4.72549E-1,0.57220E-1
4.72106E-1,0.08926E-1
4.66171E-1,-0.41122E-1
4.49478E-1,-0.83663E-1
4.40826E-1,-1.28662E-1
4.29428E-1,-1.74484E-1
4.05990E-1,-2.20779E-1
3.79150E-1,-2.57995E-1
3.48587E-1,-2.97882E-1
3.09677E-1,-3.40713E-1
2.76351E-1,-3.62838E-1
2.52410E-1,-3.96789E-1
2.25341E-1,-4.22531E-1
1.93374E-1,-4.47616E-1
1.55609E-1,-4.54956E-1
1.26327E-1,-4.61532E-1
0.88028E-1,-4.80545E-1
0.40329E-1,-4.89440E-1
-0.04211E-1,-4.92263E-1
-0.47515E-1,-4.88952E-1
-0.85632E-1,-4.86679E-1
-1.25946E-1,-4.83917E-1
-1.69754E-1,-4.7229E-1
-2.04864E-1,-4.58816E-1
-2.46261E-1,-4.49630E-1
-2.83523E-1,-4.31182E-1
-3.16528E-1,-4.13970E-1
-3.49899E-1,-3.95172E-1
-3.80889E-1,-3.6763E-1
-4.09729E-1,-3.36608E-1
-4.33334E-1,-3.01971E-1
-4.64050E-1,-2.67211E-1
-4.9086E-1,-2.27706E-1
-5.14526E-1,-1.90124E-1
-5.34057E-1,-1.55883E-1
-5.52368E-1,-1.17492E-1
-5.66223E-1,-0.76049E-1
-5.72021E-1,-0.29388E-1
-5.73150E-1,0.09735E-1
-5.79895E-1,0.49346E-1
-5.78857E-1,1.00494E-1
-5.69763E-1,1.38458E-1
-5.60150E-1,1.88354E-1
-5.40924E-1,2.32757E-1
-5.25451E-1,2.75848E-1
-5.08392E-1,3.23822E-1
-4.82696E-1,3.65341E-1
-4.62081E-1,4.06997E-1
-4.28787E-1,4.44015E-1
-3.98681E-1,4.67453E-1
-3.70819E-1,4.97802E-1
-3.27728E-1,5.26519E-1
-2.88269E-1,5.44708E-1
-2.43438E-1,5.67230E-1
-1.96991E-1,5.79040E-1
-1.52496E-1,5.96679E-1
-0.99700E-1,6.06964E-1
-0.47973E-1,6.09436E-1
0.09704E-1,6.14593E-1
0.73089E-1,6.05438E-1
1.24450E-1,5.92315E-1
1.68212E-1,5.82031E-1
2.18841E-1,5.70770E-1
2.58270E-1,5.49957E-1
3.02825E-1,5.20263E-1
3.39416E-1,4.82650E-1
3.76480E-1,4.41604E-1
4.17846E-1,4.01947E-1
4.54315E-1,3.53118E-1
4.82788E-1,3.05831E-1
5.00854E-1,2.50946E-1
5.08331E-1,2.01080E-1
5.16662E-1,1.56341E-1
5.27862E-1,1.04064E-1
5.26550E-1,0.60943E-1
5.24383E-1,0.19531E-1
5.08544E-1,-0.15686E-1
4.91256E-1,-0.46997E-1
4.75006E-1,-0.83038E-1
4.52072E-1,-1.19674E-1
4.32907E-1,-1.52954E-1
4.09668E-1,-1.91741E-1
3.83575E-1,-2.24624E-1
3.60336E-1,-2.53555E-1
3.35220E-1,-2.85476E-1
3.12027E-1,-3.13888E-1
2.77313E-1,-3.46420E-1
2.37381E-1,-3.61724E-1
2.04940E-1,-3.74038E-1
1.70166E-1,-3.88855E-1
1.33758E-1,-3.97659E-1
0.91552E-1,-4.09515E-1
0.41015E-1,-4.04525E-1
0.02807E-1,-3.94439E-1
-0.39154E-1,-3.88748E-1
-0.78720E-1,-3.77960E-1
-1.17233E-1,-3.73642E-1
-1.63284E-1,-3.59939E-1
-1.89819E-1,-3.36898E-1
-2.13439E-1,-3.21014E-1
-2.35137E-1,-2.95455E-1
-2.50091E-1,-2.72720E-1
-2.79296E-1,-2.48794E-1
-3.03390E-1,-2.05566E-1
-3.10913E-1,-1.71966E-1
-3.19259E-1,-1.40655E-1
-3.22082E-1,-1.11038E-1
-3.31268E-1,-0.76690E-1
-3.40499E-1,-0.32974E-1
-3.32809E-1,0.06301E-1
-3.31146E-1,0.29632E-1
-3.24081E-1,0.52093E-1
END
