CITIFILE A.01.01
#NA VERSION HP8510C.08.10
NAME DATA
#NA REGISTER 4
VAR FREQ MAG 201
DATA S[1,1] RI
DATA S[2,1] RI
DATA S[1,2] RI
DATA S[2,2] RI
SEG_LIST_BEGIN
SEG 8000000000 12000000000 201
SEG_LIST_END
COMMENT       YEAR MONTH DAY HOUR MINUTE SECONDS
CONSTANT TIME 2013   12   09  20    37    07.0
BEGIN
-4.02191E-1,-3.58429E-1
-4.34936E-1,-3.16268E-1
-4.68277E-1,-2.64648E-1
-4.89105E-1,-2.16568E-1
-5.14404E-1,-1.62506E-1
-5.26275E-1,-1.06597E-1
-5.33599E-1,-0.53009E-1
-5.35278E-1,-0.06256E-1
-5.40466E-1,0.53619E-1
-5.30212E-1,1.10961E-1
-5.18615E-1,1.60858E-1
-4.94979E-1,2.12066E-1
-4.75036E-1,2.52777E-1
-4.51232E-1,3.12927E-1
-4.12002E-1,3.52966E-1
-3.77578E-1,3.92349E-1
-3.30642E-1,4.27581E-1
-2.90374E-1,4.50927E-1
-2.50762E-1,4.86236E-1
-1.88476E-1,5.02685E-1
-1.40441E-1,5.17822E-1
-0.84533E-1,5.25878E-1
-0.39611E-1,5.24871E-1
0.09491E-1,5.25146E-1
0.57708E-1,5.13977E-1
0.98327E-1,5.10376E-1
1.50131E-1,4.98718E-1
1.92596E-1,4.82452E-1
2.41165E-1,4.60128E-1
2.76504E-1,4.39743E-1
3.22250E-1,4.14688E-1
3.65158E-1,3.73016E-1
3.94531E-1,3.33663E-1
4.25170E-1,2.88208E-1
4.45251E-1,2.51953E-1
4.70809E-1,1.96884E-1
4.73220E-1,1.49627E-1
4.78714E-1,1.09664E-1
4.95941E-1,0.6633E-1
4.90142E-1,0.07354E-1
4.84100E-1,-0.35095E-1
4.77020E-1,-0.72418E-1
4.65530E-1,-1.18469E-1
4.54528E-1,-1.59500E-1
4.28375E-1,-2.15469E-1
4.02786E-1,-2.4263E-1
3.71704E-1,-2.75878E-1
3.41232E-1,-2.97515E-1
3.20709E-1,-3.16772E-1
2.97332E-1,-3.53927E-1
2.50366E-1,-3.78341E-1
2.28668E-1,-3.93661E-1
1.96945E-1,-4.18518E-1
1.58111E-1,-4.32998E-1
1.18301E-1,-4.46273E-1
0.70480E-1,-4.52148E-1
0.40695E-1,-4.59152E-1
-0.02807E-1,-4.64248E-1
-0.41473E-1,-4.57534E-1
-0.74523E-1,-4.47769E-1
-1.14593E-1,-4.49676E-1
-1.54388E-1,-4.3013E-1
-1.85638E-1,-4.23812E-1
-2.20016E-1,-4.16290E-1
-2.55615E-1,-3.99612E-1
-2.87323E-1,-3.76678E-1
-3.21258E-1,-3.46817E-1
-3.54690E-1,-3.32992E-1
-3.87786E-1,-2.98217E-1
-4.08584E-1,-2.68096E-1
-4.22393E-1,-2.37396E-1
-4.48135E-1,-2.06253E-1
-4.70291E-1,-1.64184E-1
-4.80743E-1,-1.21322E-1
-4.90997E-1,-0.92376E-1
-5.03601E-1,-0.57708E-1
-5.10253E-1,-0.14648E-1
-5.08819E-1,0.29296E-1
-5.20019E-1,0.75592E-1
-5.1474E-1,1.24908E-1
-5.08270E-1,1.72332E-1
-4.81170E-1,2.15179E-1
-4.61151E-1,2.50701E-1
-4.38613E-1,3.02810E-1
-4.02191E-1,3.40164E-1
-3.76556E-1,3.69537E-1
-3.40118E-1,3.97003E-1
-3.09585E-1,4.13452E-1
-2.70553E-1,4.39422E-1
-2.28210E-1,4.67712E-1
-1.86798E-1,4.90890E-1
-1.42700E-1,5.10803E-1
-0.95336E-1,5.08697E-1
-0.53527E-1,5.14404E-1
-0.00671E-1,5.17791E-1
0.56213E-1,5.13702E-1
1.01532E-1,5.05218E-1
1.42715E-1,4.94888E-1
1.89727E-1,4.83093E-1
2.39913E-1,4.53872E-1
2.90023E-1,4.23172E-1
3.37188E-1,3.88198E-1
3.84735E-1,3.50875E-1
4.15191E-1,2.96997E-1
4.36096E-1,2.41699E-1
4.55123E-1,1.83532E-1
4.68170E-1,1.21109E-1
4.74395E-1,0.61325E-1
4.68414E-1,0.09445E-1
4.60266E-1,-0.41198E-1
4.40231E-1,-0.97930E-1
4.12872E-1,-1.52313E-1
3.79791E-1,-1.97937E-1
3.52600E-1,-2.34756E-1
3.15689E-1,-2.61001E-1
2.77526E-1,-2.77603E-1
2.41775E-1,-2.92800E-1
2.10525E-1,-3.16070E-1
1.84021E-1,-3.38943E-1
1.64596E-1,-3.58017E-1
1.38580E-1,-3.83377E-1
0.93185E-1,-3.98452E-1
0.41732E-1,-4.08615E-1
-0.06118E-1,-4.14505E-1
-0.44052E-1,-4.31137E-1
-0.91217E-1,-4.41864E-1
-1.42837E-1,-4.31732E-1
-1.93832E-1,-4.04068E-1
-2.38098E-1,-3.78082E-1
-2.82348E-1,-3.65448E-1
-3.19274E-1,-3.50830E-1
-3.57254E-1,-3.28216E-1
-3.85665E-1,-2.87796E-1
-4.13131E-1,-2.42569E-1
-4.42367E-1,-2.05566E-1
-4.76135E-1,-1.71997E-1
-5.03234E-1,-1.34857E-1
-5.13916E-1,-0.88531E-1
-5.12115E-1,-0.39032E-1
-5.15869E-1,0.11932E-1
-5.26672E-1,0.61828E-1
-5.30609E-1,1.06048E-1
-5.23559E-1,1.43615E-1
-5.09429E-1,1.80328E-1
-4.89730E-1,2.30911E-1
-4.69467E-1,2.80654E-1
-4.58236E-1,3.26217E-1
-4.41940E-1,3.62777E-1
-4.16839E-1,3.92791E-1
-3.76800E-1,4.26467E-1
-3.31161E-1,4.53048E-1
-2.99942E-1,4.96383E-1
-2.62542E-1,5.32836E-1
-2.28485E-1,5.4953E-1
-1.86004E-1,5.62408E-1
-1.29150E-1,5.65460E-1
-0.79284E-1,5.79589E-1
-0.17608E-1,5.99517E-1
0.29266E-1,5.97412E-1
0.62377E-1,5.95031E-1
1.1203E-1,5.79925E-1
1.58966E-1,5.60607E-1
2.23144E-1,5.55358E-1
2.87811E-1,5.32012E-1
3.27728E-1,5.06256E-1
3.65051E-1,4.73434E-1
3.99398E-1,4.20776E-1
4.38766E-1,3.70086E-1
4.77859E-1,3.05908E-1
4.89242E-1,2.54730E-1
4.94522E-1,2.16430E-1
4.90875E-1,1.70288E-1
4.87594E-1,1.25564E-1
4.99221E-1,0.67901E-1
5.00610E-1,0.10467E-1
4.96261E-1,-0.33477E-1
4.79782E-1,-0.70449E-1
4.51828E-1,-1.06643E-1
4.24942E-1,-1.56509E-1
3.90655E-1,-2.07138E-1
3.60611E-1,-2.42202E-1
3.34686E-1,-2.59780E-1
3.06945E-1,-2.68875E-1
2.73147E-1,-2.82211E-1
2.33261E-1,-3.05923E-1
1.93283E-1,-3.33801E-1
1.58065E-1,-3.52218E-1
1.31561E-1,-3.56246E-1
0.98632E-1,-3.52020E-1
0.53344E-1,-3.43490E-1
0.07141E-1,-3.39660E-1
-0.34622E-1,-3.34411E-1
-0.52841E-1,-3.23104E-1
-0.59463E-1,-3.14514E-1
-0.75027E-1,-2.94479E-1
-1.02676E-1,-2.78518E-1
-1.42334E-1,-2.61734E-1
-1.60385E-1,-2.56591E-1
-1.69479E-1,-2.61795E-1
-1.79107E-1,-2.53051E-1
-1.94953E-1,-2.28279E-1
END
BEGIN
-8.88153E-1,0.28900E-1
-8.08471E-1,1.06567E-1
-8.33252E-1,1.47216E-1
-8.14086E-1,2.88269E-1
-7.54974E-1,3.52050E-1
-7.12036E-1,4.57855E-1
-5.87036E-1,4.91790E-1
-5.69702E-1,4.63409E-1
-5.74554E-1,5.36956E-1
-5.21637E-1,5.88165E-1
-4.92065E-1,6.63818E-1
-3.71246E-1,7.09930E-1
-3.44116E-1,6.76544E-1
-3.45733E-1,7.72338E-1
-2.17559E-1,8.33465E-1
-1.48651E-1,8.49731E-1
-0.15960E-1,8.81256E-1
0.59021E-1,8.04016E-1
0.60058E-1,8.3078E-1
1.77856E-1,8.71154E-1
2.58606E-1,8.48083E-1
3.85681E-1,8.58764E-1
5.00549E-1,7.44201E-1
5.12359E-1,6.95983E-1
6.19110E-1,6.66320E-1
6.67938E-1,5.56793E-1
7.22412E-1,5.13366E-1
7.82928E-1,3.69049E-1
7.08068E-1,2.83081E-1
7.16095E-1,2.87628E-1
7.42492E-1,2.29339E-1
7.58483E-1,2.12005E-1
8.35907E-1,1.33392E-1
7.94403E-1,0.32653E-1
8.05297E-1,0.38696E-1
8.84429E-1,-0.41961E-1
9.01489E-1,-1.44134E-1
9.37377E-1,-2.96295E-1
8.04290E-1,-4.61273E-1
7.08801E-1,-4.42382E-1
7.19055E-1,-5.05371E-1
6.36413E-1,-5.77117E-1
6.12182E-1,-6.15875E-1
5.19439E-1,-7.15972E-1
4.17572E-1,-6.80297E-1
4.34173E-1,-7.06634E-1
3.51379E-1,-7.89703E-1
2.94860E-1,-7.96173E-1
2.35137E-1,-8.93646E-1
0.58929E-1,-9.22454E-1
0.08392E-1,-7.89215E-1
-0.37506E-1,-8.02581E-1
-0.87158E-1,-7.68219E-1
-1.10656E-1,-8.00903E-1
-2.28790E-1,-8.02581E-1
-2.69897E-1,-7.43072E-1
-3.10546E-1,-7.57659E-1
-3.86383E-1,-7.29766E-1
-4.35943E-1,-7.42157E-1
-5.98297E-1,-7.15606E-1
-6.53503E-1,-5.55908E-1
-6.45477E-1,-5.08667E-1
-6.82403E-1,-4.37255E-1
-6.54632E-1,-4.02465E-1
-7.30102E-1,-4.17816E-1
-7.99346E-1,-2.97943E-1
-7.74292E-1,-2.45727E-1
-8.32458E-1,-2.12493E-1
-8.56323E-1,-1.24206E-1
-9.10919E-1,-0.67077E-1
-9.44000E-1,1.10107E-1
-8.39630E-1,2.10479E-1
-8.16894E-1,2.57385E-1
-7.45025E-1,3.39691E-1
-6.97631E-1,3.31420E-1
-7.07885E-1,3.86322E-1
-6.51458E-1,4.36157E-1
-6.52191E-1,4.55627E-1
-6.28295E-1,5.44982E-1
-5.72784E-1,5.67993E-1
-5.90728E-1,6.34429E-1
-5.09216E-1,7.50091E-1
-4.19616E-1,7.87536E-1
-3.14636E-1,8.47656E-1
-1.96441E-1,8.02581E-1
-1.97570E-1,7.92114E-1
-1.15966E-1,8.55438E-1
-0.28595E-1,8.12957E-1
-0.04913E-1,8.30078E-1
0.90911E-1,8.34503E-1
1.15966E-1,8.11920E-1
1.90094E-1,8.77105E-1
3.42987E-1,8.39141E-1
3.94958E-1,7.65960E-1
4.73754E-1,7.26654E-1
5.07812E-1,6.35376E-1
5.23712E-1,6.17736E-1
5.88806E-1,5.64758E-1
5.80932E-1,5.11169E-1
6.24237E-1,5.18798E-1
6.91162E-1,4.57489E-1
7.09625E-1,4.17816E-1
7.87445E-1,3.86138E-1
8.33313E-1,2.88269E-1
8.67584E-1,2.31475E-1
9.30847E-1,1.09863E-1
8.80920E-1,-0.18768E-1
8.55133E-1,-0.65460E-1
8.44726E-1,-1.48956E-1
8.03955E-1,-2.03491E-1
7.95532E-1,-2.69226E-1
7.32879E-1,-3.38470E-1
6.99523E-1,-3.43627E-1
7.05169E-1,-3.94958E-1
6.74499E-1,-4.55230E-1
6.58142E-1,-5.10620E-1
6.10778E-1,-5.93231E-1
5.42144E-1,-6.30889E-1
4.99176E-1,-6.80084E-1
4.18731E-1,-7.24395E-1
3.64654E-1,-7.28515E-1
3.18573E-1,-7.70843E-1
2.35168E-1,-7.88787E-1
1.83685E-1,-7.91107E-1
1.17950E-1,-8.08410E-1
0.59173E-1,-7.98065E-1
0.22857E-1,-8.17047E-1
-0.56579E-1,-8.42285E-1
-1.37908E-1,-8.36639E-1
-2.24121E-1,-8.23822E-1
-2.96875E-1,-7.67395E-1
-3.24951E-1,-7.43316E-1
-3.95752E-1,-7.34893E-1
-4.59381E-1,-6.85668E-1
-5.07873E-1,-6.53778E-1
-5.65704E-1,-5.94970E-1
-5.75775E-1,-5.45929E-1
-6.22131E-1,-5.37353E-1
-6.90734E-1,-4.81475E-1
-7.26409E-1,-4.20196E-1
-7.76306E-1,-3.59771E-1
-7.89093E-1,-2.71545E-1
-8.00170E-1,-2.24487E-1
-8.34625E-1,-1.44470E-1
-8.17810E-1,-0.66925E-1
-8.27270E-1,-0.11444E-1
-8.12103E-1,0.80291E-1
-7.69439E-1,1.15020E-1
-7.77954E-1,1.50787E-1
-7.69622E-1,2.09686E-1
-7.70752E-1,2.56774E-1
-7.70019E-1,3.50097E-1
-7.07885E-1,4.19555E-1
-6.76727E-1,4.53887E-1
-6.42120E-1,5.11261E-1
-6.07055E-1,5.50140E-1
-5.71807E-1,6.19842E-1
-4.83184E-1,6.64520E-1
-4.41406E-1,6.63482E-1
-4.08386E-1,7.06085E-1
-3.57727E-1,7.3172E-1
-3.24890E-1,7.72796E-1
-2.45208E-1,8.28430E-1
-1.63543E-1,8.30352E-1
-1.07849E-1,8.52356E-1
-0.21881E-1,8.61877E-1
0.35583E-1,8.53515E-1
1.11755E-1,8.70056E-1
1.99768E-1,8.39141E-1
2.49877E-1,8.11676E-1
3.12347E-1,7.86926E-1
3.51532E-1,7.58148E-1
4.04052E-1,7.56683E-1
4.85656E-1,7.32177E-1
5.43884E-1,6.83898E-1
6.02417E-1,6.45660E-1
6.50207E-1,5.88653E-1
6.90887E-1,5.50048E-1
7.54425E-1,5.01556E-1
7.99438E-1,4.25384E-1
8.31481E-1,3.61389E-1
8.67248E-1,2.90679E-1
8.87085E-1,2.15118E-1
9.06158E-1,1.49108E-1
9.23553E-1,0.68176E-1
9.21997E-1,-0.10314E-1
9.23675E-1,-0.81970E-1
9.20593E-1,-1.66259E-1
8.97033E-1,-2.41882E-1
8.78723E-1,-3.08227E-1
8.55011E-1,-3.86016E-1
8.21441E-1,-4.47479E-1
8.06457E-1,-5.21881E-1
7.50976E-1,-6.22436E-1
6.77764E-1,-6.79931E-1
6.16485E-1,-7.36999E-1
5.33630E-1,-7.77923E-1
4.82971E-1,-8.02429E-1
4.15954E-1,-8.67431E-1
3.14178E-1,-8.88702E-1
2.44201E-1,-8.98162E-1
END
BEGIN
-8.21868E-1,0.16296E-1
-8.52294E-1,0.82672E-1
-7.94738E-1,2.26379E-1
-7.26287E-1,2.16461E-1
-8.00293E-1,2.69958E-1
-7.52349E-1,4.10980E-1
-7.16064E-1,4.59899E-1
-6.62811E-1,5.89202E-1
-5.41351E-1,5.99609E-1
-5.66772E-1,6.08673E-1
-5.19561E-1,7.45697E-1
-4.10400E-1,7.88147E-1
-3.17352E-1,8.56201E-1
-1.66168E-1,8.38378E-1
-1.49566E-1,8.00415E-1
-0.88928E-1,8.81835E-1
0.35736E-1,8.74481E-1
1.14654E-1,8.85345E-1
2.74261E-1,8.31848E-1
2.86315E-1,7.14202E-1
2.91442E-1,7.40173E-1
3.97766E-1,7.21893E-1
4.38842E-1,6.83105E-1
5.45929E-1,6.58660E-1
5.85968E-1,5.32653E-1
5.62316E-1,5.15472E-1
6.41693E-1,5.01739E-1
6.83898E-1,4.32037E-1
7.57965E-1,3.90777E-1
8.01483E-1,2.39257E-1
7.32391E-1,1.82495E-1
7.63763E-1,1.76788E-1
7.92663E-1,1.16119E-1
8.48815E-1,0.72052E-1
8.86596E-1,-1.03057E-1
7.56439E-1,-1.88018E-1
7.45666E-1,-1.66961E-1
7.71820E-1,-2.27813E-1
7.88452E-1,-2.8302E-1
8.12927E-1,-4.41741E-1
6.41387E-1,-5.54779E-1
5.69183E-1,-4.98657E-1
5.79376E-1,-5.29266E-1
5.62896E-1,-5.68542E-1
5.82977E-1,-6.79321E-1
4.22119E-1,-8.21594E-1
2.95654E-1,-7.47192E-1
2.99652E-1,-7.46002E-1
2.20886E-1,-7.78045E-1
1.79107E-1,-8.40942E-1
1.05712E-1,-9.67926E-1
-0.94146E-1,-8.88885E-1
-1.07025E-1,-8.13232E-1
-1.56402E-1,-8.09631E-1
-1.68029E-1,-7.94311E-1
-2.42218E-1,-8.87603E-1
-4.55108E-1,-8.28918E-1
-4.79736E-1,-6.91284E-1
-5.02258E-1,-6.62628E-1
-5.20813E-1,-6.12579E-1
-5.48278E-1,-6.58172E-1
-7.35992E-1,-6.22589E-1
-7.76428E-1,-4.32525E-1
-7.46429E-1,-3.69110E-1
-7.48321E-1,-3.02887E-1
-7.25311E-1,-3.07159E-1
-8.54675E-1,-3.16497E-1
-9.33319E-1,-1.19628E-1
-8.53179E-1,-0.26489E-1
-8.43597E-1,0.23773E-1
-8.08502E-1,0.64025E-1
-8.70422E-1,0.67016E-1
-9.47113E-1,2.46765E-1
-8.23822E-1,3.85620E-1
-7.61108E-1,4.14489E-1
-7.00042E-1,4.66033E-1
-6.76025E-1,4.63470E-1
-7.06054E-1,5.58685E-1
-6.00799E-1,6.86157E-1
-4.96124E-1,7.02423E-1
-4.16107E-1,7.15271E-1
-3.79303E-1,6.89239E-1
-3.90747E-1,7.46734E-1
-2.80517E-1,8.38470E-1
-1.77246E-1,8.18054E-1
-1.05194E-1,8.26385E-1
-0.20324E-1,7.79357E-1
-0.31616E-1,7.56408E-1
0.06927E-1,8.25531E-1
1.17340E-1,8.32305E-1
1.87194E-1,8.13934E-1
2.73651E-1,7.74597E-1
2.91320E-1,7.21801E-1
3.20556E-1,7.49816E-1
4.25750E-1,7.52655E-1
5.15106E-1,7.05841E-1
6.02783E-1,6.28051E-1
6.02142E-1,5.23895E-1
5.9375E-1,5.27801E-1
6.85333E-1,5.1474E-1
7.54272E-1,4.29748E-1
8.02612E-1,3.47229E-1
8.05358E-1,2.31933E-1
7.69226E-1,2.08892E-1
8.26263E-1,1.83532E-1
8.56750E-1,0.86303E-1
8.67095E-1,0.12939E-1
8.70239E-1,-1.10656E-1
7.87231E-1,-1.78131E-1
7.85797E-1,-1.82159E-1
8.04809E-1,-2.59429E-1
7.79724E-1,-3.40240E-1
7.37915E-1,-4.36981E-1
6.27899E-1,-4.84680E-1
5.95275E-1,-4.60357E-1
6.09252E-1,-5.03906E-1
5.88439E-1,-5.72814E-1
5.50933E-1,-6.55914E-1
4.41589E-1,-7.26959E-1
3.53332E-1,-6.97296E-1
3.44177E-1,-7.00012E-1
3.12133E-1,-7.50671E-1
2.56958E-1,-8.11035E-1
1.37237E-1,-8.66363E-1
0.19348E-1,-8.08746E-1
0.04760E-1,-7.67852E-1
-0.24688E-1,-7.82226E-1
-0.73638E-1,-8.09204E-1
-1.81335E-1,-8.44757E-1
-3.15887E-1,-7.65899E-1
-3.18664E-1,-6.76605E-1
-3.19946E-1,-6.73858E-1
-3.63189E-1,-6.83624E-1
-4.44549E-1,-6.88873E-1
-5.44250E-1,-6.16516E-1
-5.54870E-1,-5.25787E-1
-5.61004E-1,-4.98657E-1
-5.89904E-1,-4.73877E-1
-6.33300E-1,-4.61334E-1
-7.14294E-1,-4.11499E-1
-7.38220E-1,-3.09906E-1
-7.29522E-1,-2.56439E-1
-7.36572E-1,-2.12463E-1
-7.51892E-1,-1.82403E-1
-8.06060E-1,-1.32720E-1
-8.25561E-1,-0.34484E-1
-8.06640E-1,0.27099E-1
-8.00506E-1,0.78491E-1
-7.92266E-1,1.20086E-1
-8.21197E-1,1.71020E-1
-8.29834E-1,2.82470E-1
-7.68096E-1,3.69598E-1
-7.32605E-1,4.08844E-1
-7.04132E-1,4.53064E-1
-6.95556E-1,4.98657E-1
-6.74377E-1,5.89630E-1
-5.93231E-1,6.70898E-1
-5.22308E-1,7.07366E-1
-4.61517E-1,7.46887E-1
-4.10156E-1,7.75848E-1
-3.60473E-1,8.31634E-1
-2.64831E-1,8.73535E-1
-1.79382E-1,8.74328E-1
-1.09130E-1,8.76495E-1
-0.46508E-1,8.73077E-1
0.09582E-1,8.92608E-1
0.99914E-1,9.06646E-1
1.87164E-1,8.83911E-1
2.58606E-1,8.56567E-1
3.19122E-1,8.17352E-1
3.67950E-1,7.97821E-1
4.45953E-1,7.81402E-1
5.24322E-1,7.29064E-1
5.78247E-1,6.71203E-1
6.20483E-1,6.13006E-1
6.49505E-1,5.71411E-1
7.01324E-1,5.33966E-1
7.56622E-1,4.69848E-1
7.89703E-1,3.95263E-1
8.12347E-1,3.28918E-1
8.30505E-1,2.65716E-1
8.52172E-1,2.05810E-1
8.73596E-1,1.38153E-1
8.80584E-1,0.62744E-1
8.80676E-1,-0.06286E-1
8.78204E-1,-0.76965E-1
8.63983E-1,-1.50604E-1
8.46923E-1,-2.12432E-1
8.31085E-1,-2.78930E-1
8.07617E-1,-3.39721E-1
7.93396E-1,-3.98834E-1
7.66601E-1,-4.80560E-1
7.04589E-1,-5.45929E-1
6.57287E-1,-5.91674E-1
6.06628E-1,-6.39556E-1
5.71136E-1,-6.78863E-1
5.32653E-1,-7.52380E-1
4.34539E-1,-8.10028E-1
3.56597E-1,-8.14086E-1
2.94036E-1,-8.27270E-1
2.41607E-1,-8.32763E-1
END
BEGIN
-5.60333E-1,-0.31402E-1
-5.60394E-1,0.30670E-1
-5.53070E-1,0.96283E-1
-5.40283E-1,1.52526E-1
-5.18249E-1,2.21252E-1
-4.81246E-1,2.77771E-1
-4.44992E-1,3.33297E-1
-4.06616E-1,3.77410E-1
-3.65478E-1,4.28192E-1
-3.10806E-1,4.66354E-1
-2.58941E-1,4.93316E-1
-1.99768E-1,5.13977E-1
-1.46362E-1,5.29724E-1
-0.76141E-1,5.51757E-1
-0.12207E-1,5.47210E-1
0.47393E-1,5.44494E-1
1.08581E-1,5.30334E-1
1.61834E-1,5.14251E-1
2.20459E-1,4.99801E-1
2.73361E-1,4.56222E-1
3.14682E-1,4.18029E-1
3.53973E-1,3.74954E-1
3.88183E-1,3.31955E-1
4.24545E-1,2.78884E-1
4.48181E-1,2.20916E-1
4.70001E-1,1.70715E-1
4.83123E-1,1.10488E-1
4.91394E-1,0.55328E-1
4.91684E-1,-0.11550E-1
4.88708E-1,-0.63674E-1
4.83245E-1,-1.2323E-1
4.61334E-1,-1.78909E-1
4.38736E-1,-2.16766E-1
4.11407E-1,-2.58865E-1
3.86978E-1,-2.91610E-1
3.43978E-1,-3.41476E-1
2.98049E-1,-3.66058E-1
2.66235E-1,-3.89923E-1
2.31353E-1,-4.26055E-1
1.74804E-1,-4.46014E-1
1.24237E-1,-4.60022E-1
0.74966E-1,-4.65286E-1
0.21499E-1,-4.69528E-1
-0.25360E-1,-4.75601E-1
-0.87249E-1,-4.73312E-1
-1.28631E-1,-4.63195E-1
-1.79763E-1,-4.43817E-1
-2.26028E-1,-4.16214E-1
0.17959E-1,-4.89929E-1
2.71545E-1,-5.39611E-1
-3.57879E-1,-3.16558E-1
-3.85055E-1,-2.87063E-1
-4.16305E-1,-2.54135E-1
-4.43328E-1,-2.12493E-1
-4.63546E-1,-1.68869E-1
-4.77905E-1,-1.17065E-1
-4.88449E-1,-0.76339E-1
-4.96353E-1,-0.22934E-1
-4.97680E-1,0.31936E-1
-4.87808E-1,0.86471E-1
-4.86923E-1,1.39007E-1
-4.62081E-1,1.96975E-1
-4.37210E-1,2.40448E-1
-4.20059E-1,2.88314E-1
-3.88977E-1,3.42071E-1
-3.55026E-1,3.80004E-1
-3.14209E-1,4.15908E-1
-2.81906E-1,4.44549E-1
-2.31964E-1,4.69467E-1
-1.73660E-1,4.87762E-1
-1.15264E-1,4.92294E-1
-0.54718E-1,5.13885E-1
0.14526E-1,5.12329E-1
0.67077E-1,5.00396E-1
1.20498E-1,4.98428E-1
1.80236E-1,4.84359E-1
2.41210E-1,4.61669E-1
2.89917E-1,4.23568E-1
3.32031E-1,4.01321E-1
3.75915E-1,3.71551E-1
4.20913E-1,3.27529E-1
4.44213E-1,2.68203E-1
4.63028E-1,2.17651E-1
4.86221E-1,1.64550E-1
5.0E-1,1.07635E-1
5.14221E-1,0.50537E-1
5.18890E-1,-0.10772E-1
5.16784E-1,-0.62927E-1
4.95422E-1,-1.15356E-1
4.82391E-1,-1.57028E-1
4.60601E-1,-2.03216E-1
4.35394E-1,-2.48275E-1
4.01458E-1,-2.86941E-1
3.70910E-1,-3.25683E-1
3.37692E-1,-3.58413E-1
2.96096E-1,-3.92883E-1
2.53250E-1,-4.16458E-1
2.09518E-1,-4.46014E-1
1.57440E-1,-4.73739E-1
1.15112E-1,-4.79003E-1
0.86364E-1,-4.95941E-1
0.52124E-1,-5.03021E-1
0.17883E-1,-5.14587E-1
-0.29663E-1,-5.06866E-1
-0.63995E-1,-4.93286E-1
-0.99777E-1,-4.95971E-1
-1.47171E-1,-4.89517E-1
-1.88934E-1,-4.77081E-1
-2.34512E-1,-4.58419E-1
-2.70935E-1,-4.35058E-1
-3.05526E-1,-4.14337E-1
-3.45413E-1,-3.88671E-1
-3.75793E-1,-3.57101E-1
-4.09881E-1,-3.31329E-1
-4.35760E-1,-2.91931E-1
-4.47830E-1,-2.56744E-1
-4.58160E-1,-2.25952E-1
-4.67071E-1,-1.90307E-1
-4.76669E-1,-1.53915E-1
-4.81918E-1,-1.13327E-1
-4.93087E-1,-0.79986E-1
-5.04211E-1,-0.46173E-1
-5.13793E-1,-0.12542E-1
-5.16052E-1,0.19317E-1
-5.18524E-1,0.53527E-1
-5.18066E-1,0.90362E-1
-5.13183E-1,1.30859E-1
-5.06012E-1,1.64520E-1
-5.01281E-1,1.98089E-1
-4.88967E-1,2.39028E-1
-4.65316E-1,2.65884E-1
-4.47616E-1,3.04702E-1
-4.20318E-1,3.41064E-1
-3.97445E-1,3.77471E-1
-3.73092E-1,4.12826E-1
-3.44574E-1,4.40612E-1
-3.22250E-1,4.69436E-1
-2.85614E-1,4.95880E-1
-2.52044E-1,5.09582E-1
-2.18017E-1,5.28106E-1
-1.76086E-1,5.44006E-1
-1.36993E-1,5.50476E-1
-0.93475E-1,5.61676E-1
-0.48522E-1,5.61767E-1
-0.02166E-1,5.66131E-1
0.48675E-1,5.61431E-1
0.95581E-1,5.53833E-1
1.47796E-1,5.50140E-1
2.06298E-1,5.34271E-1
2.56683E-1,5.12542E-1
2.97012E-1,4.85794E-1
3.32016E-1,4.65530E-1
3.64151E-1,4.38278E-1
4.00817E-1,4.01947E-1
4.31411E-1,3.56338E-1
4.60357E-1,3.02764E-1
4.82894E-1,2.55477E-1
5.07324E-1,2.07275E-1
5.24475E-1,1.56066E-1
5.33874E-1,0.99609E-1
5.32165E-1,0.41015E-1
5.23712E-1,-0.07354E-1
5.25756E-1,-0.52368E-1
5.19622E-1,-0.93811E-1
5.12176E-1,-1.35711E-1
4.86404E-1,-1.76284E-1
4.54284E-1,-2.12600E-1
4.21768E-1,-2.48123E-1
3.84933E-1,-2.87200E-1
3.49182E-1,-3.19259E-1
3.09188E-1,-3.57177E-1
2.58377E-1,-3.84033E-1
2.11227E-1,-3.95752E-1
1.73400E-1,-4.09362E-1
1.37451E-1,-4.24026E-1
0.92224E-1,-4.45175E-1
0.37078E-1,-4.43038E-1
-0.04303E-1,-4.30862E-1
-0.38925E-1,-4.21600E-1
-0.75912E-1,-4.12582E-1
-1.20254E-1,-4.06784E-1
-1.75643E-1,-3.80401E-1
-2.12493E-1,-3.46954E-1
-2.48138E-1,-3.20556E-1
-2.78686E-1,-2.93899E-1
-3.11492E-1,-2.76687E-1
-3.52111E-1,-2.44705E-1
-3.66073E-1,-2.03018E-1
-3.76846E-1,-1.71386E-1
-3.84445E-1,-1.32141E-1
-3.87390E-1,-0.99731E-1
-4.04190E-1,-0.62484E-1
-4.10385E-1,-0.05508E-1
-3.96484E-1,0.38559E-1
-3.82827E-1,0.78079E-1
-3.66363E-1,1.12548E-1
-3.58642E-1,1.56478E-1
-3.41934E-1,2.04498E-1
-3.12805E-1,2.40951E-1
-2.90939E-1,2.59414E-1
-2.67013E-1,2.75970E-1
END
