CITIFILE A.01.01
#NA VERSION HP8510C.08.10
NAME DATA
#NA REGISTER 4
VAR FREQ MAG 201
DATA S[1,1] RI
DATA S[2,1] RI
DATA S[1,2] RI
DATA S[2,2] RI
SEG_LIST_BEGIN
SEG 8000000000 12000000000 201
SEG_LIST_END
COMMENT       YEAR MONTH DAY HOUR MINUTE SECONDS
CONSTANT TIME 2013   12   09  20    59    22.0
BEGIN
-6.66107E-1,-1.81091E-1
-6.81579E-1,-1.11206E-1
-6.90734E-1,-0.29632E-1
-6.92993E-1,0.43945E-1
-6.85607E-1,1.23352E-1
-6.65771E-1,1.94763E-1
-6.39221E-1,2.66082E-1
-6.09649E-1,3.29406E-1
-5.65734E-1,4.01245E-1
-5.13580E-1,4.5755E-1
-4.59808E-1,5.05737E-1
-3.97796E-1,5.42236E-1
-3.39904E-1,5.76293E-1
-2.65899E-1,6.09161E-1
-1.99401E-1,6.23992E-1
-1.31652E-1,6.34033E-1
-0.62042E-1,6.27380E-1
-0.03570E-1,6.13891E-1
0.55450E-1,6.02203E-1
1.03942E-1,5.72479E-1
1.44500E-1,5.57220E-1
1.85089E-1,5.36163E-1
2.19818E-1,5.20263E-1
2.60284E-1,5.02166E-1
2.9776E-1,4.77615E-1
3.41964E-1,4.59838E-1
3.85971E-1,4.26269E-1
4.25170E-1,3.94073E-1
4.60342E-1,3.49853E-1
4.93942E-1,3.13018E-1
5.27526E-1,2.59460E-1
5.46569E-1,1.99737E-1
5.61889E-1,1.48925E-1
5.69763E-1,0.89630E-1
5.7901E-1,0.38421E-1
5.68969E-1,-0.28137E-1
5.56396E-1,-0.73516E-1
5.51452E-1,-1.22711E-1
5.41168E-1,-1.84387E-1
5.06317E-1,-2.31231E-1
4.81063E-1,-2.75039E-1
4.56649E-1,-3.16345E-1
4.20074E-1,-3.58871E-1
3.85345E-1,-4.01657E-1
3.27301E-1,-4.32510E-1
2.93609E-1,-4.52301E-1
2.49298E-1,-4.71252E-1
2.05688E-1,-4.88433E-1
1.67480E-1,-5.04943E-1
1.10748E-1,-5.27893E-1
0.65307E-1,-5.15960E-1
0.28167E-1,-5.27893E-1
-0.22705E-1,-5.31646E-1
-0.70495E-1,-5.23864E-1
-1.17919E-1,-5.15655E-1
-1.61453E-1,-4.97680E-1
-2.04208E-1,-4.92385E-1
-2.48550E-1,-4.67773E-1
-2.83676E-1,-4.40902E-1
-3.14880E-1,-4.17526E-1
-3.61084E-1,-3.89846E-1
-3.87985E-1,-3.55987E-1
-4.19632E-1,-3.27697E-1
-4.49585E-1,-2.92831E-1
-4.71252E-1,-2.48840E-1
-4.87075E-1,-2.10403E-1
-5.03570E-1,-1.68335E-1
-5.31341E-1,-1.26831E-1
-5.34912E-1,-0.77423E-1
-5.36529E-1,-0.35491E-1
-5.36895E-1,0.04058E-1
-5.39550E-1,0.57373E-1
-5.31341E-1,1.06170E-1
-5.19348E-1,1.45233E-1
-5.13000E-1,1.84692E-1
-4.98107E-1,2.28698E-1
-4.73434E-1,2.75833E-1
-4.49554E-1,3.16558E-1
-4.22775E-1,3.69354E-1
-3.86581E-1,4.06753E-1
-3.42804E-1,4.41543E-1
-2.95852E-1,4.59213E-1
-2.54043E-1,4.87793E-1
-1.94366E-1,5.15075E-1
-1.47857E-1,5.24780E-1
-1.01806E-1,5.37200E-1
-0.49499E-1,5.34606E-1
0.02502E-1,5.35919E-1
0.61218E-1,5.30365E-1
1.22955E-1,5.20355E-1
1.74011E-1,5.03723E-1
2.23419E-1,4.76226E-1
2.56973E-1,4.40994E-1
3.04443E-1,4.06158E-1
3.46099E-1,3.60336E-1
3.76510E-1,3.15856E-1
4.01123E-1,2.80929E-1
4.26635E-1,2.39303E-1
4.48867E-1,1.81228E-1
4.57031E-1,1.25076E-1
4.70382E-1,0.65918E-1
4.75769E-1,0.09628E-1
4.70886E-1,-0.53863E-1
4.46106E-1,-1.07116E-1
4.19830E-1,-1.58783E-1
3.88031E-1,-2.11990E-1
3.52691E-1,-2.55462E-1
3.18389E-1,-2.88803E-1
2.83233E-1,-3.14178E-1
2.42279E-1,-3.42804E-1
1.92306E-1,-3.64715E-1
1.46102E-1,-3.83941E-1
1.08749E-1,-3.98452E-1
0.65048E-1,-4.16961E-1
0.15976E-1,-4.16564E-1
-0.34225E-1,-4.07714E-1
-0.84091E-1,-3.95919E-1
-1.27273E-1,-3.84826E-1
-1.60430E-1,-3.77838E-1
-1.89651E-1,-3.68972E-1
-2.29858E-1,-3.49121E-1
-2.64038E-1,-3.16192E-1
-2.98873E-1,-2.85873E-1
-3.29055E-1,-2.67486E-1
-3.63052E-1,-2.45971E-1
-3.88748E-1,-2.09945E-1
-4.02801E-1,-1.64291E-1
-4.12185E-1,-1.18331E-1
-4.27856E-1,-0.82275E-1
-4.43756E-1,-0.47729E-1
-4.50271E-1,-0.18142E-1
-4.47418E-1,0.20782E-1
-4.36645E-1,0.60257E-1
-4.30557E-1,1.03668E-1
-4.30740E-1,1.44149E-1
-4.26635E-1,1.78817E-1
-4.10888E-1,2.10754E-1
-3.82965E-1,2.39334E-1
-3.57696E-1,2.69271E-1
-3.33587E-1,3.08700E-1
-3.0896E-1,3.38531E-1
-2.87750E-1,3.56323E-1
-2.58102E-1,3.66577E-1
-2.25265E-1,3.81027E-1
-1.77887E-1,4.02633E-1
-1.42822E-1,4.18792E-1
-1.16272E-1,4.33471E-1
-0.87921E-1,4.32617E-1
-0.57098E-1,4.26361E-1
-0.12924E-1,4.23156E-1
0.31005E-1,4.21585E-1
0.74432E-1,4.21066E-1
1.03851E-1,4.11377E-1
1.2323E-1,3.90136E-1
1.50360E-1,3.62182E-1
1.82571E-1,3.30139E-1
2.15774E-1,3.02581E-1
2.37472E-1,2.77694E-1
2.42202E-1,2.55737E-1
2.47131E-1,2.31277E-1
2.56210E-1,1.91955E-1
2.71453E-1,1.48712E-1
2.79052E-1,1.07467E-1
2.73819E-1,0.76873E-1
2.54623E-1,0.54473E-1
2.32475E-1,0.28442E-1
2.04246E-1,-0.01136E-1
1.81045E-1,-0.22888E-1
1.64688E-1,-0.32859E-1
1.48086E-1,-0.29640E-1
1.30943E-1,-0.22377E-1
1.10202E-1,-2.36167E-2
9.01184E-2,-2.87628E-2
7.92427E-2,-3.67622E-2
6.92520E-2,-3.79409E-2
6.38580E-2,-2.34222E-2
5.52959E-2,-0.94528E-2
3.80020E-2,0.58651E-2
3.16543E-2,1.38378E-2
3.01885E-2,1.46045E-2
4.29668E-2,2.50396E-2
6.72798E-2,3.38516E-2
7.50045E-2,4.16603E-2
8.15582E-2,4.59327E-2
7.55996E-2,3.25088E-2
7.21931E-2,2.52609E-2
8.65211E-2,1.92871E-2
1.03637E-1,1.63993E-2
1.19751E-1,2.47345E-2
1.28601E-1,0.21553E-1
1.27327E-1,0.10055E-1
1.36192E-1,-0.13511E-1
1.53465E-1,-0.47470E-1
1.63749E-1,-0.71014E-1
1.71188E-1,-0.87066E-1
1.56356E-1,-1.05400E-1
1.32316E-1,-1.28822E-1
1.09169E-1,-1.62178E-1
0.89759E-1,-1.90284E-1
0.88226E-1,-2.04002E-1
0.75096E-1,-2.16995E-1
END
BEGIN
-6.49139E-1,3.26171E-1
-5.63415E-1,3.34808E-1
-5.80902E-1,3.87237E-1
-4.96215E-1,4.83093E-1
-4.34799E-1,4.98077E-1
-3.55255E-1,5.54870E-1
-2.67456E-1,5.08422E-1
-2.95532E-1,4.90158E-1
-2.72796E-1,5.62805E-1
-2.23510E-1,5.81604E-1
-1.72119E-1,6.37207E-1
-0.76355E-1,6.15264E-1
-0.94726E-1,6.02813E-1
-0.41809E-1,7.02697E-1
0.79711E-1,6.87377E-1
1.29455E-1,6.83654E-1
2.32818E-1,6.50604E-1
2.31811E-1,5.88592E-1
2.52166E-1,6.45904E-1
3.68286E-1,6.4151E-1
4.29687E-1,6.16607E-1
5.52917E-1,5.82641E-1
5.98388E-1,4.59686E-1
6.11999E-1,4.37866E-1
7.06176E-1,3.64929E-1
7.08282E-1,2.61962E-1
7.52197E-1,2.02758E-1
7.36999E-1,0.58410E-1
6.53442E-1,0.38360E-1
6.86523E-1,0.40008E-1
6.96136E-1,-0.22522E-1
7.22473E-1,-0.45776E-1
7.59521E-1,-1.62292E-1
6.85089E-1,-2.21344E-1
7.22442E-1,-2.27325E-1
7.59704E-1,-3.55957E-1
7.27142E-1,-4.63104E-1
6.70867E-1,-6.26342E-1
4.70123E-1,-6.71386E-1
4.31457E-1,-6.10076E-1
4.12658E-1,-6.85699E-1
3.14819E-1,-7.04132E-1
2.81768E-1,-7.37548E-1
1.54876E-1,-7.67272E-1
1.18438E-1,-6.98883E-1
1.21612E-1,-7.59613E-1
0.02533E-1,-7.97790E-1
-0.51605E-1,-7.87628E-1
-1.8396E-1,-8.26690E-1
-2.93212E-1,-6.98425E-1
-2.68158E-1,-6.52435E-1
-3.18206E-1,-6.54113E-1
-3.41522E-1,-6.18866E-1
-3.92669E-1,-6.50024E-1
-4.97772E-1,-5.89508E-1
-5.0177E-1,-5.36773E-1
-5.6073E-1,-5.37506E-1
-6.17675E-1,-4.81048E-1
-6.86279E-1,-4.69940E-1
-8.09539E-1,-3.40911E-1
-7.54699E-1,-1.99707E-1
-7.42126E-1,-1.77764E-1
-7.40417E-1,-1.04492E-1
-7.22320E-1,-1.03546E-1
-8.13201E-1,-0.62072E-1
-8.04779E-1,0.71380E-1
-7.77374E-1,0.96740E-1
-8.22052E-1,1.72332E-1
-7.99224E-1,2.62664E-1
-8.19335E-1,3.58001E-1
-7.30133E-1,5.17181E-1
-6.09588E-1,5.24963E-1
-5.78765E-1,5.61004E-1
-4.88678E-1,5.85907E-1
-4.77050E-1,5.69610E-1
-4.56726E-1,6.39434E-1
-3.91479E-1,6.57501E-1
-3.85101E-1,6.96197E-1
-3.09387E-1,7.66082E-1
-2.56897E-1,7.68829E-1
-2.20672E-1,8.53607E-1
-0.79162E-1,8.98620E-1
0.14831E-1,8.85681E-1
1.36932E-1,8.74328E-1
1.96441E-1,7.84515E-1
2.03887E-1,7.99713E-1
3.19732E-1,8.02490E-1
3.67919E-1,7.28851E-1
4.14703E-1,7.34863E-1
5.00091E-1,6.79168E-1
5.18676E-1,6.55212E-1
6.31561E-1,6.55548E-1
7.24151E-1,5.29876E-1
7.29217E-1,4.49615E-1
7.73040E-1,3.69934E-1
7.53265E-1,2.86956E-1
7.67883E-1,2.62634E-1
7.95410E-1,1.82891E-1
7.73925E-1,1.42852E-1
8.20282E-1,1.11267E-1
8.37829E-1,0.18737E-1
8.38348E-1,-0.28595E-1
8.80523E-1,-1.1203E-1
8.58795E-1,-2.16064E-1
8.54339E-1,-2.88635E-1
8.25439E-1,-4.21112E-1
7.22015E-1,-4.86572E-1
6.83502E-1,-5.16632E-1
6.29425E-1,-5.80932E-1
5.72357E-1,-6.10321E-1
5.26550E-1,-6.67083E-1
4.40368E-1,-6.94732E-1
4.06951E-1,-6.96868E-1
3.71154E-1,-7.51373E-1
2.98553E-1,-7.88848E-1
2.36755E-1,-8.25958E-1
1.36291E-1,-8.53271E-1
0.56366E-1,-8.32855E-1
-0.07629E-1,-8.37860E-1
-0.92468E-1,-8.16833E-1
-1.31591E-1,-7.90527E-1
-1.93603E-1,-7.95257E-1
-2.62420E-1,-7.59338E-1
-3.00811E-1,-7.38220E-1
-3.61816E-1,-7.15972E-1
-4.01153E-1,-6.82189E-1
-4.51019E-1,-6.80511E-1
-5.30120E-1,-6.51336E-1
-5.93597E-1,-6.01593E-1
-6.56280E-1,-5.38757E-1
-6.78070E-1,-4.60845E-1
-7.00927E-1,-4.30358E-1
-7.57873E-1,-3.74542E-1
-7.80395E-1,-3.02429E-1
-8.10455E-1,-2.45941E-1
-8.22357E-1,-1.64733E-1
-8.16894E-1,-1.22192E-1
-8.60870E-1,-0.70282E-1
-8.77838E-1,0.26245E-1
-8.73413E-1,1.01440E-1
-8.69476E-1,1.91528E-1
-8.28125E-1,2.64373E-1
-8.15429E-1,3.21746E-1
-7.82928E-1,4.10644E-1
-7.30194E-1,4.60693E-1
-7.00286E-1,5.25085E-1
-6.31988E-1,5.81512E-1
-5.96618E-1,5.99365E-1
-5.69061E-1,6.57440E-1
-5.14862E-1,7.08618E-1
-4.71740E-1,7.66174E-1
-3.84582E-1,8.30017E-1
-2.98431E-1,8.40637E-1
-2.42431E-1,8.64257E-1
-1.66290E-1,8.85223E-1
-0.98877E-1,9.02191E-1
-0.04241E-1,9.18853E-1
0.78186E-1,8.92150E-1
1.28906E-1,8.87298E-1
2.09686E-1,8.90472E-1
2.81066E-1,8.73443E-1
3.66241E-1,8.66333E-1
4.61151E-1,8.19671E-1
5.22460E-1,7.68096E-1
5.91918E-1,7.26287E-1
6.53045E-1,6.65130E-1
7.03247E-1,6.11206E-1
7.59185E-1,5.4422E-1
7.97332E-1,4.74151E-1
8.31115E-1,4.09881E-1
8.63983E-1,3.39325E-1
8.88824E-1,2.69866E-1
9.16381E-1,1.96289E-1
9.33013E-1,1.12579E-1
9.39239E-1,0.30151E-1
9.39727E-1,-0.51666E-1
9.31213E-1,-1.36901E-1
9.13391E-1,-2.15789E-1
8.92181E-1,-2.90100E-1
8.67889E-1,-3.70056E-1
8.29864E-1,-4.45465E-1
7.88909E-1,-5.22430E-1
7.26318E-1,-5.90484E-1
6.68212E-1,-6.34613E-1
6.22467E-1,-6.84814E-1
5.64636E-1,-7.37976E-1
5.04211E-1,-7.84423E-1
4.30023E-1,-8.36120E-1
3.48022E-1,-8.59191E-1
2.84118E-1,-8.81927E-1
2.05474E-1,-9.11071E-1
1.28234E-1,-9.20196E-1
0.44708E-1,-9.43573E-1
-0.57952E-1,-9.33441E-1
-1.32568E-1,-9.09942E-1
-2.06909E-1,-8.95782E-1
-2.77435E-1,-8.66302E-1
-3.42895E-1,-8.46283E-1
-4.25048E-1,-8.10119E-1
-4.82605E-1,-7.60925E-1
-5.39947E-1,-7.22534E-1
END
BEGIN
-6.08581E-1,2.73132E-1
-6.08429E-1,3.49792E-1
-4.95895E-1,4.12674E-1
-4.87609E-1,3.67569E-1
-5.29632E-1,4.79797E-1
-4.13909E-1,5.53009E-1
-3.79089E-1,5.79620E-1
-2.68066E-1,6.40686E-1
-2.11090E-1,5.79101E-1
-2.43835E-1,6.35559E-1
-1.23535E-1,7.14263E-1
-0.43975E-1,6.90979E-1
0.51452E-1,6.98761E-1
1.15875E-1,6.17034E-1
0.96038E-1,6.23382E-1
1.94427E-1,6.64733E-1
2.59491E-1,6.08429E-1
3.17901E-1,6.00677E-1
3.80706E-1,5.10528E-1
3.36883E-1,4.80194E-1
3.86779E-1,5.33691E-1
4.78958E-1,4.86053E-1
5.19104E-1,4.60235E-1
6.14807E-1,3.92364E-1
5.97381E-1,2.92816E-1
6.04034E-1,3.07617E-1
6.90002E-1,2.52075E-1
7.07397E-1,1.77795E-1
7.68951E-1,0.95459E-1
7.24456E-1,-0.47180E-1
6.66626E-1,-0.41992E-1
7.19574E-1,-0.73089E-1
7.28546E-1,-1.46759E-1
7.71698E-1,-2.33642E-1
6.93084E-1,-4.04785E-1
5.65277E-1,-3.83178E-1
5.99487E-1,-3.75091E-1
6.00219E-1,-4.60174E-1
5.97412E-1,-5.37658E-1
5.08026E-1,-7.00286E-1
3.19580E-1,-6.68396E-1
3.26507E-1,-6.01715E-1
3.25744E-1,-6.58935E-1
2.98675E-1,-7.02362E-1
2.38983E-1,-8.34533E-1
0.20233E-1,-8.41186E-1
-0.10406E-1,-7.30712E-1
-0.12481E-1,-7.63916E-1
-0.75866E-1,-7.75665E-1
-1.27716E-1,-8.42163E-1
-3.48877E-1,-8.50830E-1
-4.22149E-1,-6.70318E-1
-3.90014E-1,-6.42028E-1
-4.38751E-1,-6.28387E-1
-4.56359E-1,-6.35681E-1
-6.08856E-1,-6.60614E-1
-7.18139E-1,-4.68872E-1
-6.55731E-1,-3.85376E-1
-6.79504E-1,-3.64044E-1
-6.83044E-1,-3.29742E-1
-7.73407E-1,-3.47747E-1
-8.93890E-1,-1.71203E-1
-7.95379E-1,-0.32074E-1
-7.62817E-1,-0.16723E-1
-7.45422E-1,0.26733E-1
-7.73223E-1,0.11749E-1
-8.95507E-1,1.26007E-1
-8.08532E-1,3.17108E-1
-7.23693E-1,3.23638E-1
-7.08770E-1,3.68164E-1
-6.85302E-1,3.87298E-1
-7.45513E-1,4.71344E-1
-6.52771E-1,6.63238E-1
-4.98748E-1,6.64794E-1
-4.58587E-1,6.67785E-1
-3.99139E-1,6.82251E-1
-3.98407E-1,7.02026E-1
-3.36181E-1,8.19335E-1
-1.79290E-1,8.27301E-1
-1.15722E-1,7.90130E-1
-0.60546E-1,7.72735E-1
-0.52795E-1,7.72277E-1
0.07385E-1,8.53973E-1
1.59027E-1,8.37188E-1
2.08679E-1,7.76519E-1
2.76886E-1,7.52136E-1
3.03039E-1,6.90033E-1
3.09570E-1,7.21893E-1
4.30725E-1,7.46704E-1
5.20721E-1,6.67114E-1
5.70495E-1,6.16790E-1
6.05835E-1,5.39947E-1
6.07177E-1,5.22491E-1
6.98181E-1,5.19989E-1
7.91229E-1,4.19586E-1
8.22692E-1,3.16894E-1
8.21777E-1,2.06115E-1
7.72857E-1,1.73034E-1
8.29528E-1,1.70593E-1
8.98834E-1,0.54595E-1
8.78051E-1,-0.625E-1
8.54522E-1,-1.60369E-1
7.83050E-1,-2.17681E-1
7.92388E-1,-2.18994E-1
8.26171E-1,-3.20617E-1
7.68920E-1,-4.17907E-1
7.31353E-1,-4.89959E-1
6.35223E-1,-5.69793E-1
5.74005E-1,-5.53283E-1
5.9021E-1,-6.02203E-1
5.31463E-1,-6.98211E-1
4.49310E-1,-7.50427E-1
3.36090E-1,-7.89703E-1
2.51983E-1,-7.37915E-1
2.57324E-1,-7.42004E-1
2.05200E-1,-8.08746E-1
1.14044E-1,-8.38165E-1
0.10223E-1,-8.49304E-1
-0.84289E-1,-7.86346E-1
-0.84014E-1,-7.46185E-1
-1.11480E-1,-7.81890E-1
-1.92932E-1,-7.99041E-1
-2.91534E-1,-7.93060E-1
-3.9151E-1,-7.19635E-1
-3.95965E-1,-6.42608E-1
-4.09393E-1,-6.48101E-1
-4.71710E-1,-6.43798E-1
-5.48767E-1,-6.21337E-1
-6.37756E-1,-5.41961E-1
-6.35131E-1,-4.35363E-1
-6.20269E-1,-4.19891E-1
-6.67907E-1,-4.12109E-1
-7.30957E-1,-3.70513E-1
-7.93457E-1,-2.91534E-1
-7.91046E-1,-1.88568E-1
-7.7005E-1,-1.48620E-1
-7.94433E-1,-1.12731E-1
-8.18939E-1,-0.54779E-1
-8.52020E-1,0.15472E-1
-8.53332E-1,1.21673E-1
-8.10821E-1,1.85272E-1
-8.01849E-1,2.27356E-1
-7.96264E-1,2.87353E-1
-7.96020E-1,3.57025E-1
-7.72918E-1,4.58526E-1
-7.09747E-1,5.28747E-1
-6.73858E-1,5.73242E-1
-6.36413E-1,6.32507E-1
-5.96710E-1,6.91986E-1
-5.38147E-1,7.76763E-1
-4.28131E-1,8.27362E-1
-3.54522E-1,8.31665E-1
-3.04687E-1,8.65295E-1
-2.38250E-1,9.02465E-1
-1.55944E-1,9.45098E-1
-0.37323E-1,9.56481E-1
0.50079E-1,9.24987E-1
1.18347E-1,9.16992E-1
1.95068E-1,9.09118E-1
2.75756E-1,8.99810E-1
3.72375E-1,8.72833E-1
4.43237E-1,8.14300E-1
4.95941E-1,7.73437E-1
5.54168E-1,7.32299E-1
6.14837E-1,6.94519E-1
6.87194E-1,6.42578E-1
7.38891E-1,5.68206E-1
7.77130E-1,5.04180E-1
8.14209E-1,4.36248E-1
8.44787E-1,3.72802E-1
8.80859E-1,3.02825E-1
9.08721E-1,2.21893E-1
9.20745E-1,1.40808E-1
9.28588E-1,0.61096E-1
9.29626E-1,-0.18829E-1
9.21997E-1,-0.97564E-1
9.14062E-1,-1.71173E-1
9.01641E-1,-2.51922E-1
8.78936E-1,-3.34259E-1
8.44329E-1,-4.15283E-1
7.91961E-1,-4.88616E-1
7.41180E-1,-5.38696E-1
7.04925E-1,-5.98144E-1
6.52954E-1,-6.60278E-1
6.00250E-1,-7.19818E-1
5.25299E-1,-7.79205E-1
4.41101E-1,-8.03253E-1
3.88366E-1,-8.30139E-1
3.16131E-1,-8.68743E-1
2.44659E-1,-8.97491E-1
1.57867E-1,-9.31884E-1
0.52398E-1,-9.29016E-1
-0.18219E-1,-9.02954E-1
-0.82855E-1,-9.00726E-1
-1.53595E-1,-8.9328E-1
-2.32299E-1,-8.95629E-1
-3.29345E-1,-8.63494E-1
-3.91418E-1,-8.06640E-1
-4.37164E-1,-7.74292E-1
-4.97070E-1,-7.38433E-1
-5.59082E-1,-7.03582E-1
END
BEGIN
-6.81579E-1,1.96228E-1
-6.54571E-1,2.74871E-1
-6.15814E-1,3.55926E-1
-5.71777E-1,4.29046E-1
-5.06744E-1,5.00213E-1
-4.36187E-1,5.54138E-1
-3.62243E-1,6.02020E-1
-2.88452E-1,6.41387E-1
-2.02972E-1,6.68670E-1
-1.18316E-1,6.77124E-1
-0.39611E-1,6.76116E-1
0.36529E-1,6.64276E-1
1.07147E-1,6.53137E-1
1.90460E-1,6.28692E-1
2.55859E-1,5.92987E-1
3.21472E-1,5.52002E-1
3.76251E-1,4.97634E-1
4.20578E-1,4.43023E-1
4.59960E-1,3.84857E-1
4.74960E-1,3.22372E-1
4.89852E-1,2.71789E-1
5.02471E-1,2.20397E-1
5.18737E-1,1.70593E-1
5.32470E-1,1.10107E-1
5.38147E-1,0.52246E-1
5.47973E-1,-0.06683E-1
5.42968E-1,-0.70068E-1
5.35491E-1,-1.30432E-1
5.12085E-1,-1.94610E-1
4.94522E-1,-2.49267E-1
4.63775E-1,-3.08548E-1
4.24591E-1,-3.53912E-1
3.91616E-1,-3.90625E-1
3.47915E-1,-4.26757E-1
3.09265E-1,-4.60586E-1
2.43270E-1,-4.88693E-1
1.93359E-1,-5.02838E-1
1.46026E-1,-5.26947E-1
0.81054E-1,-5.50628E-1
0.18524E-1,-5.45898E-1
-0.40924E-1,-5.42053E-1
-0.96679E-1,-5.33172E-1
-1.56402E-1,-5.15441E-1
-2.12738E-1,-4.96765E-1
-2.62664E-1,-4.59945E-1
-3.00872E-1,-4.42596E-1
-3.44375E-1,-4.09851E-1
-3.88183E-1,-3.71994E-1
-4.29946E-1,-3.30352E-1
-4.77676E-1,-2.75314E-1
-4.90799E-1,-2.18429E-1
-5.16815E-1,-1.76910E-1
-5.39764E-1,-1.24267E-1
-5.52246E-1,-0.69061E-1
-5.58136E-1,-0.14068E-1
-5.50964E-1,0.42755E-1
-5.49255E-1,0.95214E-1
-5.32806E-1,1.55548E-1
-5.10406E-1,2.15118E-1
-4.82223E-1,2.66876E-1
-4.53598E-1,3.29055E-1
-4.10141E-1,3.69278E-1
-3.75183E-1,4.08966E-1
-3.29025E-1,4.56787E-1
-2.68325E-1,4.90097E-1
-2.21710E-1,5.10376E-1
-1.70318E-1,5.27587E-1
-1.20483E-1,5.49011E-1
-0.60089E-1,5.50445E-1
0.03875E-1,5.42755E-1
0.60943E-1,5.30792E-1
1.37878E-1,5.18859E-1
1.94778E-1,4.89212E-1
2.40737E-1,4.70077E-1
2.98904E-1,4.44137E-1
3.48007E-1,4.05136E-1
3.90792E-1,3.56689E-1
4.14306E-1,3.12072E-1
4.50439E-1,2.72476E-1
4.78591E-1,2.22381E-1
4.94308E-1,1.60766E-1
4.91104E-1,1.09863E-1
4.96307E-1,0.61630E-1
4.98153E-1,0.04821E-1
4.94506E-1,-0.47775E-1
4.86358E-1,-1.05117E-1
4.68551E-1,-1.55258E-1
4.52697E-1,-2.02331E-1
4.26528E-1,-2.34222E-1
4.06433E-1,-2.71453E-1
3.72833E-1,-3.04565E-1
3.34228E-1,-3.36395E-1
2.97485E-1,-3.59771E-1
2.57171E-1,-3.88717E-1
2.18719E-1,-4.13375E-1
1.73980E-1,-4.29763E-1
1.35116E-1,-4.44213E-1
0.87341E-1,-4.57931E-1
0.35385E-1,-4.61822E-1
0.07949E-1,-4.61181E-1
-0.27298E-1,-4.73190E-1
-0.59829E-1,-4.74578E-1
-0.98693E-1,-4.71069E-1
-1.27136E-1,-4.52194E-1
-1.52313E-1,-4.42352E-1
-1.93908E-1,-4.31533E-1
-2.31445E-1,-4.07424E-1
-2.63671E-1,-3.84903E-1
-2.92648E-1,-3.60031E-1
-3.18725E-1,-3.38821E-1
-3.45214E-1,-3.18115E-1
-3.67004E-1,-2.88406E-1
-3.83300E-1,-2.63534E-1
-4.06692E-1,-2.34176E-1
-4.21997E-1,-2.02774E-1
-4.37118E-1,-1.75506E-1
-4.50637E-1,-1.45294E-1
-4.57244E-1,-1.10992E-1
-4.61410E-1,-0.73989E-1
-4.63562E-1,-0.38375E-1
-4.70459E-1,0.04409E-1
-4.73587E-1,0.43975E-1
-4.73709E-1,0.80688E-1
-4.73739E-1,1.10763E-1
-4.68185E-1,1.45065E-1
-4.57458E-1,1.81289E-1
-4.38262E-1,2.14584E-1
-4.21386E-1,2.42706E-1
-4.05715E-1,2.73208E-1
-3.78463E-1,3.04992E-1
-3.55987E-1,3.28567E-1
-3.22616E-1,3.59054E-1
-2.90191E-1,3.80538E-1
-2.59780E-1,4.02999E-1
-2.26715E-1,4.25140E-1
-1.92794E-1,4.39788E-1
-1.57150E-1,4.56665E-1
-1.19033E-1,4.60708E-1
-0.91110E-1,4.61456E-1
-0.57998E-1,4.62844E-1
-0.18905E-1,4.55246E-1
0.15014E-1,4.44885E-1
0.55770E-1,4.31472E-1
0.90927E-1,4.16763E-1
1.2883E-1,4.00756E-1
1.61102E-1,3.81790E-1
1.91497E-1,3.59832E-1
2.25692E-1,3.28704E-1
2.50930E-1,2.88696E-1
2.65701E-1,2.55996E-1
2.79846E-1,2.38235E-1
2.98614E-1,2.09747E-1
3.03619E-1,1.79901E-1
3.02230E-1,1.41326E-1
2.93655E-1,1.02401E-1
2.85278E-1,0.69320E-1
2.88803E-1,0.34164E-1
2.82516E-1,-0.00854E-1
2.72247E-1,-0.28350E-1
2.53418E-1,-0.52673E-1
2.33619E-1,-0.64804E-1
2.27165E-1,-0.80856E-1
2.09053E-1,-1.02829E-1
1.90277E-1,-1.10275E-1
1.68983E-1,-1.18080E-1
1.44058E-1,-1.15364E-1
1.22432E-1,-1.10763E-1
9.81674E-2,-1.11125E-1
7.41844E-2,-1.05613E-1
5.19866E-2,-1.04496E-1
2.32620E-2,-9.76715E-2
0.74577E-2,-8.58764E-2
-0.24032E-2,-8.38966E-2
-1.25770E-2,-8.01658E-2
-1.99546E-2,-7.49282E-2
-3.11813E-2,-5.91716E-2
-2.96363E-2,-3.58066E-2
-2.61268E-2,-2.39048E-2
-2.77662E-2,-1.43909E-2
-2.81591E-2,-0.56390E-2
-2.89135E-2,0.80699E-2
-1.71499E-2,2.62889E-2
-0.35858E-2,3.13282E-2
0.02784E-2,3.42598E-2
-0.12378E-2,3.48835E-2
-0.55503E-2,3.99169E-2
0.06980E-2,4.77581E-2
1.91116E-2,4.36382E-2
3.47271E-2,3.71151E-2
5.49125E-2,3.22055E-2
6.86416E-2,2.51541E-2
7.83424E-2,2.63748E-2
9.91706E-2,2.34909E-2
1.07826E-1,0.73928E-2
1.15417E-1,-0.48179E-2
1.21059E-1,-2.24533E-2
1.18194E-1,-3.27949E-2
1.21269E-1,-3.78303E-2
1.20388E-1,-5.98335E-2
1.13178E-1,-7.74650E-2
1.05949E-1,-1.03092E-1
END
