CITIFILE A.01.01
#NA VERSION HP8510C.08.10
NAME DATA
#NA REGISTER 4
VAR FREQ MAG 201
DATA S[1,1] RI
DATA S[2,1] RI
DATA S[1,2] RI
DATA S[2,2] RI
SEG_LIST_BEGIN
SEG 8000000000 12000000000 201
SEG_LIST_END
COMMENT       YEAR MONTH DAY HOUR MINUTE SECONDS
CONSTANT TIME 2013   12   09  21    02    13.0
BEGIN
-6.74499E-1,-0.85571E-1
-6.80358E-1,-0.15777E-1
-6.78985E-1,0.63995E-1
-6.73095E-1,1.34338E-1
-6.55090E-1,2.09564E-1
-6.28295E-1,2.74475E-1
-5.95001E-1,3.39782E-1
-5.62225E-1,3.98284E-1
-5.14953E-1,4.64416E-1
-4.61395E-1,5.14953E-1
-4.07653E-1,5.61462E-1
-3.42804E-1,5.98388E-1
-2.81463E-1,6.32843E-1
-2.0047E-1,6.63391E-1
-1.30096E-1,6.77368E-1
-0.55664E-1,6.87866E-1
0.21698E-1,6.82220E-1
0.93383E-1,6.72332E-1
1.73400E-1,6.55914E-1
2.43438E-1,6.17065E-1
3.07922E-1,5.80413E-1
3.64135E-1,5.29113E-1
4.06845E-1,4.74533E-1
4.37652E-1,4.14856E-1
4.54132E-1,3.58703E-1
4.71008E-1,3.13949E-1
4.83108E-1,2.67456E-1
4.94720E-1,2.29019E-1
5.02899E-1,1.86401E-1
5.16143E-1,1.5271E-1
5.31677E-1,1.05102E-1
5.34301E-1,0.52917E-1
5.39093E-1,0.06774E-1
5.33752E-1,-0.46051E-1
5.32836E-1,-0.92071E-1
5.12023E-1,-1.51489E-1
4.89791E-1,-1.91223E-1
4.73754E-1,-2.34603E-1
4.50805E-1,-2.88818E-1
4.07806E-1,-3.22403E-1
3.75167E-1,-3.56857E-1
3.42834E-1,-3.87191E-1
3.01910E-1,-4.16519E-1
2.61947E-1,-4.47723E-1
2.05444E-1,-4.64386E-1
1.7099E-1,-4.78973E-1
1.22009E-1,-4.86572E-1
0.76751E-1,-4.92477E-1
0.36514E-1,-4.96795E-1
-0.19500E-1,-5.03509E-1
-0.56701E-1,-4.82360E-1
-0.93338E-1,-4.84878E-1
-1.40792E-1,-4.76486E-1
-1.8396E-1,-4.58816E-1
-2.26211E-1,-4.38140E-1
-2.61474E-1,-4.10781E-1
-2.98675E-1,-3.95385E-1
-3.32809E-1,-3.61022E-1
-3.58245E-1,-3.25485E-1
-3.76403E-1,-2.95410E-1
-4.10003E-1,-2.63137E-1
-4.26132E-1,-2.26608E-1
-4.46426E-1,-1.94763E-1
-4.65805E-1,-1.55868E-1
-4.74685E-1,-1.11984E-1
-4.80361E-1,-0.69030E-1
-4.80712E-1,-0.28640E-1
-4.93850E-1,0.1297E-1
-4.85641E-1,0.56686E-1
-4.73617E-1,0.92483E-1
-4.63180E-1,1.24816E-1
-4.54498E-1,1.73248E-1
-4.34219E-1,2.12753E-1
-4.15573E-1,2.43392E-1
-3.98330E-1,2.75939E-1
-3.73245E-1,3.09478E-1
-3.40774E-1,3.44711E-1
-3.11050E-1,3.74374E-1
-2.76794E-1,4.14154E-1
-2.34115E-1,4.38446E-1
-1.87042E-1,4.56527E-1
-1.41922E-1,4.59686E-1
-0.96786E-1,4.75753E-1
-0.38497E-1,4.84100E-1
0.06057E-1,4.81552E-1
0.49652E-1,4.77035E-1
0.92926E-1,4.60357E-1
1.39907E-1,4.49295E-1
1.91452E-1,4.30496E-1
2.43377E-1,4.07409E-1
2.85141E-1,3.78036E-1
3.21044E-1,3.39187E-1
3.44451E-1,2.96691E-1
3.78250E-1,2.47268E-1
4.02038E-1,1.92672E-1
4.13955E-1,1.42135E-1
4.20776E-1,1.01821E-1
4.26849E-1,0.57357E-1
4.25705E-1,-0.01617E-1
4.15283E-1,-0.50567E-1
4.10186E-1,-1.04858E-1
3.97995E-1,-1.54296E-1
3.74633E-1,-2.08236E-1
3.35479E-1,-2.49877E-1
2.95227E-1,-2.88452E-1
2.48962E-1,-3.27941E-1
2.01583E-1,-3.53103E-1
1.60827E-1,-3.67599E-1
1.20971E-1,-3.76617E-1
0.73989E-1,-3.86993E-1
0.23727E-1,-3.89587E-1
-0.19836E-1,-3.89648E-1
-0.52307E-1,-3.90884E-1
-0.94757E-1,-3.93722E-1
-1.38015E-1,-3.79913E-1
-1.82937E-1,-3.58917E-1
-2.25174E-1,-3.34381E-1
-2.59780E-1,-3.13140E-1
-2.86697E-1,-2.96966E-1
-3.08853E-1,-2.78488E-1
-3.40911E-1,-2.48062E-1
-3.65585E-1,-2.06115E-1
-3.88870E-1,-1.69952E-1
-4.11636E-1,-1.46057E-1
-4.34082E-1,-1.16058E-1
-4.47494E-1,-0.75286E-1
-4.5047E-1,-0.25589E-1
-4.48120E-1,0.23742E-1
-4.52606E-1,0.64727E-1
-4.53476E-1,1.01577E-1
-4.47403E-1,1.30050E-1
-4.31732E-1,1.69113E-1
-4.07913E-1,2.07336E-1
-3.89083E-1,2.47451E-1
-3.76724E-1,2.85476E-1
-3.59466E-1,3.13629E-1
-3.33725E-1,3.38516E-1
-2.94448E-1,3.61358E-1
-2.56500E-1,3.83606E-1
-2.23571E-1,4.13253E-1
-1.89453E-1,4.30435E-1
-1.64001E-1,4.37576E-1
-1.27639E-1,4.37759E-1
-0.87753E-1,4.40780E-1
-0.36575E-1,4.49844E-1
0.03570E-1,4.55123E-1
0.31738E-1,4.57595E-1
0.62149E-1,4.48150E-1
0.95352E-1,4.27413E-1
1.39007E-1,4.09530E-1
1.84204E-1,3.95965E-1
2.23098E-1,3.78295E-1
2.47421E-1,3.58810E-1
2.64144E-1,3.25668E-1
2.86605E-1,2.84286E-1
3.11889E-1,2.39639E-1
3.36181E-1,2.00042E-1
3.48373E-1,1.66870E-1
3.45703E-1,1.33819E-1
3.38043E-1,0.98190E-1
3.33252E-1,0.50857E-1
3.35617E-1,0.00900E-1
3.28476E-1,-0.44097E-1
3.11584E-1,-0.78857E-1
2.79174E-1,-1.04248E-1
2.43667E-1,-1.32904E-1
2.00271E-1,-1.65336E-1
1.62384E-1,-1.86019E-1
1.31980E-1,-1.96838E-1
1.00524E-1,-1.91650E-1
0.66947E-1,-1.82357E-1
0.26512E-1,-1.76040E-1
-0.07057E-1,-1.70547E-1
-0.29701E-1,-1.69776E-1
-0.51139E-1,-1.62017E-1
-0.69419E-1,-1.37611E-1
-9.10186E-2,-1.11110E-1
-1.16912E-1,-7.91893E-2
-1.30844E-1,-0.57968E-1
-1.42005E-1,-0.44082E-1
-1.38900E-1,-0.16616E-1
-1.21963E-1,1.27906E-2
-1.15078E-1,4.48608E-2
-1.04106E-1,7.21778E-2
-1.01692E-1,7.87200E-2
-9.46540E-2,8.44917E-2
-7.56187E-2,9.06105E-2
-5.14717E-2,1.02924E-1
-2.69279E-2,1.22596E-1
-0.11276E-1,1.32469E-1
-0.02563E-1,1.35459E-1
0.17807E-1,1.25625E-1
5.10978E-2,1.05766E-1
7.95631E-2,8.77685E-2
9.83505E-2,7.74917E-2
9.85946E-2,6.84471E-2
9.10720E-2,5.08537E-2
8.76426E-2,2.49214E-2
9.03205E-2,-0.62942E-2
1.01467E-1,-2.08435E-2
1.09306E-1,-3.31268E-2
END
BEGIN
-6.89453E-1,3.18786E-1
-5.93383E-1,3.41033E-1
-6.10748E-1,3.85833E-1
-5.35827E-1,4.97253E-1
-4.67315E-1,5.20538E-1
-3.88214E-1,5.90972E-1
-2.79205E-1,5.55633E-1
-2.94525E-1,5.24200E-1
-2.75390E-1,5.96069E-1
-2.18170E-1,6.17767E-1
-1.65435E-1,6.75231E-1
-0.48858E-1,6.56799E-1
-0.59234E-1,6.22161E-1
-0.19409E-1,7.19360E-1
1.14624E-1,7.09106E-1
1.69433E-1,6.97418E-1
2.87963E-1,6.58599E-1
2.93762E-1,5.68847E-1
3.01269E-1,6.07116E-1
4.09210E-1,5.87219E-1
4.49096E-1,5.42816E-1
5.40649E-1,5.03356E-1
5.56274E-1,3.93035E-1
5.47424E-1,3.87176E-1
6.23413E-1,3.49426E-1
6.36749E-1,2.78442E-1
6.88690E-1,2.41973E-1
7.13684E-1,1.19689E-1
6.52984E-1,0.73425E-1
6.78802E-1,0.68115E-1
6.94519E-1,0.02807E-1
7.11975E-1,-0.22583E-1
7.59704E-1,-1.23962E-1
6.94366E-1,-2.02789E-1
7.10479E-1,-2.03338E-1
7.58789E-1,-3.08319E-1
7.41149E-1,-4.10400E-1
7.21893E-1,-5.67413E-1
5.36590E-1,-6.67968E-1
4.63470E-1,-6.13678E-1
4.53582E-1,-6.77887E-1
3.53790E-1,-7.13836E-1
3.21167E-1,-7.41668E-1
1.96716E-1,-7.98675E-1
1.25579E-1,-7.28454E-1
1.35620E-1,-7.65441E-1
0.26825E-1,-8.14758E-1
-0.30883E-1,-8.01025E-1
-1.46545E-1,-8.56933E-1
-2.89703E-1,-7.48626E-1
-2.77313E-1,-6.79077E-1
-3.22906E-1,-6.76818E-1
-3.51470E-1,-6.30859E-1
-3.85833E-1,-6.55731E-1
-4.92645E-1,-6.14349E-1
-5.06408E-1,-5.50720E-1
-5.53649E-1,-5.51239E-1
-6.13525E-1,-4.99755E-1
-6.68548E-1,-4.92828E-1
-8.08441E-1,-3.99017E-1
-7.89611E-1,-2.36114E-1
-7.68585E-1,-1.98425E-1
-7.73407E-1,-1.18347E-1
-7.40020E-1,-1.01684E-1
-8.18389E-1,-0.78338E-1
-8.26477E-1,0.52459E-1
-7.94311E-1,0.87066E-1
-8.37310E-1,1.49353E-1
-8.24585E-1,2.41821E-1
-8.49578E-1,3.24249E-1
-8.00231E-1,4.96368E-1
-6.69952E-1,5.42480E-1
-6.30218E-1,5.81176E-1
-5.32653E-1,6.27533E-1
-4.96551E-1,6.09527E-1
-4.77294E-1,6.70196E-1
-4.03717E-1,6.95953E-1
-3.88275E-1,7.21954E-1
-3.20953E-1,7.92175E-1
-2.57476E-1,7.95562E-1
-2.28179E-1,8.65753E-1
-0.99945E-1,9.25170E-1
0.01586E-1,9.2099E-1
1.25091E-1,9.23919E-1
2.14965E-1,8.38104E-1
2.27233E-1,8.29132E-1
3.34350E-1,8.36792E-1
3.99627E-1,7.60070E-1
4.41772E-1,7.53326E-1
5.31677E-1,7.01873E-1
5.51391E-1,6.62628E-1
6.46575E-1,6.66229E-1
7.54303E-1,5.57342E-1
7.71575E-1,4.62646E-1
8.18084E-1,3.81012E-1
8.08349E-1,2.79754E-1
8.13324E-1,2.41912E-1
8.40545E-1,1.56951E-1
8.08013E-1,1.00738E-1
8.36242E-1,0.69397E-1
8.50585E-1,-0.19287E-1
8.38531E-1,-0.69580E-1
8.71704E-1,-1.41540E-1
8.53363E-1,-2.41851E-1
8.43048E-1,-3.08136E-1
8.26538E-1,-4.31457E-1
7.26867E-1,-5.15686E-1
6.72912E-1,-5.45929E-1
6.18042E-1,-6.09252E-1
5.49499E-1,-6.37847E-1
5.02044E-1,-6.86706E-1
4.10064E-1,-7.16064E-1
3.66516E-1,-7.04315E-1
3.36578E-1,-7.44049E-1
2.69866E-1,-7.79083E-1
2.14141E-1,-8.08624E-1
1.21551E-1,-8.40454E-1
0.37811E-1,-8.20465E-1
-0.21453E-1,-8.21594E-1
-1.08062E-1,-8.03283E-1
-1.49688E-1,-7.67425E-1
-2.01538E-1,-7.69439E-1
-2.69928E-1,-7.34771E-1
-3.03558E-1,-7.07855E-1
-3.58520E-1,-6.86523E-1
-3.93890E-1,-6.50970E-1
-4.33349E-1,-6.48010E-1
-5.04730E-1,-6.27777E-1
-5.65673E-1,-5.87554E-1
-6.31073E-1,-5.32501E-1
-6.58447E-1,-4.51934E-1
-6.74285E-1,-4.19952E-1
-7.28332E-1,-3.73382E-1
-7.53662E-1,-3.03497E-1
-7.82226E-1,-2.51647E-1
-7.99163E-1,-1.72241E-1
-7.87872E-1,-1.2854E-1
-8.27423E-1,-0.88317E-1
-8.52844E-1,-0.01007E-1
-8.54064E-1,0.71136E-1
-8.59588E-1,1.56646E-1
-8.24890E-1,2.35046E-1
-8.13690E-1,2.90863E-1
-7.90466E-1,3.84033E-1
-7.35839E-1,4.41101E-1
-7.09472E-1,5.02868E-1
-6.41754E-1,5.69458E-1
-5.96191E-1,5.84991E-1
-5.71716E-1,6.35681E-1
-5.19775E-1,6.84753E-1
-4.84405E-1,7.37182E-1
-4.09362E-1,8.09143E-1
-3.17993E-1,8.29834E-1
-2.60925E-1,8.51898E-1
-1.84204E-1,8.74694E-1
-1.20147E-1,8.88885E-1
-0.29876E-1,9.14398E-1
0.62683E-1,8.91082E-1
1.12945E-1,8.77807E-1
1.90185E-1,8.81469E-1
2.58270E-1,8.63128E-1
3.35845E-1,8.59863E-1
4.30511E-1,8.23791E-1
4.95483E-1,7.72033E-1
5.63995E-1,7.33886E-1
6.29272E-1,6.73797E-1
6.77490E-1,6.19873E-1
7.34741E-1,5.60272E-1
7.76001E-1,4.86663E-1
8.08044E-1,4.23492E-1
8.39965E-1,3.53729E-1
8.61206E-1,2.85736E-1
8.86779E-1,2.20764E-1
9.06646E-1,1.42700E-1
9.14703E-1,0.64880E-1
9.20837E-1,-0.13793E-1
9.14642E-1,-0.95642E-1
9.00024E-1,-1.69555E-1
8.85406E-1,-2.40539E-1
8.67157E-1,-3.16619E-1
8.39202E-1,-3.91143E-1
8.07586E-1,-4.68841E-1
7.53875E-1,-5.41412E-1
6.98974E-1,-5.95764E-1
6.50939E-1,-6.49078E-1
5.95123E-1,-7.01599E-1
5.38787E-1,-7.47741E-1
4.72229E-1,-8.00262E-1
3.94561E-1,-8.29986E-1
3.32733E-1,-8.52386E-1
2.61810E-1,-8.85437E-1
1.90704E-1,-9.02679E-1
1.18469E-1,-9.33593E-1
0.13488E-1,-9.41833E-1
-0.67169E-1,-9.22973E-1
-1.40136E-1,-9.13513E-1
-2.13348E-1,-8.92883E-1
-2.79083E-1,-8.78387E-1
-3.63586E-1,-8.61022E-1
-4.39331E-1,-8.15612E-1
-5.00946E-1,-7.74200E-1
END
BEGIN
-6.20575E-1,2.66815E-1
-6.20330E-1,3.47625E-1
-5.11016E-1,4.04205E-1
-5.15655E-1,3.66485E-1
-5.52368E-1,4.93652E-1
-4.34143E-1,5.64941E-1
-4.00024E-1,5.99762E-1
-2.81799E-1,6.62841E-1
-2.28790E-1,6.05072E-1
-2.53448E-1,6.78955E-1
-1.10473E-1,7.55462E-1
-0.23376E-1,7.25036E-1
0.83557E-1,7.22320E-1
1.41418E-1,6.29180E-1
1.23596E-1,6.43798E-1
2.42675E-1,6.74224E-1
3.07403E-1,6.00341E-1
3.73016E-1,5.74157E-1
4.12246E-1,4.53002E-1
3.43063E-1,4.30282E-1
3.93158E-1,4.78927E-1
4.53201E-1,4.18945E-1
4.71832E-1,4.09072E-1
5.38757E-1,3.50616E-1
5.08483E-1,3.02703E-1
5.44036E-1,3.45031E-1
6.41906E-1,2.94555E-1
6.76666E-1,2.33337E-1
7.50091E-1,1.46209E-1
7.14233E-1,0.19714E-1
6.85852E-1,0.21606E-1
7.52044E-1,-0.28289E-1
7.64892E-1,-1.14166E-1
8.05481E-1,-2.18811E-1
7.12890E-1,-3.80828E-1
6.05590E-1,-3.5495E-1
6.49444E-1,-3.67523E-1
6.43096E-1,-4.65301E-1
6.31958E-1,-5.57220E-1
5.18829E-1,-7.11059E-1
3.49914E-1,-6.63665E-1
3.69110E-1,-6.16699E-1
3.58886E-1,-6.87957E-1
3.21655E-1,-7.43438E-1
2.29492E-1,-8.74572E-1
0.15167E-1,-8.45214E-1
0.04547E-1,-7.45971E-1
-0.07751E-1,-7.89917E-1
-0.76049E-1,-8.01757E-1
-1.47399E-1,-8.68499E-1
-3.65417E-1,-8.39477E-1
-4.06921E-1,-6.70196E-1
-3.83148E-1,-6.57959E-1
-4.35119E-1,-6.44714E-1
-4.64538E-1,-6.57989E-1
-6.27563E-1,-6.57623E-1
-7.01171E-1,-4.65515E-1
-6.43798E-1,-4.07257E-1
-6.77032E-1,-3.86840E-1
-6.91406E-1,-3.57238E-1
-7.96752E-1,-3.5495E-1
-8.84124E-1,-1.65954E-1
-7.86987E-1,-0.59570E-1
-7.72399E-1,-0.45623E-1
-7.63580E-1,-0.00854E-1
-8.02978E-1,-0.04180E-1
-9.07135E-1,1.33697E-1
-8.05389E-1,2.93701E-1
-7.46551E-1,2.96600E-1
-7.38403E-1,3.48388E-1
-7.27294E-1,3.7854E-1
-7.74078E-1,4.89593E-1
-6.54449E-1,6.54846E-1
-5.30670E-1,6.45202E-1
-4.98901E-1,6.64001E-1
-4.44641E-1,6.88293E-1
-4.38720E-1,7.31414E-1
-3.49517E-1,8.42376E-1
-2.07885E-1,8.32397E-1
-1.54144E-1,8.09661E-1
-1.00585E-1,8.04840E-1
-0.81390E-1,8.25622E-1
0.08972E-1,9.03228E-1
1.51367E-1,8.64654E-1
1.96899E-1,8.18603E-1
2.70721E-1,7.94494E-1
2.96508E-1,7.47802E-1
3.34198E-1,7.87139E-1
4.72808E-1,7.84332E-1
5.50048E-1,6.97601E-1
6.03942E-1,6.45996E-1
6.35955E-1,5.72753E-1
6.57867E-1,5.63079E-1
7.68646E-1,5.31951E-1
8.43719E-1,4.08355E-1
8.64715E-1,3.03863E-1
8.52386E-1,1.99188E-1
8.23516E-1,1.76452E-1
8.97369E-1,1.42944E-1
9.38201E-1,0.01068E-1
8.97399E-1,-1.07605E-1
8.61236E-1,-1.99920E-1
7.95349E-1,-2.41912E-1
8.18725E-1,-2.61810E-1
8.27056E-1,-3.82934E-1
7.52777E-1,-4.65911E-1
7.06573E-1,-5.34698E-1
6.04461E-1,-5.89294E-1
5.64636E-1,-5.75347E-1
5.66833E-1,-6.43158E-1
4.85534E-1,-7.25921E-1
3.98925E-1,-7.62085E-1
2.90130E-1,-7.76763E-1
2.34039E-1,-7.25494E-1
2.35199E-1,-7.46704E-1
1.66778E-1,-8.04809E-1
0.77514E-1,-8.18145E-1
-0.18249E-1,-8.13629E-1
-0.85723E-1,-7.51342E-1
-0.82885E-1,-7.33429E-1
-1.24267E-1,-7.71209E-1
-2.09594E-1,-7.78259E-1
-3.03710E-1,-7.57446E-1
-3.80950E-1,-6.79412E-1
-3.78479E-1,-6.23779E-1
-4.02771E-1,-6.35101E-1
-4.69818E-1,-6.23870E-1
-5.44342E-1,-5.92163E-1
-6.12670E-1,-5.07049E-1
-5.97839E-1,-4.24987E-1
-5.96649E-1,-4.21417E-1
-6.53350E-1,-4.08569E-1
-7.16339E-1,-3.59008E-1
-7.66876E-1,-2.75451E-1
-7.53051E-1,-1.88262E-1
-7.42126E-1,-1.59912E-1
-7.71606E-1,-1.23138E-1
-7.98065E-1,-0.62866E-1
-8.26904E-1,0.11291E-1
-8.17657E-1,1.10229E-1
-7.80700E-1,1.57440E-1
-7.81646E-1,1.95159E-1
-7.84545E-1,2.55096E-1
-7.88360E-1,3.28949E-1
-7.60864E-1,4.31304E-1
-7.00347E-1,4.91485E-1
-6.74041E-1,5.35125E-1
-6.45782E-1,5.96923E-1
-6.12579E-1,6.64642E-1
-5.46539E-1,7.56958E-1
-4.29290E-1,7.96539E-1
-3.71917E-1,7.92541E-1
-3.32305E-1,8.31054E-1
-2.72308E-1,8.76953E-1
-1.87774E-1,9.32556E-1
-0.60272E-1,9.42443E-1
0.20965E-1,9.04815E-1
0.80139E-1,9.01458E-1
1.52740E-1,9.00939E-1
2.36084E-1,9.01947E-1
3.41491E-1,8.75213E-1
4.09210E-1,8.11065E-1
4.56420E-1,7.76092E-1
5.11627E-1,7.40753E-1
5.72113E-1,7.14660E-1
6.53167E-1,6.67785E-1
7.08007E-1,5.90087E-1
7.44720E-1,5.29144E-1
7.82348E-1,4.65911E-1
8.14392E-1,4.11621E-1
8.62182E-1,3.48144E-1
8.96759E-1,2.64129E-1
9.09729E-1,1.82647E-1
9.18548E-1,1.04400E-1
9.21997E-1,0.29418E-1
9.25811E-1,-0.46478E-1
9.24469E-1,-1.25732E-1
9.15374E-1,-2.08282E-1
8.95324E-1,-2.90588E-1
8.65600E-1,-3.69689E-1
8.23120E-1,-4.44824E-1
7.78198E-1,-5.03448E-1
7.44659E-1,-5.69061E-1
6.95556E-1,-6.41876E-1
6.36993E-1,-7.07031E-1
5.58502E-1,-7.66784E-1
4.75433E-1,-7.91900E-1
4.21844E-1,-8.17504E-1
3.54095E-1,-8.58123E-1
2.83996E-1,-8.89556E-1
1.98608E-1,-9.29016E-1
0.93627E-1,-9.30908E-1
0.20690E-1,-9.05975E-1
-0.40832E-1,-9.05120E-1
-1.09283E-1,-9.01092E-1
-1.85333E-1,-9.08721E-1
-2.87963E-1,-8.84307E-1
-3.55041E-1,-8.25866E-1
-3.95690E-1,-7.93884E-1
-4.53460E-1,-7.66693E-1
-5.1474E-1,-7.41607E-1
END
BEGIN
-6.93145E-1,0.61889E-1
-6.83044E-1,1.39312E-1
-6.62170E-1,2.22168E-1
-6.37451E-1,2.98339E-1
-5.92865E-1,3.77349E-1
-5.39123E-1,4.41223E-1
-4.82360E-1,5.01922E-1
-4.25628E-1,5.56640E-1
-3.54492E-1,6.06170E-1
-2.78289E-1,6.38946E-1
-2.04101E-1,6.65039E-1
-1.23779E-1,6.77551E-1
-0.46386E-1,6.88201E-1
0.47393E-1,6.84692E-1
1.25061E-1,6.66015E-1
2.04040E-1,6.42944E-1
2.77130E-1,6.04003E-1
3.45153E-1,5.62347E-1
4.13482E-1,5.06408E-1
4.54757E-1,4.35379E-1
4.89410E-1,3.65432E-1
5.09338E-1,2.90313E-1
5.17852E-1,2.19543E-1
5.1297E-1,1.49414E-1
4.98718E-1,0.94253E-1
4.91714E-1,0.50491E-1
4.82681E-1,0.09948E-1
4.81658E-1,-0.26763E-1
4.75769E-1,-0.72601E-1
4.76303E-1,-1.13327E-1
4.70123E-1,-1.66244E-1
4.52163E-1,-2.13638E-1
4.37194E-1,-2.53082E-1
4.12658E-1,-2.96005E-1
3.91204E-1,-3.34350E-1
3.43063E-1,-3.77212E-1
3.02246E-1,-4.03060E-1
2.67684E-1,-4.36462E-1
2.17117E-1,-4.77233E-1
1.59881E-1,-4.89990E-1
1.07330E-1,-5.02685E-1
0.56213E-1,-5.09582E-1
-0.00610E-1,-5.10559E-1
-0.56091E-1,-5.14007E-1
-1.19613E-1,-4.97589E-1
-1.64703E-1,-4.90005E-1
-2.14218E-1,-4.67041E-1
-2.61993E-1,-4.40124E-1
-3.07876E-1,-4.10247E-1
-3.64639E-1,-3.70452E-1
-3.89617E-1,-3.19427E-1
-4.23400E-1,-2.87246E-1
-4.55078E-1,-2.44369E-1
-4.75967E-1,-1.99218E-1
-4.95254E-1,-1.56143E-1
-5.04638E-1,-1.06048E-1
-5.19104E-1,-0.59539E-1
-5.19897E-1,-0.02136E-1
-5.14556E-1,0.55572E-1
-5.01159E-1,1.08215E-1
-4.92126E-1,1.69601E-1
-4.64126E-1,2.17926E-1
-4.42001E-1,2.63137E-1
-4.14184E-1,3.16253E-1
-3.67370E-1,3.62838E-1
-3.24996E-1,3.89587E-1
-2.91931E-1,4.12796E-1
-2.58346E-1,4.48074E-1
-2.09152E-1,4.66629E-1
-1.54205E-1,4.75769E-1
-1.04156E-1,4.77233E-1
-0.37200E-1,4.89166E-1
0.22216E-1,4.79812E-1
0.68374E-1,4.74334E-1
1.24694E-1,4.69619E-1
1.78024E-1,4.49508E-1
2.26455E-1,4.21402E-1
2.60650E-1,3.90701E-1
3.04992E-1,3.66256E-1
3.43505E-1,3.32031E-1
3.75228E-1,2.84393E-1
3.84979E-1,2.43728E-1
4.03732E-1,2.07260E-1
4.22454E-1,1.57897E-1
4.33044E-1,1.11801E-1
4.43985E-1,0.60363E-1
4.44549E-1,0.11428E-1
4.47967E-1,-0.32974E-1
4.39437E-1,-0.69610E-1
4.34738E-1,-1.09741E-1
4.16336E-1,-1.48132E-1
3.92852E-1,-1.86233E-1
3.68835E-1,-2.14889E-1
3.44635E-1,-2.52822E-1
3.17657E-1,-2.88116E-1
2.83279E-1,-3.16757E-1
2.51785E-1,-3.41095E-1
2.15347E-1,-3.65921E-1
1.71356E-1,-3.86337E-1
1.45721E-1,-3.97049E-1
1.15310E-1,-4.20501E-1
0.86929E-1,-4.35592E-1
0.51254E-1,-4.46838E-1
0.23147E-1,-4.43191E-1
-0.01220E-1,-4.45861E-1
-0.41107E-1,-4.49966E-1
-0.81390E-1,-4.41101E-1
-1.17935E-1,-4.31503E-1
-1.53656E-1,-4.20196E-1
-1.87439E-1,-4.12612E-1
-2.21847E-1,-4.0271E-1
-2.52792E-1,-3.84231E-1
-2.77832E-1,-3.69094E-1
-3.13003E-1,-3.49548E-1
-3.40560E-1,-3.25195E-1
-3.67507E-1,-3.03588E-1
-3.92807E-1,-2.79602E-1
-4.12246E-1,-2.50274E-1
-4.29702E-1,-2.17178E-1
-4.44046E-1,-1.81869E-1
-4.63638E-1,-1.40457E-1
-4.78912E-1,-0.99563E-1
-4.92248E-1,-0.625E-1
-5.03997E-1,-0.30029E-1
-5.10620E-1,0.07995E-1
-5.12420E-1,0.48492E-1
-5.04089E-1,0.88348E-1
-4.98016E-1,1.20681E-1
-4.95346E-1,1.56936E-1
-4.79248E-1,1.98837E-1
-4.63638E-1,2.29156E-1
-4.40856E-1,2.69271E-1
-4.16214E-1,3.01330E-1
-3.95523E-1,3.35037E-1
-3.69003E-1,3.71780E-1
-3.38592E-1,3.97827E-1
-3.08715E-1,4.26620E-1
-2.72369E-1,4.45602E-1
-2.46337E-1,4.59152E-1
-2.15560E-1,4.78195E-1
-1.73522E-1,4.86053E-1
-1.39404E-1,4.87930E-1
-0.97045E-1,4.90264E-1
-0.58776E-1,4.89746E-1
-0.15167E-1,4.92569E-1
0.27954E-1,4.88067E-1
0.67199E-1,4.78454E-1
1.12381E-1,4.62326E-1
1.52954E-1,4.33898E-1
1.84921E-1,4.11499E-1
2.16095E-1,4.00970E-1
2.51205E-1,3.77838E-1
2.70385E-1,3.53698E-1
2.87475E-1,3.21441E-1
2.98080E-1,2.85614E-1
3.11218E-1,2.48962E-1
3.33908E-1,2.08908E-1
3.44635E-1,1.68365E-1
3.52386E-1,1.35131E-1
3.50677E-1,1.01242E-1
3.44421E-1,0.75241E-1
3.49319E-1,0.46325E-1
3.43978E-1,0.11016E-1
3.36303E-1,-0.10406E-1
3.27117E-1,-0.31997E-1
3.10714E-1,-0.47332E-1
2.93029E-1,-0.60257E-1
2.7211E-1,-0.77529E-1
2.48855E-1,-0.90164E-1
2.28591E-1,-1.04637E-1
2.01683E-1,-1.18476E-1
1.79451E-1,-1.25541E-1
1.63894E-1,-1.37329E-1
1.47605E-1,-1.49246E-1
1.34368E-1,-1.59935E-1
1.13182E-1,-1.64344E-1
0.99372E-1,-1.55448E-1
0.90629E-1,-1.52549E-1
0.76683E-1,-1.53900E-1
0.61851E-1,-1.55555E-1
0.42778E-1,-1.52610E-1
0.32173E-1,-1.38923E-1
0.28053E-1,-1.32400E-1
0.17356E-1,-1.26495E-1
0.7061E-2,-1.23054E-1
-0.90751E-2,-1.23119E-1
-2.33764E-2,-1.16111E-1
-2.13470E-2,-1.15875E-1
-2.19078E-2,-1.18892E-1
-1.71814E-2,-1.17702E-1
-1.71051E-2,-1.18484E-1
-2.47840E-2,-1.07479E-1
-1.75437E-2,-9.40856E-2
-1.61743E-2,-9.83772E-2
-1.76734E-2,-1.00662E-1
-2.25219E-2,-1.07860E-1
-3.55033E-2,-1.01036E-1
-3.87229E-2,-8.54492E-2
-3.82461E-2,-8.78257E-2
-4.81643E-2,-9.09767E-2
-5.63926E-2,-9.92431E-2
END
