CITIFILE A.01.01
#NA VERSION HP8510C.08.10
NAME DATA
#NA REGISTER 4
VAR FREQ MAG 201
DATA S[1,1] RI
DATA S[2,1] RI
DATA S[1,2] RI
DATA S[2,2] RI
SEG_LIST_BEGIN
SEG 8000000000 12000000000 201
SEG_LIST_END
COMMENT       YEAR MONTH DAY HOUR MINUTE SECONDS
CONSTANT TIME 2013   12   09  21    09    56.0
BEGIN
-6.56555E-1,-1.93206E-1
-6.73309E-1,-1.24755E-1
-6.84600E-1,-0.45196E-1
-6.88934E-1,0.25878E-1
-6.84387E-1,1.04217E-1
-6.67053E-1,1.73980E-1
-6.45996E-1,2.43164E-1
-6.21673E-1,3.06945E-1
-5.83618E-1,3.81164E-1
-5.37475E-1,4.40460E-1
-4.86877E-1,4.95803E-1
-4.26086E-1,5.40527E-1
-3.67034E-1,5.80413E-1
-2.90191E-1,6.17797E-1
-2.22717E-1,6.34094E-1
-1.55883E-1,6.48803E-1
-0.86212E-1,6.50482E-1
-0.24139E-1,6.51367E-1
0.50415E-1,6.50970E-1
1.19262E-1,6.24755E-1
1.82769E-1,6.02417E-1
2.40234E-1,5.63415E-1
2.83386E-1,5.23345E-1
3.18389E-1,4.78515E-1
3.39950E-1,4.35836E-1
3.63952E-1,4.07745E-1
3.87756E-1,3.75289E-1
4.1185E-1,3.48693E-1
4.37591E-1,3.14682E-1
4.63989E-1,2.87780E-1
4.95605E-1,2.45208E-1
5.15930E-1,1.93878E-1
5.3302E-1,1.48254E-1
5.44036E-1,0.93933E-1
5.15655E-1,0.19195E-1
5.49346E-1,-0.15350E-1
5.39917E-1,-0.59875E-1
5.36773E-1,-1.05682E-1
5.30517E-1,-1.65588E-1
4.98382E-1,-2.12875E-1
4.75952E-1,-2.56103E-1
4.54330E-1,-2.98202E-1
4.20059E-1,-3.38958E-1
3.87496E-1,-3.80783E-1
3.35052E-1,-4.13024E-1
3.04077E-1,-4.35882E-1
2.59811E-1,-4.57565E-1
2.18093E-1,-4.76272E-1
1.80145E-1,-4.94094E-1
1.23809E-1,-5.18676E-1
0.78216E-1,-5.08514E-1
0.42297E-1,-5.21026E-1
-0.07782E-1,-5.26031E-1
-0.54168E-1,-5.19836E-1
-1.02142E-1,-5.13885E-1
-1.47918E-1,-4.97757E-1
-1.89331E-1,-4.92858E-1
-2.34375E-1,-4.69497E-1
-2.68737E-1,-4.44793E-1
-3.00567E-1,-4.22134E-1
-3.47137E-1,-3.97003E-1
-3.75381E-1,-3.63815E-1
-4.07226E-1,-3.36227E-1
-4.38079E-1,-3.02902E-1
-4.61273E-1,-2.62359E-1
-4.79568E-1,-2.21908E-1
-4.97116E-1,-1.80435E-1
-5.26214E-1,-1.39465E-1
-5.30975E-1,-0.90667E-1
-5.33935E-1,-0.50140E-1
-5.34454E-1,-0.112E-1
-5.39123E-1,0.42358E-1
-5.32867E-1,0.91705E-1
-5.22369E-1,1.31042E-1
-5.16265E-1,1.69494E-1
-5.03051E-1,2.15240E-1
-4.80545E-1,2.60971E-1
-4.57702E-1,3.03436E-1
-4.32907E-1,3.57193E-1
-3.97079E-1,3.95553E-1
-3.56613E-1,4.31274E-1
-3.09875E-1,4.49386E-1
-2.68829E-1,4.78714E-1
-2.10571E-1,5.08636E-1
-1.65161E-1,5.20935E-1
-1.19567E-1,5.34881E-1
-0.66986E-1,5.34301E-1
-0.17242E-1,5.36041E-1
0.42144E-1,5.34393E-1
1.04797E-1,5.27099E-1
1.56951E-1,5.13732E-1
2.07107E-1,4.88571E-1
2.41241E-1,4.54772E-1
2.89703E-1,4.22378E-1
3.34152E-1,3.78799E-1
3.67828E-1,3.33740E-1
3.93631E-1,2.97500E-1
4.17999E-1,2.58163E-1
4.42428E-1,2.02056E-1
4.53064E-1,1.46316E-1
4.68902E-1,0.89157E-1
4.76974E-1,0.33218E-1
4.76455E-1,-0.30334E-1
4.54162E-1,-0.84320E-1
4.29702E-1,-1.37191E-1
4.00482E-1,-1.90979E-1
3.68194E-1,-2.37152E-1
3.35937E-1,-2.72491E-1
3.02475E-1,-2.99697E-1
2.62573E-1,-3.31512E-1
2.14111E-1,-3.54904E-1
1.68563E-1,-3.77105E-1
1.31332E-1,-3.94073E-1
0.88653E-1,-4.15161E-1
0.38650E-1,-4.17953E-1
-0.13565E-1,-4.11590E-1
-0.63613E-1,-4.01428E-1
-1.08383E-1,-3.92196E-1
-1.42242E-1,-3.86611E-1
-1.72409E-1,-3.80752E-1
-2.14523E-1,-3.62289E-1
-2.51434E-1,-3.30047E-1
-2.88024E-1,-3.00659E-1
-3.18954E-1,-2.83065E-1
-3.55163E-1,-2.63504E-1
-3.82690E-1,-2.29324E-1
-3.99261E-1,-1.83364E-1
-4.11285E-1,-1.35803E-1
-4.28131E-1,-0.98739E-1
-4.46731E-1,-0.63781E-1
-4.54513E-1,-0.33859E-1
-4.53079E-1,0.05172E-1
-4.43512E-1,0.46325E-1
-4.37774E-1,0.91812E-1
-4.39209E-1,1.32782E-1
-4.36370E-1,1.68380E-1
-4.22302E-1,2.00653E-1
-3.94088E-1,2.30636E-1
-3.69476E-1,2.62451E-1
-3.46038E-1,3.03085E-1
-3.22891E-1,3.34350E-1
-3.01559E-1,3.53225E-1
-2.72811E-1,3.64517E-1
-2.39303E-1,3.81057E-1
-1.91482E-1,4.04556E-1
-1.55792E-1,4.23111E-1
-1.28799E-1,4.40048E-1
-1.00235E-1,4.40719E-1
-0.69671E-1,4.36096E-1
-0.24658E-1,4.33486E-1
0.20416E-1,4.33013E-1
0.65490E-1,4.34997E-1
0.96435E-1,4.26116E-1
1.15478E-1,4.05639E-1
1.45187E-1,3.79882E-1
1.79840E-1,3.47854E-1
2.16644E-1,3.22128E-1
2.40432E-1,2.97119E-1
2.46627E-1,2.75009E-1
2.53097E-1,2.51007E-1
2.63412E-1,2.11700E-1
2.83660E-1,1.68869E-1
2.94357E-1,1.24832E-1
2.91320E-1,0.91812E-1
2.74627E-1,0.66589E-1
2.53646E-1,0.38497E-1
2.26913E-1,0.05378E-1
2.04498E-1,-0.20416E-1
1.87606E-1,-0.34339E-1
1.69990E-1,-0.33149E-1
1.52191E-1,-0.27236E-1
1.29539E-1,-0.31066E-1
1.08821E-1,-3.86238E-2
9.66987E-2,-4.98123E-2
8.54606E-2,-5.31349E-2
7.73925E-2,-3.97453E-2
6.76498E-2,-2.68783E-2
4.85248E-2,-1.23863E-2
4.08058E-2,-0.62561E-2
3.88774E-2,-1.14707E-2
4.41741E-2,-0.77705E-2
5.69648E-2,0.15316E-2
5.60836E-2,1.58157E-2
5.86338E-2,3.17401E-2
5.78804E-2,2.58407E-2
5.83858E-2,1.79157E-2
7.25708E-2,1.12915E-2
8.89396E-2,0.83503E-2
1.02947E-1,1.92146E-2
1.10977E-1,1.86386E-2
1.0812E-1,0.86784E-2
1.16706E-1,-1.16004E-2
1.34948E-1,-0.42282E-1
1.46118E-1,-0.63369E-1
1.55693E-1,-0.76576E-1
1.42768E-1,-0.92636E-1
1.20464E-1,-1.14639E-1
0.98999E-1,-1.47254E-1
0.81306E-1,-1.75613E-1
0.81657E-1,-1.87629E-1
0.72593E-1,-2.00103E-1
END
BEGIN
-6.62841E-1,3.26141E-1
-5.76110E-1,3.35784E-1
-5.94696E-1,3.88885E-1
-5.10894E-1,4.88678E-1
-4.48181E-1,5.06408E-1
-3.66668E-1,5.67810E-1
-2.74871E-1,5.23010E-1
-3.01635E-1,5.04425E-1
-2.75909E-1,5.80566E-1
-2.21283E-1,6.00891E-1
-1.64398E-1,6.55853E-1
-0.63446E-1,6.27655E-1
-0.83862E-1,6.11053E-1
-0.30609E-1,7.09686E-1
0.89660E-1,6.94824E-1
1.42486E-1,6.95587E-1
2.57629E-1,6.61590E-1
2.65167E-1,5.89660E-1
2.89520E-1,6.35681E-1
4.0802E-1,6.09802E-1
4.54772E-1,5.65979E-1
5.55572E-1,5.15258E-1
5.65124E-1,3.99292E-1
5.62530E-1,3.96148E-1
6.41754E-1,3.43231E-1
6.45599E-1,2.68981E-1
6.97662E-1,2.26379E-1
6.99005E-1,1.00311E-1
6.35376E-1,0.78216E-1
6.76147E-1,0.76355E-1
6.92596E-1,0.11047E-1
7.22991E-1,-0.15777E-1
7.64129E-1,-1.32934E-1
6.95434E-1,-1.96472E-1
7.30438E-1,-2.05017E-1
7.70904E-1,-3.35083E-1
7.40661E-1,-4.43115E-1
6.89483E-1,-6.06201E-1
4.92950E-1,-6.58538E-1
4.50683E-1,-6.02417E-1
4.31732E-1,-6.77795E-1
3.35723E-1,-6.98883E-1
3.05847E-1,-7.32727E-1
1.80267E-1,-7.73742E-1
1.33514E-1,-7.08190E-1
1.34857E-1,-7.65289E-1
0.14160E-1,-8.03192E-1
-0.38604E-1,-7.93487E-1
-1.70166E-1,-8.33465E-1
-2.81707E-1,-7.06420E-1
-2.57843E-1,-6.61438E-1
-3.08593E-1,-6.63513E-1
-3.33557E-1,-6.27777E-1
-3.84155E-1,-6.59179E-1
-4.90264E-1,-6.00311E-1
-4.94873E-1,-5.47241E-1
-5.54443E-1,-5.48431E-1
-6.11846E-1,-4.93469E-1
-6.81213E-1,-4.83306E-1
-8.05969E-1,-3.55896E-1
-7.5354E-1,-2.13317E-1
-7.41455E-1,-1.91406E-1
-7.42248E-1,-1.17767E-1
-7.23663E-1,-1.15631E-1
-8.15307E-1,-0.74890E-1
-8.07312E-1,0.59143E-1
-7.80731E-1,0.84564E-1
-8.26049E-1,1.58874E-1
-8.04687E-1,2.49420E-1
-8.26934E-1,3.44238E-1
-7.40295E-1,5.05920E-1
-6.18988E-1,5.15319E-1
-5.89599E-1,5.51513E-1
-4.99786E-1,5.77514E-1
-4.87487E-1,5.61828E-1
-4.67926E-1,6.32171E-1
-4.02587E-1,6.51245E-1
-3.97155E-1,6.89117E-1
-3.23333E-1,7.59491E-1
-2.72583E-1,7.63366E-1
-2.37731E-1,8.49151E-1
-0.97381E-1,8.98010E-1
-0.02227E-1,8.86962E-1
1.20391E-1,8.77777E-1
1.81610E-1,7.88787E-1
1.87622E-1,8.04229E-1
3.03772E-1,8.08715E-1
3.52478E-1,7.35687E-1
3.98864E-1,7.43347E-1
4.85778E-1,6.89239E-1
5.04058E-1,6.65802E-1
6.16485E-1,6.68914E-1
7.11395E-1,5.45196E-1
7.17773E-1,4.66613E-1
7.62634E-1,3.88671E-1
7.45300E-1,3.07220E-1
7.63977E-1,2.8302E-1
7.93792E-1,2.01629E-1
7.72491E-1,1.62139E-1
8.19885E-1,1.31561E-1
8.40637E-1,0.38726E-1
8.41857E-1,-0.07965E-1
8.86962E-1,-0.91674E-1
8.67218E-1,-1.96655E-1
8.65325E-1,-2.68981E-1
8.39752E-1,-4.03808E-1
7.3703E-1,-4.72106E-1
6.97174E-1,-5.04791E-1
6.44744E-1,-5.70922E-1
5.87554E-1,-6.01470E-1
5.43121E-1,-6.58721E-1
4.56573E-1,-6.87957E-1
4.23553E-1,-6.90521E-1
3.87542E-1,-7.46673E-1
3.14941E-1,-7.85430E-1
2.54852E-1,-8.23089E-1
1.53564E-1,-8.52569E-1
0.72937E-1,-8.33557E-1
0.09643E-1,-8.39599E-1
-0.75805E-1,-8.18420E-1
-1.15478E-1,-7.93335E-1
-1.75994E-1,-7.99957E-1
-2.45697E-1,-7.65197E-1
-2.85553E-1,-7.44903E-1
-3.46099E-1,-7.23724E-1
-3.86077E-1,-6.90002E-1
-4.35913E-1,-6.89331E-1
-5.15869E-1,-6.61438E-1
-5.79620E-1,-6.12976E-1
-6.42547E-1,-5.51940E-1
-6.64794E-1,-4.74609E-1
-6.87286E-1,-4.45495E-1
-7.45391E-1,-3.91876E-1
-7.70019E-1,-3.21533E-1
-8.01178E-1,-2.66204E-1
-8.15490E-1,-1.85791E-1
-8.11065E-1,-1.43554E-1
-8.55529E-1,-0.93505E-1
-8.75824E-1,0.02197E-1
-8.73138E-1,0.76660E-1
-8.73016E-1,1.66442E-1
-8.32611E-1,2.40173E-1
-8.22021E-1,2.97485E-1
-7.91412E-1,3.87725E-1
-7.40020E-1,4.39483E-1
-7.12707E-1,5.03051E-1
-6.45355E-1,5.60302E-1
-6.10229E-1,5.78399E-1
-5.86456E-1,6.36749E-1
-5.34088E-1,6.88629E-1
-4.95147E-1,7.45849E-1
-4.10491E-1,8.13171E-1
-3.2547E-1,8.25927E-1
-2.72735E-1,8.50555E-1
-1.97631E-1,8.74969E-1
-1.31774E-1,8.93859E-1
-0.38024E-1,9.15130E-1
0.44647E-1,8.91418E-1
0.94451E-1,8.87939E-1
1.73858E-1,8.96148E-1
2.45391E-1,8.82202E-1
3.30627E-1,8.80310E-1
4.27429E-1,8.37677E-1
4.90966E-1,7.89642E-1
5.62469E-1,7.50396E-1
6.25579E-1,6.92321E-1
6.78924E-1,6.40228E-1
7.38525E-1,5.75592E-1
7.78503E-1,5.06530E-1
8.14331E-1,4.44732E-1
8.49884E-1,3.75824E-1
8.78204E-1,3.08990E-1
9.10003E-1,2.36999E-1
9.30694E-1,1.5271E-1
9.39605E-1,0.71380E-1
9.44915E-1,-0.11230E-1
9.40399E-1,-0.95764E-1
9.25415E-1,-1.76116E-1
9.06127E-1,-2.52288E-1
8.82263E-1,-3.29803E-1
8.51745E-1,-4.00360E-1
8.24066E-1,-4.78271E-1
7.70507E-1,-5.55419E-1
7.15423E-1,-6.12701E-1
6.64764E-1,-6.71112E-1
6.02447E-1,-7.26104E-1
5.43335E-1,-7.72796E-1
4.70916E-1,-8.26324E-1
3.90014E-1,-8.53179E-1
3.26446E-1,-8.76831E-1
2.47955E-1,-9.10400E-1
1.72393E-1,-9.24011E-1
0.91796E-1,-9.53643E-1
-0.15228E-1,-9.48669E-1
-0.91735E-1,-9.27795E-1
-1.67602E-1,-9.16656E-1
-2.41180E-1,-8.89373E-1
-3.06549E-1,-8.72711E-1
-3.92944E-1,-8.41339E-1
-4.55108E-1,-7.92114E-1
-5.13397E-1,-7.56866E-1
END
BEGIN
-6.21551E-1,2.73101E-1
-6.22833E-1,3.50463E-1
-5.09613E-1,4.17968E-1
-4.98840E-1,3.72924E-1
-5.43914E-1,4.85931E-1
-4.27002E-1,5.65521E-1
-3.90625E-1,5.94696E-1
-2.76153E-1,6.62506E-1
-2.11059E-1,6.00006E-1
-2.42950E-1,6.55914E-1
-1.15325E-1,7.37426E-1
-0.28106E-1,7.08221E-1
0.70098E-1,7.09198E-1
1.32019E-1,6.21521E-1
1.07299E-1,6.28662E-1
2.10907E-1,6.76361E-1
2.87078E-1,6.16882E-1
3.57727E-1,6.00250E-1
4.23065E-1,4.83169E-1
3.61572E-1,4.39621E-1
4.00955E-1,4.84512E-1
4.69421E-1,4.27948E-1
4.88159E-1,4.10171E-1
5.61431E-1,3.54370E-1
5.38848E-1,2.86438E-1
5.56152E-1,3.15185E-1
6.45599E-1,2.71301E-1
6.74469E-1,2.05535E-1
7.42828E-1,1.29882E-1
7.15057E-1,-0.07110E-1
6.66168E-1,-0.12847E-1
7.19207E-1,-0.45440E-1
7.31750E-1,-1.20910E-1
7.76489E-1,-2.05841E-1
8.27117E-1,1.36169E-1
5.81756E-1,-3.68225E-1
6.11022E-1,-3.61908E-1
6.13616E-1,-4.47204E-1
6.11694E-1,-5.23193E-1
5.29083E-1,-6.87103E-1
3.40393E-1,-6.65832E-1
3.41766E-1,-5.98266E-1
3.44299E-1,-6.53900E-1
3.18023E-1,-7.02026E-1
2.59185E-1,-8.37554E-1
0.35980E-1,-8.50769E-1
-0.00457E-1,-7.36724E-1
-0.01892E-1,-7.66937E-1
-0.63934E-1,-7.79205E-1
-1.12670E-1,-8.45703E-1
-3.31909E-1,-8.61633E-1
-4.12689E-1,-6.83624E-1
-3.82476E-1,-6.52343E-1
-4.30847E-1,-6.38702E-1
-4.47814E-1,-6.44134E-1
-5.97351E-1,-6.7453E-1
-7.14050E-1,-4.85900E-1
-6.53747E-1,-3.98407E-1
-6.77581E-1,-3.76831E-1
-6.81213E-1,-3.40728E-1
-7.68158E-1,-3.61053E-1
-8.95263E-1,-1.89636E-1
-8.00048E-1,-0.45532E-1
-7.67089E-1,-0.27862E-1
-7.49664E-1,0.17303E-1
-7.73437E-1,0.00824E-1
-8.99108E-1,1.10382E-1
-8.17688E-1,3.04962E-1
-7.32177E-1,3.14392E-1
-7.16796E-1,3.58551E-1
-6.91528E-1,3.78631E-1
-7.53631E-1,4.58740E-1
-6.67999E-1,6.53320E-1
-5.12054E-1,6.60461E-1
-4.69787E-1,6.62628E-1
-4.09606E-1,6.78161E-1
-4.08447E-1,6.96167E-1
-3.50708E-1,8.13018E-1
-1.93603E-1,8.25500E-1
-1.29028E-1,7.89703E-1
-0.73059E-1,7.74017E-1
-0.64361E-1,7.72369E-1
-0.08300E-1,8.53515E-1
1.44866E-1,8.41583E-1
1.96777E-1,7.81524E-1
2.65319E-1,7.57720E-1
2.92846E-1,6.94427E-1
2.97821E-1,7.23938E-1
4.15557E-1,7.5354E-1
5.07904E-1,6.76361E-1
5.57617E-1,6.26739E-1
5.95459E-1,5.50293E-1
5.94665E-1,5.32104E-1
6.82739E-1,5.33172E-1
7.78900E-1,4.38537E-1
8.15887E-1,3.39752E-1
8.20983E-1,2.26593E-1
7.71820E-1,1.88293E-1
8.24829E-1,1.88446E-1
8.97979E-1,0.76477E-1
8.81500E-1,-0.41809E-1
8.62243E-1,-1.4151E-1
7.90832E-1,-2.02484E-1
7.98278E-1,-2.02575E-1
8.35388E-1,-3.01483E-1
7.81921E-1,-4.00695E-1
7.46917E-1,-4.75311E-1
6.52557E-1,-5.60516E-1
5.86853E-1,-5.45410E-1
6.03942E-1,-5.91552E-1
5.49499E-1,-6.89056E-1
4.68505E-1,-7.44812E-1
3.54858E-1,-7.87994E-1
2.65167E-1,-7.37823E-1
2.70538E-1,-7.37945E-1
2.21405E-1,-8.05725E-1
1.31866E-1,-8.37921E-1
0.27221E-1,-8.53241E-1
-0.71197E-1,-7.90863E-1
-0.72113E-1,-7.47650E-1
-0.96374E-1,-7.82531E-1
-1.76147E-1,-8.02825E-1
-2.73986E-1,-7.99743E-1
-3.79425E-1,-7.29522E-1
-3.85620E-1,-6.49383E-1
-3.96240E-1,-6.54235E-1
-4.57153E-1,-6.51367E-1
-5.34332E-1,-6.31469E-1
-6.26403E-1,-5.56243E-1
-6.26556E-1,-4.46563E-1
-6.09710E-1,-4.29657E-1
-6.55334E-1,-4.24194E-1
-7.17529E-1,-3.86932E-1
-7.83538E-1,-3.11004E-1
-7.84973E-1,-2.07305E-1
-7.64190E-1,-1.66076E-1
-7.87841E-1,-1.31378E-1
-8.13537E-1,-0.75103E-1
-8.48968E-1,-0.07598E-1
-8.55529E-1,0.99090E-1
-8.14178E-1,1.64184E-1
-8.05023E-1,2.05566E-1
-8.00750E-1,2.65106E-1
-8.02307E-1,3.33038E-1
-7.83386E-1,4.35211E-1
-7.22106E-1,5.06988E-1
-6.86676E-1,5.52642E-1
-6.51702E-1,6.11755E-1
-6.15112E-1,6.69616E-1
-5.61706E-1,7.56378E-1
-4.53277E-1,8.11828E-1
-3.79364E-1,8.18084E-1
-3.31024E-1,8.51470E-1
-2.67913E-1,8.89282E-1
-1.89178E-1,9.36981E-1
-0.71685E-1,9.54589E-1
0.19409E-1,9.27185E-1
0.86761E-1,9.19708E-1
1.63543E-1,9.14581E-1
2.42706E-1,9.09027E-1
3.40728E-1,8.87725E-1
4.15710E-1,8.29925E-1
4.69604E-1,7.90161E-1
5.28442E-1,7.51800E-1
5.89416E-1,7.16827E-1
6.64001E-1,6.69250E-1
7.20550E-1,5.96008E-1
7.59735E-1,5.32104E-1
7.99346E-1,4.66064E-1
8.31573E-1,4.03778E-1
8.70239E-1,3.36242E-1
9.01886E-1,2.56835E-1
9.16564E-1,1.75903E-1
9.27093E-1,0.96344E-1
9.30328E-1,0.16937E-1
9.26513E-1,-0.61584E-1
9.21630E-1,-1.36077E-1
9.11407E-1,-2.17315E-1
8.90350E-1,-2.98248E-1
8.57849E-1,-3.75427E-1
8.12774E-1,-4.46868E-1
7.72308E-1,-4.98992E-1
7.44995E-1,-5.65185E-1
6.96350E-1,-6.37146E-1
6.41143E-1,-7.04956E-1
5.63659E-1,-7.67211E-1
4.78057E-1,-7.93243E-1
4.25811E-1,-8.19610E-1
3.56658E-1,-8.61572E-1
2.86743E-1,-8.92730E-1
2.02789E-1,-9.32495E-1
0.95642E-1,-9.36554E-1
0.22796E-1,-9.12780E-1
-0.41503E-1,-9.14001E-1
-1.13067E-1,-9.09118E-1
-1.91131E-1,-9.16412E-1
-2.92144E-1,-8.91143E-1
-3.59375E-1,-8.34045E-1
-4.05456E-1,-8.04229E-1
-4.66552E-1,-7.71484E-1
-5.30181E-1,-7.40966E-1
END
BEGIN
-6.76178E-1,1.89880E-1
-6.51672E-1,2.67364E-1
-6.14288E-1,3.46618E-1
-5.73761E-1,4.18182E-1
-5.11291E-1,4.89563E-1
-4.42718E-1,5.44647E-1
-3.71368E-1,5.95184E-1
-3.01055E-1,6.37603E-1
-2.18078E-1,6.69891E-1
-1.32476E-1,6.83593E-1
-0.50048E-1,6.87957E-1
0.33599E-1,6.76910E-1
1.10351E-1,6.62384E-1
1.92321E-1,6.30920E-1
2.50518E-1,5.93414E-1
3.07891E-1,5.58258E-1
3.61724E-1,5.15930E-1
4.16000E-1,4.75280E-1
4.75296E-1,4.21646E-1
5.09674E-1,3.53790E-1
5.40405E-1,2.86315E-1
5.57586E-1,2.11242E-1
5.65246E-1,1.37390E-1
5.60913E-1,0.61157E-1
5.45196E-1,-0.01678E-1
5.35003E-1,-0.56396E-1
5.16540E-1,-1.07666E-1
5.02594E-1,-1.54510E-1
4.78546E-1,-2.06848E-1
4.62219E-1,-2.53265E-1
4.36157E-1,-3.05557E-1
4.00299E-1,-3.47091E-1
3.71231E-1,-3.79791E-1
3.31665E-1,-4.13681E-1
3.17352E-1,-4.35241E-1
2.33520E-1,-4.74578E-1
1.85470E-1,-4.88754E-1
1.40533E-1,-5.12207E-1
0.78094E-1,-5.35583E-1
0.17669E-1,-5.31219E-1
-0.40252E-1,-5.26062E-1
-0.92376E-1,-5.14495E-1
-1.43646E-1,-4.98764E-1
-1.95312E-1,-4.91806E-1
-2.53097E-1,-4.64691E-1
-2.97988E-1,-4.44885E-1
-3.42941E-1,-4.08157E-1
-3.86505E-1,-3.69445E-1
-4.27291E-1,-3.26873E-1
-4.74304E-1,-2.73071E-1
-4.87319E-1,-2.16033E-1
-5.12725E-1,-1.74865E-1
-5.35095E-1,-1.22924E-1
-5.48034E-1,-0.67291E-1
-5.54046E-1,-0.12939E-1
-5.46844E-1,0.42877E-1
-5.45440E-1,0.94360E-1
-5.29205E-1,1.54083E-1
-5.06897E-1,2.14141E-1
-4.78485E-1,2.66174E-1
-4.50546E-1,3.27087E-1
-4.07562E-1,3.67446E-1
-3.72360E-1,4.06509E-1
-3.27056E-1,4.53338E-1
-2.65487E-1,4.86557E-1
-2.20092E-1,5.06683E-1
-1.70318E-1,5.24993E-1
-1.21154E-1,5.46447E-1
-0.60821E-1,5.48767E-1
0.03814E-1,5.40832E-1
0.60913E-1,5.28137E-1
1.37542E-1,5.17639E-1
1.94717E-1,4.88845E-1
2.40585E-1,4.69223E-1
2.97866E-1,4.42932E-1
3.47305E-1,4.03411E-1
3.90777E-1,3.54736E-1
4.14871E-1,3.09509E-1
4.49432E-1,2.70126E-1
4.76928E-1,2.21527E-1
4.93072E-1,1.61224E-1
4.91012E-1,1.10199E-1
4.96810E-1,0.61218E-1
4.99847E-1,0.04364E-1
4.96093E-1,-0.48416E-1
4.87884E-1,-1.05484E-1
4.70733E-1,-1.56372E-1
4.53659E-1,-2.04696E-1
4.28115E-1,-2.36709E-1
4.08126E-1,-2.74429E-1
3.74496E-1,-3.07617E-1
3.36288E-1,-3.39569E-1
2.98431E-1,-3.63342E-1
2.57293E-1,-3.92746E-1
2.17315E-1,-4.18029E-1
1.72027E-1,-4.33334E-1
1.33743E-1,-4.46334E-1
0.86822E-1,-4.59304E-1
0.35385E-1,-4.63165E-1
0.06088E-1,-4.62249E-1
-0.29022E-1,-4.74929E-1
-0.60394E-1,-4.77050E-1
-0.99380E-1,-4.74121E-1
-1.27639E-1,-4.54788E-1
-1.52969E-1,-4.44381E-1
-1.95098E-1,-4.33837E-1
-2.33596E-1,-4.11209E-1
-2.66876E-1,-3.88580E-1
-2.96569E-1,-3.63418E-1
-3.22647E-1,-3.41613E-1
-3.49578E-1,-3.1987E-1
-3.72940E-1,-2.89230E-1
-3.89938E-1,-2.63198E-1
-4.14306E-1,-2.33200E-1
-4.29260E-1,-2.01293E-1
-4.43435E-1,-1.72882E-1
-4.56329E-1,-1.41403E-1
-4.62417E-1,-1.05392E-1
-4.66339E-1,-0.68054E-1
-4.68048E-1,-0.32272E-1
-4.73999E-1,0.10574E-1
-4.75997E-1,0.50537E-1
-4.75662E-1,0.87371E-1
-4.73648E-1,1.18988E-1
-4.68215E-1,1.53747E-1
-4.56909E-1,1.89468E-1
-4.36416E-1,2.22595E-1
-4.18899E-1,2.49542E-1
-4.01382E-1,2.79800E-1
-3.73596E-1,3.11080E-1
-3.50463E-1,3.33892E-1
-3.16848E-1,3.63372E-1
-2.85278E-1,3.83712E-1
-2.55813E-1,4.05044E-1
-2.23144E-1,4.26803E-1
-1.89682E-1,4.41650E-1
-1.54174E-1,4.59579E-1
-1.16073E-1,4.64096E-1
-0.88501E-1,4.65164E-1
-0.55648E-1,4.67529E-1
-0.16403E-1,4.60235E-1
0.18661E-1,4.50149E-1
0.60913E-1,4.37118E-1
0.96878E-1,4.21829E-1
1.34979E-1,4.06570E-1
1.67678E-1,3.86032E-1
1.98883E-1,3.62869E-1
2.34726E-1,3.30139E-1
2.60604E-1,2.89077E-1
2.76809E-1,2.55401E-1
2.89764E-1,2.37518E-1
3.08288E-1,2.08862E-1
3.13140E-1,1.78237E-1
3.11981E-1,1.38855E-1
3.03787E-1,0.98510E-1
2.94616E-1,0.64682E-1
2.99026E-1,0.29403E-1
2.92953E-1,-0.06973E-1
2.82486E-1,-0.35766E-1
2.62924E-1,-0.62164E-1
2.41729E-1,-0.76377E-1
2.35054E-1,-0.92956E-1
2.16880E-1,-1.16317E-1
1.97578E-1,-1.24778E-1
1.75209E-1,-1.34208E-1
1.47949E-1,-1.32240E-1
1.24954E-1,-1.28555E-1
0.99014E-1,-1.29791E-1
0.72486E-1,-1.25145E-1
4.90570E-2,-1.24229E-1
1.75094E-2,-1.17626E-1
-0.12283E-2,-1.04892E-1
-1.24740E-2,-1.02272E-1
-2.51274E-2,-9.83276E-2
-3.37638E-2,-9.26094E-2
-4.72679E-2,-7.56187E-2
-4.75292E-2,-4.99401E-2
-4.40464E-2,-3.62148E-2
-4.54006E-2,-2.68802E-2
-4.55417E-2,-2.04620E-2
-5.22670E-2,-1.08737E-2
-5.02433E-2,1.07193E-2
-4.26731E-2,2.47058E-2
-4.02793E-2,3.94916E-2
-3.53069E-2,4.87098E-2
-3.34034E-2,5.44605E-2
-2.54211E-2,6.18953E-2
-0.62904E-2,5.91297E-2
0.97389E-2,5.39951E-2
3.09219E-2,5.14316E-2
4.6175E-2,4.67815E-2
5.66101E-2,5.02395E-2
7.94334E-2,5.17349E-2
9.06982E-2,3.65371E-2
1.00700E-1,2.61344E-2
1.09535E-1,1.03187E-2
1.10340E-1,0.12016E-2
1.16004E-1,-0.20523E-2
1.19545E-1,-2.21977E-2
1.15573E-1,-3.88031E-2
1.12934E-1,-6.42128E-2
END
