CITIFILE A.01.01
#NA VERSION HP8510C.08.10
NAME DATA
#NA REGISTER 4
VAR FREQ MAG 201
DATA S[1,1] RI
DATA S[2,1] RI
DATA S[1,2] RI
DATA S[2,2] RI
SEG_LIST_BEGIN
SEG 8000000000 12000000000 201
SEG_LIST_END
COMMENT       YEAR MONTH DAY HOUR MINUTE SECONDS
CONSTANT TIME 2013   12   09  21    04    57.0
BEGIN
-6.85791E-1,-0.46386E-1
-6.87866E-1,0.25665E-1
-6.80847E-1,1.07299E-1
-6.69860E-1,1.80145E-1
-6.46698E-1,2.56195E-1
-6.14013E-1,3.22479E-1
-5.737E-1,3.87481E-1
-5.31982E-1,4.45373E-1
-4.75036E-1,5.07385E-1
-4.12475E-1,5.51025E-1
-3.50952E-1,5.88684E-1
-2.82562E-1,6.13220E-1
-2.20642E-1,6.35528E-1
-1.43310E-1,6.55639E-1
-0.76507E-1,6.62445E-1
-0.07324E-1,6.66839E-1
0.66009E-1,6.55395E-1
1.32904E-1,6.38671E-1
2.06970E-1,6.18499E-1
2.68463E-1,5.73516E-1
3.24523E-1,5.33477E-1
3.68270E-1,4.81903E-1
3.97979E-1,4.32983E-1
4.19372E-1,3.84079E-1
4.33273E-1,3.41934E-1
4.56466E-1,3.10211E-1
4.77722E-1,2.69317E-1
4.99496E-1,2.30758E-1
5.13519E-1,1.83776E-1
5.31158E-1,1.45935E-1
5.48004E-1,0.92376E-1
5.50567E-1,0.35369E-1
5.53039E-1,-0.16479E-1
5.41992E-1,-0.60272E-1
5.66589E-1,-1.11938E-1
5.14648E-1,-1.82739E-1
4.88998E-1,-2.23907E-1
4.69467E-1,-2.68127E-1
4.40399E-1,-3.23013E-1
3.93646E-1,-3.54538E-1
3.56643E-1,-3.87939E-1
3.21212E-1,-4.16946E-1
2.78030E-1,-4.42916E-1
2.34298E-1,-4.71832E-1
1.75033E-1,-4.84024E-1
1.38107E-1,-4.97512E-1
0.87738E-1,-5.01037E-1
0.41839E-1,-5.04089E-1
-0.00671E-1,-5.04791E-1
-0.58075E-1,-5.06774E-1
-0.94146E-1,-4.82116E-1
-1.31790E-1,-4.80636E-1
-1.79138E-1,-4.67697E-1
-2.19696E-1,-4.46258E-1
-2.60376E-1,-4.23233E-1
-2.95028E-1,-3.93005E-1
-3.30764E-1,-3.72787E-1
-3.61343E-1,-3.35601E-1
-3.83209E-1,-2.97821E-1
-3.99688E-1,-2.66021E-1
-4.30648E-1,-2.30926E-1
-4.44015E-1,-1.92581E-1
-4.60235E-1,-1.58447E-1
-4.74075E-1,-1.18469E-1
-4.76059E-1,-0.75042E-1
-4.81094E-1,-0.40832E-1
-4.87228E-1,0.02319E-1
-4.97360E-1,0.50003E-1
-4.83429E-1,0.94955E-1
-4.67193E-1,1.31897E-1
-4.53353E-1,1.61743E-1
-4.41192E-1,2.10220E-1
-4.16885E-1,2.49450E-1
-3.95233E-1,2.78701E-1
-3.73977E-1,3.10134E-1
-3.44528E-1,3.41049E-1
-3.09127E-1,3.73809E-1
-2.75711E-1,4.0065E-1
-2.38037E-1,4.37622E-1
-1.92642E-1,4.59182E-1
-1.41815E-1,4.71023E-1
-0.96328E-1,4.69772E-1
-0.49758E-1,4.81689E-1
0.11261E-1,4.85199E-1
0.56854E-1,4.77203E-1
1.00982E-1,4.64202E-1
1.39373E-1,4.40506E-1
1.82510E-1,4.23431E-1
2.27676E-1,4.02816E-1
2.77359E-1,3.78189E-1
3.17153E-1,3.46710E-1
3.50372E-1,3.05328E-1
3.70895E-1,2.61703E-1
4.01779E-1,2.09014E-1
4.21279E-1,1.51519E-1
4.29122E-1,0.99594E-1
4.32739E-1,0.57495E-1
4.34753E-1,0.11825E-1
4.27002E-1,-0.48492E-1
4.12216E-1,-0.96191E-1
4.03213E-1,-1.49383E-1
3.87146E-1,-1.97998E-1
3.58657E-1,-2.51632E-1
3.15902E-1,-2.90939E-1
2.71682E-1,-3.27682E-1
2.22000E-1,-3.63769E-1
1.71325E-1,-3.86123E-1
1.28921E-1,-3.97735E-1
0.85678E-1,-4.04220E-1
0.35812E-1,-4.11117E-1
-0.16021E-1,-4.09576E-1
-0.60638E-1,-4.05944E-1
-0.93429E-1,-4.04251E-1
-1.37512E-1,-4.04281E-1
-1.82846E-1,-3.85742E-1
-2.28103E-1,-3.60122E-1
-2.70431E-1,-3.31100E-1
-3.03787E-1,-3.05572E-1
-3.30246E-1,-2.85781E-1
-3.51516E-1,-2.63397E-1
-3.81897E-1,-2.27035E-1
-4.03945E-1,-1.82785E-1
-4.23339E-1,-1.43096E-1
-4.43954E-1,-1.16439E-1
-4.63653E-1,-0.82946E-1
-4.72686E-1,-0.39962E-1
-4.73053E-1,0.11703E-1
-4.66629E-1,0.62973E-1
-4.67544E-1,1.05011E-1
-4.65118E-1,1.43814E-1
-4.54452E-1,1.71905E-1
-4.35394E-1,2.12188E-1
-4.06814E-1,2.50595E-1
-3.84964E-1,2.90222E-1
-3.67797E-1,3.28918E-1
-3.45932E-1,3.55682E-1
-3.16650E-1,3.80127E-1
-2.71835E-1,4.01779E-1
-2.29385E-1,4.20730E-1
-1.90658E-1,4.46868E-1
-1.52954E-1,4.57748E-1
-1.25488E-1,4.58709E-1
-0.89859E-1,4.53567E-1
-0.48675E-1,4.51736E-1
-0.00351E-1,4.57122E-1
0.38726E-1,4.58602E-1
0.63781E-1,4.58831E-1
0.93215E-1,4.47204E-1
1.25915E-1,4.25231E-1
1.69052E-1,4.06021E-1
2.13729E-1,3.90197E-1
2.51724E-1,3.71124E-1
2.75100E-1,3.50494E-1
2.91229E-1,3.15963E-1
3.12866E-1,2.72934E-1
3.37570E-1,2.26516E-1
3.61084E-1,1.84753E-1
3.72222E-1,1.50070E-1
3.68972E-1,1.15524E-1
3.59787E-1,0.77896E-1
3.53347E-1,0.27969E-1
3.54156E-1,-0.23895E-1
3.44604E-1,-0.69839E-1
3.25347E-1,-1.05529E-1
2.90130E-1,-1.32232E-1
2.53067E-1,-1.62338E-1
2.07160E-1,-1.96067E-1
1.66954E-1,-2.18071E-1
1.33277E-1,-2.29354E-1
0.98739E-1,-2.24433E-1
0.62019E-1,-2.14759E-1
0.17807E-1,-2.0784E-1
-0.18348E-1,-2.01507E-1
-0.43296E-1,-1.99760E-1
-0.67825E-1,-1.90673E-1
-0.88516E-1,-1.64245E-1
-1.12541E-1,-1.3591E-1
-1.40441E-1,-1.01051E-1
-1.55410E-1,-0.78819E-1
-1.69128E-1,-0.62675E-1
-1.6716E-1,-0.33058E-1
-1.52008E-1,0.00556E-1
-1.45706E-1,0.36010E-1
-1.34826E-1,0.66017E-1
-1.32705E-1,0.74485E-1
-1.27418E-1,0.83389E-1
-1.07124E-1,9.29298E-2
-8.18367E-2,1.08287E-1
-0.56045E-1,1.30813E-1
-0.40191E-1,1.43562E-1
-0.30693E-1,1.49452E-1
-0.08857E-1,1.42776E-1
0.27671E-1,1.27265E-1
5.94101E-2,1.10183E-1
8.23478E-2,1.00612E-1
8.58840E-2,9.01260E-2
7.80487E-2,7.07016E-2
7.33108E-2,4.67262E-2
7.80372E-2,1.74026E-2
9.21783E-2,0.39596E-2
1.02767E-1,-0.75035E-2
END
BEGIN
-6.84875E-1,3.13415E-1
-5.86242E-1,3.37768E-1
-6.02111E-1,3.78204E-1
-5.29235E-1,4.88067E-1
-4.59777E-1,5.08880E-1
-3.83148E-1,5.76019E-1
-2.75268E-1,5.39581E-1
-2.90435E-1,5.05371E-1
-2.77160E-1,5.69641E-1
-2.28210E-1,5.89843E-1
-1.88201E-1,6.46087E-1
-0.82122E-1,6.42913E-1
-0.85205E-1,6.14105E-1
-0.55664E-1,7.08801E-1
0.75408E-1,7.17071E-1
1.34491E-1,7.10296E-1
2.58606E-1,6.87622E-1
2.80151E-1,5.93963E-1
2.81768E-1,6.25427E-1
3.89038E-1,6.18804E-1
4.34356E-1,5.79528E-1
5.34912E-1,5.56488E-1
5.77697E-1,4.41497E-1
5.74768E-1,4.25140E-1
6.65863E-1,3.83392E-1
6.87469E-1,2.88391E-1
7.36480E-1,2.41546E-1
7.59338E-1,0.96069E-1
6.75018E-1,0.41137E-1
6.89147E-1,0.41442E-1
6.98089E-1,-0.22064E-1
7.09198E-1,-0.41381E-1
7.57873E-1,-1.39282E-1
6.83227E-1,-4.32373E-1
6.27868E-1,-4.80316E-1
7.51647E-1,-3.11309E-1
7.35504E-1,-4.11499E-1
7.22778E-1,-5.67413E-1
5.35461E-1,-6.75476E-1
4.56420E-1,-6.18164E-1
4.48669E-1,-6.78436E-1
3.49029E-1,-7.15271E-1
3.17840E-1,-7.40173E-1
1.95953E-1,-8.00811E-1
1.19964E-1,-7.29156E-1
1.33178E-1,-7.59948E-1
0.26123E-1,-8.13110E-1
-0.31066E-1,-7.98187E-1
-1.41571E-1,-8.58123E-1
-2.92602E-1,-7.54333E-1
-2.81616E-1,-6.78466E-1
-3.24981E-1,-6.76391E-1
-3.53973E-1,-6.29913E-1
-3.85681E-1,-6.54235E-1
-4.94812E-1,-6.13586E-1
-5.07080E-1,-5.45776E-1
-5.49926E-1,-5.47699E-1
-6.09924E-1,-4.98748E-1
-6.61926E-1,-4.93255E-1
-8.04351E-1,-4.08416E-1
-7.94158E-1,-2.40448E-1
-7.71087E-1,-2.00561E-1
-7.77587E-1,-1.19476E-1
-7.41394E-1,-0.99151E-1
-8.17382E-1,-0.80566E-1
-8.32794E-1,0.54016E-1
-7.91351E-1,0.91705E-1
-8.33801E-1,1.46637E-1
-8.23730E-1,2.38311E-1
-8.49914E-1,3.16955E-1
-8.10882E-1,4.91424E-1
-6.77459E-1,5.47027E-1
-6.35986E-1,5.84472E-1
-5.36987E-1,6.35406E-1
-4.94934E-1,6.16668E-1
-4.75555E-1,6.74316E-1
-3.99231E-1,7.01385E-1
-3.83331E-1,7.23388E-1
-3.18481E-1,7.92846E-1
-2.53082E-1,7.95532E-1
-2.26776E-1,8.61755E-1
-1.02294E-1,9.25079E-1
0.01495E-1,9.22241E-1
1.25213E-1,9.28344E-1
2.21893E-1,8.41156E-1
2.30621E-1,8.26263E-1
3.33404E-1,8.37158E-1
4.02557E-1,7.61169E-1
4.42962E-1,7.53845E-1
5.34271E-1,7.03552E-1
5.55297E-1,6.60736E-1
6.46118E-1,6.66229E-1
7.58117E-1,5.61035E-1
7.78320E-1,4.63928E-1
8.26507E-1,3.79455E-1
8.17840E-1,2.74688E-1
8.18054E-1,2.34222E-1
8.45031E-1,1.49383E-1
8.10150E-1,0.87646E-1
8.33801E-1,0.59021E-1
8.46984E-1,-0.28350E-1
8.32763E-1,-0.77758E-1
8.64410E-1,-1.46118E-1
8.47625E-1,-2.45788E-1
8.36059E-1,-3.1073E-1
8.22662E-1,-4.32922E-1
7.22320E-1,-5.20690E-1
6.64947E-1,-5.49926E-1
6.09100E-1,-6.12609E-1
5.40252E-1,-6.40838E-1
4.92889E-1,-6.86737E-1
4.00695E-1,-7.16522E-1
3.55011E-1,-7.01843E-1
3.26293E-1,-7.39013E-1
2.62603E-1,-7.72827E-1
2.07061E-1,-8.02581E-1
1.14593E-1,-8.34869E-1
0.30059E-1,-8.15002E-1
-0.27526E-1,-8.14697E-1
-1.14837E-1,-7.95257E-1
-1.55731E-1,-7.57171E-1
-2.06054E-1,-7.58026E-1
-2.72918E-1,-7.22839E-1
-3.05481E-1,-6.94854E-1
-3.5849E-1,-6.74255E-1
-3.92608E-1,-6.36749E-1
-4.27948E-1,-6.35467E-1
-4.97589E-1,-6.16394E-1
-5.57525E-1,-5.76751E-1
-6.23718E-1,-5.23345E-1
-6.50817E-1,-4.42413E-1
-6.63970E-1,-4.10339E-1
-7.17102E-1,-3.65325E-1
-7.41027E-1,-2.96295E-1
-7.68737E-1,-2.46948E-1
-7.84973E-1,-1.66778E-1
-7.72674E-1,-1.24176E-1
-8.09539E-1,-0.86456E-1
-8.34960E-1,-0.02899E-1
-8.36425E-1,0.66497E-1
-8.42132E-1,1.48986E-1
-8.07769E-1,2.25708E-1
-7.97454E-1,2.76947E-1
-7.77618E-1,3.67553E-1
-7.26623E-1,4.23065E-1
-7.04528E-1,4.83734E-1
-6.39495E-1,5.52276E-1
-5.94207E-1,5.68634E-1
-5.71929E-1,6.19049E-1
-5.22613E-1,6.68792E-1
-4.89990E-1,7.20397E-1
-4.17663E-1,7.95623E-1
-3.27301E-1,8.19152E-1
-2.69500E-1,8.41888E-1
-1.92108E-1,8.66210E-1
-1.28997E-1,8.80004E-1
-0.40802E-1,9.07897E-1
0.55145E-1,8.86810E-1
1.05255E-1,8.72192E-1
1.80999E-1,8.77471E-1
2.49145E-1,8.57788E-1
3.24554E-1,8.56872E-1
4.20806E-1,8.22845E-1
4.86358E-1,7.71789E-1
5.54351E-1,7.34954E-1
6.20300E-1,6.75293E-1
6.68365E-1,6.21429E-1
7.26776E-1,5.61523E-1
7.68341E-1,4.89044E-1
7.99987E-1,4.26361E-1
8.32580E-1,3.56384E-1
8.52905E-1,2.89581E-1
8.78845E-1,2.25616E-1
8.98986E-1,1.47888E-1
9.07989E-1,0.71807E-1
9.14611E-1,-0.06683E-1
9.09454E-1,-0.88287E-1
8.95172E-1,-1.61224E-1
8.81256E-1,-2.32666E-1
8.63952E-1,-3.07952E-1
8.37097E-1,-3.81652E-1
8.06030E-1,-4.59808E-1
7.53509E-1,-5.33203E-1
7.00897E-1,-5.87463E-1
6.52648E-1,-6.41479E-1
5.96862E-1,-6.93420E-1
5.41320E-1,-7.40112E-1
4.76165E-1,-7.92480E-1
3.98895E-1,-8.23333E-1
3.37036E-1,-8.46252E-1
2.67425E-1,-8.79303E-1
1.97113E-1,-8.97308E-1
1.25824E-1,-9.30145E-1
0.21942E-1,-9.42260E-1
-0.62927E-1,-9.25476E-1
-1.38763E-1,-9.15771E-1
-2.14508E-1,-8.92395E-1
-2.76855E-1,-8.75640E-1
-3.61022E-1,-8.58673E-1
-4.36279E-1,-8.15856E-1
-5.00030E-1,-7.74353E-1
END
BEGIN
-6.09771E-1,2.63855E-1
-6.07177E-1,3.43322E-1
-4.98809E-1,3.92593E-1
-5.08544E-1,3.55590E-1
-5.39886E-1,4.85046E-1
-4.21508E-1,5.47180E-1
-3.89556E-1,5.78979E-1
-2.75878E-1,6.30767E-1
-2.36358E-1,5.72540E-1
-2.64831E-1,6.48132E-1
-1.34979E-1,7.19543E-1
-0.59814E-1,6.99920E-1
0.39520E-1,7.08984E-1
0.95794E-1,6.32049E-1
0.84930E-1,6.56982E-1
2.07916E-1,6.92077E-1
2.77893E-1,6.25E-1
3.49334E-1,6.02081E-1
3.92898E-1,4.85824E-1
3.30978E-1,4.67681E-1
3.88702E-1,5.18829E-1
4.56466E-1,4.61334E-1
4.86679E-1,4.52148E-1
5.67138E-1,3.88702E-1
5.46264E-1,3.29376E-1
5.86059E-1,3.59558E-1
6.83898E-1,2.94952E-1
7.13256E-1,2.23541E-1
7.79266E-1,1.27136E-1
7.29797E-1,-0.02655E-1
6.96716E-1,0.04364E-1
7.61993E-1,-0.46569E-1
7.71453E-1,-1.31866E-1
8.08044E-1,-2.39166E-1
7.05658E-1,-3.98315E-1
6.01379E-1,-3.61663E-1
6.48651E-1,-3.7677E-1
6.40655E-1,-4.76074E-1
6.27990E-1,-5.69458E-1
5.05523E-1,-7.19879E-1
3.42498E-1,-6.61590E-1
3.67431E-1,-6.18408E-1
3.55957E-1,-6.93115E-1
3.17627E-1,-7.50366E-1
2.17132E-1,-8.80737E-1
0.05523E-1,-8.39233E-1
0.03265E-1,-7.43225E-1
-0.11230E-1,-7.90985E-1
-0.80566E-1,-8.03283E-1
-1.57287E-1,-8.70117E-1
-3.73748E-1,-8.28613E-1
-4.03595E-1,-6.62933E-1
-3.82019E-1,-6.56860E-1
-4.37713E-1,-6.44073E-1
-4.70306E-1,-6.57074E-1
-6.34887E-1,-6.46453E-1
-6.94030E-1,-4.54437E-1
-6.37512E-1,-4.06433E-1
-6.73461E-1,-3.86871E-1
-6.89544E-1,-3.58978E-1
-7.99316E-1,-3.52111E-1
-8.77899E-1,-1.59362E-1
-7.78747E-1,-0.63842E-1
-7.70446E-1,-0.50964E-1
-7.66296E-1,-0.05859E-1
-8.09906E-1,-0.01556E-1
-9.05212E-1,1.44012E-1
-7.94769E-1,2.94036E-1
-7.42950E-1,2.92541E-1
-7.36724E-1,3.44635E-1
-7.30346E-1,3.76342E-1
-7.74566E-1,4.94812E-1
-6.45080E-1,6.53076E-1
-5.29449E-1,6.36962E-1
-5.00854E-1,6.59332E-1
-4.49768E-1,6.85089E-1
-4.43512E-1,7.34893E-1
-3.44940E-1,8.44665E-1
-2.07946E-1,8.26599E-1
-1.59606E-1,8.06488E-1
-1.07421E-1,8.04534E-1
-0.87097E-1,8.31726E-1
0.12756E-1,9.07867E-1
1.52221E-1,8.60778E-1
1.92749E-1,8.19244E-1
2.65197E-1,7.95288E-1
2.88848E-1,7.54943E-1
3.35113E-1,7.99377E-1
4.79187E-1,7.88543E-1
5.53619E-1,7.00592E-1
6.09191E-1,6.49841E-1
6.39923E-1,5.78094E-1
6.67236E-1,5.71044E-1
7.83874E-1,5.31189E-1
8.54309E-1,4.01184E-1
8.70727E-1,2.96630E-1
8.54156E-1,1.95037E-1
8.30200E-1,1.76574E-1
9.09088E-1,1.36047E-1
9.42749E-1,-0.14434E-1
8.96148E-1,-1.20605E-1
8.56018E-1,-2.11578E-1
7.91931E-1,-2.47070E-1
8.19885E-1,-2.71637E-1
8.22326E-1,-3.97827E-1
7.43347E-1,-4.75952E-1
6.94397E-1,-5.43518E-1
5.90240E-1,-5.91125E-1
5.57128E-1,-5.75195E-1
5.57617E-1,-6.49780E-1
4.70825E-1,-7.28942E-1
3.83361E-1,-7.62115E-1
2.75604E-1,-7.69592E-1
2.26684E-1,-7.17315E-1
2.28973E-1,-7.43713E-1
1.5625E-1,-8.01574E-1
0.66192E-1,-8.10638E-1
-0.28198E-1,-8.02063E-1
-0.89508E-1,-7.38037E-1
-0.84198E-1,-7.24792E-1
-1.29180E-1,-7.64862E-1
-2.16400E-1,-7.68066E-1
-3.09295E-1,-7.43682E-1
-3.79760E-1,-6.63055E-1
-3.74206E-1,-6.12213E-1
-4.00512E-1,-6.25488E-1
-4.68780E-1,-6.13403E-1
-5.42236E-1,-5.78369E-1
-6.05377E-1,-4.90844E-1
-5.85327E-1,-4.14947E-1
-5.87341E-1,-4.14917E-1
-6.46118E-1,-4.00787E-1
-7.08313E-1,-3.48846E-1
-7.54821E-1,-2.63977E-1
-7.37060E-1,-1.82067E-1
-7.27294E-1,-1.5625E-1
-7.57904E-1,-1.19506E-1
-7.83142E-1,-0.59143E-1
-8.09631E-1,0.15136E-1
-7.94891E-1,1.09710E-1
-7.59643E-1,1.50116E-1
-7.63336E-1,1.85363E-1
-7.67944E-1,2.41729E-1
-7.73834E-1,3.1427E-1
-7.47589E-1,4.13543E-1
-6.91009E-1,4.71160E-1
-6.69342E-1,5.14404E-1
-6.44928E-1,5.78002E-1
-6.13769E-1,6.46453E-1
-5.49896E-1,7.42004E-1
-4.32830E-1,7.79083E-1
-3.7854E-1,7.76275E-1
-3.40759E-1,8.16162E-1
-2.83111E-1,8.64837E-1
-1.98333E-1,9.23461E-1
-0.69488E-1,9.34265E-1
0.10559E-1,8.97216E-1
0.68634E-1,8.93798E-1
1.40441E-1,8.95477E-1
2.24395E-1,8.99017E-1
3.32763E-1,8.73077E-1
3.98590E-1,8.08105E-1
4.44976E-1,7.73895E-1
4.99786E-1,7.40539E-1
5.59997E-1,7.16247E-1
6.43310E-1,6.71508E-1
6.99310E-1,5.92895E-1
7.35717E-1,5.31799E-1
7.73620E-1,4.69177E-1
8.05542E-1,4.16778E-1
8.54827E-1,3.55682E-1
8.91754E-1,2.71331E-1
9.05181E-1,1.88873E-1
9.13360E-1,1.10931E-1
9.16687E-1,0.37262E-1
9.22576E-1,-0.38177E-1
9.23065E-1,-1.18377E-1
9.14459E-1,-2.00958E-1
8.94439E-1,-2.83966E-1
8.64532E-1,-3.62823E-1
8.22784E-1,-4.37347E-1
7.78595E-1,-4.97528E-1
7.46887E-1,-5.63751E-1
6.96777E-1,-6.37420E-1
6.38397E-1,-7.03125E-1
5.61126E-1,-7.62390E-1
4.77813E-1,-7.88147E-1
4.24377E-1,-8.12744E-1
3.56933E-1,-8.54858E-1
2.86895E-1,-8.86230E-1
2.01446E-1,-9.26269E-1
0.96344E-1,-9.29504E-1
0.22827E-1,-9.04754E-1
-0.37963E-1,-9.04724E-1
-1.08001E-1,-9.02313E-1
-1.87591E-1,-9.10827E-1
-2.91198E-1,-8.81713E-1
-3.56689E-1,-8.21411E-1
-3.95263E-1,-7.88879E-1
-4.52301E-1,-7.62481E-1
-5.13061E-1,-7.38983E-1
END
BEGIN
-6.96044E-1,0.35064E-1
-6.88537E-1,1.14837E-1
-6.70349E-1,1.98211E-1
-6.46026E-1,2.74963E-1
-6.01074E-1,3.55499E-1
-5.45227E-1,4.21783E-1
-4.84420E-1,4.83642E-1
-4.24896E-1,5.34423E-1
-3.52294E-1,5.76324E-1
-2.80304E-1,5.97869E-1
-2.16857E-1,6.11694E-1
-1.52648E-1,6.19293E-1
-0.94726E-1,6.32995E-1
-0.18951E-1,6.43676E-1
0.46844E-1,6.40319E-1
1.18988E-1,6.34582E-1
1.91558E-1,6.12121E-1
2.62451E-1,5.85083E-1
3.36608E-1,5.45196E-1
3.87649E-1,4.85397E-1
4.29641E-1,4.26940E-1
4.58099E-1,3.61694E-1
4.77493E-1,3.00613E-1
4.90173E-1,2.36221E-1
4.96322E-1,1.83761E-1
5.10131E-1,1.37237E-1
5.16662E-1,0.86761E-1
5.25451E-1,0.36560E-1
5.22338E-1,-0.23773E-1
5.24047E-1,-0.76660E-1
5.16967E-1,-1.39068E-1
4.97451E-1,-1.93298E-1
4.81353E-1,-2.36114E-1
4.63501E-1,-2.96997E-1
4.18167E-1,-3.26019E-1
3.81652E-1,-3.70346E-1
3.39660E-1,-3.98513E-1
3.05999E-1,-4.34173E-1
2.56439E-1,-4.77310E-1
1.98654E-1,-4.92111E-1
1.44622E-1,-5.07720E-1
0.92163E-1,-5.17639E-1
0.33783E-1,-5.21362E-1
-0.22003E-1,-5.28472E-1
-0.85418E-1,-5.15350E-1
-1.31622E-1,-5.09491E-1
-1.84036E-1,-4.88922E-1
-2.34130E-1,-4.64614E-1
-2.82135E-1,-4.38766E-1
-3.41903E-1,-4.02908E-1
-3.68972E-1,-3.54278E-1
-4.06021E-1,-3.25012E-1
-4.43191E-1,-2.83081E-1
-4.72168E-1,-2.38037E-1
-4.94689E-1,-1.91940E-1
-5.05432E-1,-1.41449E-1
-5.20599E-1,-0.95428E-1
-5.22857E-1,-0.38696E-1
-5.19958E-1,0.19195E-1
-5.10314E-1,0.72570E-1
-5.06530E-1,1.32354E-1
-4.83078E-1,1.81366E-1
-4.64309E-1,2.25463E-1
-4.41101E-1,2.78976E-1
-4.02053E-1,3.27133E-1
-3.71017E-1,3.65020E-1
-3.33206E-1,3.99490E-1
-2.98889E-1,4.36264E-1
-2.49816E-1,4.55703E-1
-1.95068E-1,4.67651E-1
-1.44302E-1,4.72488E-1
-0.79406E-1,4.89929E-1
-0.19332E-1,4.86129E-1
0.27542E-1,4.83703E-1
0.84137E-1,4.83276E-1
1.38885E-1,4.67147E-1
1.90841E-1,4.42947E-1
2.28622E-1,4.17190E-1
2.75451E-1,3.96865E-1
3.16421E-1,3.66775E-1
3.50723E-1,3.21823E-1
3.65036E-1,2.80746E-1
3.89602E-1,2.46078E-1
4.15023E-1,1.97631E-1
4.30297E-1,1.52481E-1
4.46090E-1,0.99868E-1
4.48669E-1,0.47653E-1
4.53201E-1,0.00732E-1
4.46029E-1,-0.37185E-1
4.44183E-1,-0.76263E-1
4.30526E-1,-1.13433E-1
4.10034E-1,-1.51519E-1
3.88153E-1,-1.81579E-1
3.67462E-1,-2.22381E-1
3.43597E-1,-2.62207E-1
3.12225E-1,-2.95043E-1
2.83432E-1,-3.22067E-1
2.49160E-1,-3.49380E-1
2.05917E-1,-3.73764E-1
1.78710E-1,-3.88092E-1
1.49475E-1,-4.15573E-1
1.20712E-1,-4.34967E-1
0.87051E-1,-4.49554E-1
0.5896E-1,-4.48013E-1
0.33691E-1,-4.52896E-1
-0.08377E-1,-4.59884E-1
-0.50872E-1,-4.55032E-1
-0.89248E-1,-4.48791E-1
-1.26037E-1,-4.41223E-1
-1.61788E-1,-4.35211E-1
-1.98333E-1,-4.26788E-1
-2.32360E-1,-4.09668E-1
-2.60772E-1,-3.96316E-1
-2.98400E-1,-3.79165E-1
-3.28735E-1,-3.56140E-1
-3.56964E-1,-3.34991E-1
-3.84170E-1,-3.10577E-1
-4.07180E-1,-2.80365E-1
-4.29077E-1,-2.46734E-1
-4.46670E-1,-2.12783E-1
-4.68841E-1,-1.71463E-1
-4.85916E-1,-1.30508E-1
-5.00976E-1,-0.92285E-1
-5.16143E-1,-0.57067E-1
-5.25878E-1,-0.16449E-1
-5.30365E-1,0.24993E-1
-5.24841E-1,0.65490E-1
-5.20202E-1,0.98480E-1
-5.18768E-1,1.36444E-1
-5.03479E-1,1.82800E-1
-4.89212E-1,2.16369E-1
-4.68780E-1,2.59475E-1
-4.45953E-1,2.93396E-1
-4.26193E-1,3.28857E-1
-3.99780E-1,3.68209E-1
-3.68667E-1,3.97796E-1
-3.38607E-1,4.31030E-1
-3.02520E-1,4.54223E-1
-2.76672E-1,4.70214E-1
-2.45254E-1,4.91775E-1
-1.99951E-1,5.01586E-1
-1.61346E-1,5.05127E-1
-1.14990E-1,5.08789E-1
-0.74432E-1,5.08361E-1
-0.30914E-1,5.12237E-1
0.12756E-1,5.06897E-1
0.52597E-1,4.97100E-1
1.00372E-1,4.82177E-1
1.42379E-1,4.56481E-1
1.75567E-1,4.36981E-1
2.07641E-1,4.28894E-1
2.43469E-1,4.07424E-1
2.63977E-1,3.83346E-1
2.84378E-1,3.50631E-1
3.00109E-1,3.15170E-1
3.17504E-1,2.79281E-1
3.43414E-1,2.40173E-1
3.57101E-1,1.99111E-1
3.67523E-1,1.63955E-1
3.69064E-1,1.26815E-1
3.66973E-1,0.98144E-1
3.75671E-1,0.68008E-1
3.73046E-1,0.31158E-1
3.66577E-1,0.08316E-1
3.57879E-1,-0.16342E-1
3.42117E-1,-0.34576E-1
3.25058E-1,-0.52063E-1
3.05816E-1,-0.73226E-1
2.83111E-1,-0.88882E-1
2.63137E-1,-1.05575E-1
2.34466E-1,-1.22779E-1
2.10075E-1,-1.33476E-1
1.92901E-1,-1.49642E-1
1.75964E-1,-1.65100E-1
1.62284E-1,-1.78604E-1
1.39404E-1,-1.85012E-1
1.22436E-1,-1.77475E-1
1.10374E-1,-1.76147E-1
0.93292E-1,-1.79908E-1
0.76057E-1,-1.83410E-1
0.55229E-1,-1.82571E-1
0.41244E-1,-1.68678E-1
0.34034E-1,-1.61247E-1
0.19790E-1,-1.54945E-1
0.05149E-1,-1.52046E-1
-0.13977E-1,-1.53282E-1
-0.31158E-1,-1.46064E-1
-0.30899E-1,-1.44203E-1
-0.33035E-1,-1.45851E-1
-0.30616E-1,-1.42364E-1
-0.34095E-1,-1.41922E-1
-0.44891E-1,-1.29715E-1
-3.9711E-2,-1.13723E-1
-3.90930E-2,-1.14681E-1
-4.07867E-2,-1.13067E-1
-4.50019E-2,-1.16241E-1
-5.77583E-2,-1.07868E-1
-6.21032E-2,-9.22393E-2
-6.38885E-2,-9.40971E-2
-7.37457E-2,-9.54284E-2
-8.12797E-2,-1.01608E-1
END
