CITIFILE A.01.01
#NA VERSION HP8510C.08.10
NAME DATA
#NA REGISTER 4
VAR FREQ MAG 201
DATA S[1,1] RI
DATA S[2,1] RI
DATA S[1,2] RI
DATA S[2,2] RI
SEG_LIST_BEGIN
SEG 8000000000 12000000000 201
SEG_LIST_END
COMMENT       YEAR MONTH DAY HOUR MINUTE SECONDS
CONSTANT TIME 2013   12   09  21    12    50.0
BEGIN
-6.53320E-1,-2.07366E-1
-6.71020E-1,-1.38824E-1
-6.84417E-1,-0.59753E-1
-6.89605E-1,0.12359E-1
-6.86309E-1,0.89111E-1
-6.70288E-1,1.58996E-1
-6.49383E-1,2.29675E-1
-6.2677E-1,2.93518E-1
-5.89843E-1,3.67553E-1
-5.44250E-1,4.27002E-1
-4.95742E-1,4.80850E-1
-4.36615E-1,5.23773E-1
-3.82019E-1,5.62744E-1
-3.10882E-1,6.01135E-1
-2.49420E-1,6.23016E-1
-1.85577E-1,6.45324E-1
-1.15844E-1,6.54327E-1
-0.49804E-1,6.60461E-1
0.29022E-1,6.62811E-1
1.01379E-1,6.37817E-1
1.67633E-1,6.15539E-1
2.26684E-1,5.76263E-1
2.69470E-1,5.36438E-1
3.04809E-1,4.93637E-1
3.27529E-1,4.54193E-1
3.54400E-1,4.28161E-1
3.81408E-1,3.97262E-1
4.09332E-1,3.71109E-1
4.38720E-1,3.35952E-1
4.67544E-1,3.06518E-1
5.01495E-1,2.61566E-1
5.22003E-1,2.08190E-1
5.39001E-1,1.62811E-1
5.50323E-1,1.07879E-1
5.61950E-1,0.61218E-1
5.56427E-1,-0.02533E-1
5.47912E-1,-0.47302E-1
5.45440E-1,-0.94574E-1
5.40191E-1,-1.55242E-1
5.08453E-1,-2.02392E-1
4.86816E-1,-2.45834E-1
4.65042E-1,-2.86911E-1
4.32617E-1,-3.28582E-1
4.04235E-1,-3.72131E-1
3.52432E-1,-4.07318E-1
3.22265E-1,-4.31930E-1
2.78259E-1,-4.55688E-1
2.35656E-1,-4.76226E-1
1.97189E-1,-4.95086E-1
1.41418E-1,-5.21453E-1
0.95306E-1,-5.13031E-1
0.58807E-1,-5.26733E-1
0.08239E-1,-5.32653E-1
-0.39001E-1,-5.28625E-1
-0.87890E-1,-5.23620E-1
-1.33941E-1,-5.08270E-1
-1.76727E-1,-5.05432E-1
-2.23068E-1,-4.83200E-1
-2.59765E-1,-4.58709E-1
-2.92312E-1,-4.37515E-1
-3.39874E-1,-4.12185E-1
-3.69979E-1,-3.79959E-1
-4.02587E-1,-3.52951E-1
-4.34158E-1,-3.20404E-1
-4.59686E-1,-2.80029E-1
-4.81872E-1,-2.40997E-1
-5.00335E-1,-1.97631E-1
-5.30273E-1,-1.55670E-1
-5.35919E-1,-1.06445E-1
-5.40741E-1,-0.66009E-1
-5.41778E-1,-0.25543E-1
-5.47363E-1,0.27343E-1
-5.42724E-1,0.77209E-1
-5.33203E-1,1.16729E-1
-5.28930E-1,1.57135E-1
-5.17120E-1,2.03491E-1
-4.95498E-1,2.50122E-1
-4.74609E-1,2.93396E-1
-4.51141E-1,3.48495E-1
-4.16076E-1,3.89556E-1
-3.76037E-1,4.27459E-1
-3.29208E-1,4.47082E-1
-2.88436E-1,4.78454E-1
-2.31109E-1,5.09368E-1
-1.85333E-1,5.23376E-1
-1.39648E-1,5.39520E-1
-0.87005E-1,5.41015E-1
-0.36377E-1,5.44311E-1
0.24017E-1,5.45166E-1
0.86151E-1,5.38940E-1
1.39251E-1,5.26855E-1
1.90582E-1,5.02563E-1
2.26196E-1,4.69055E-1
2.73010E-1,4.38079E-1
3.16268E-1,3.99185E-1
3.53729E-1,3.60717E-1
3.84491E-1,3.25408E-1
4.12124E-1,2.86178E-1
4.40643E-1,2.30163E-1
4.54315E-1,1.74942E-1
4.72412E-1,1.17141E-1
4.84283E-1,0.60302E-1
4.85824E-1,-0.02655E-1
4.66827E-1,-0.59158E-1
4.44717E-1,-1.12625E-1
4.17694E-1,-1.68548E-1
3.87847E-1,-2.16125E-1
3.57132E-1,-2.54043E-1
3.25408E-1,-2.83126E-1
2.87139E-1,-3.17520E-1
2.40066E-1,-3.44619E-1
1.95388E-1,-3.69140E-1
1.58386E-1,-3.88137E-1
1.16012E-1,-4.12170E-1
0.66650E-1,-4.17297E-1
0.14541E-1,-4.13360E-1
-0.37185E-1,-4.07379E-1
-0.82733E-1,-4.00497E-1
-1.17523E-1,-3.97064E-1
-1.48330E-1,-3.92639E-1
-1.91711E-1,-3.76525E-1
-2.30896E-1,-3.46679E-1
-2.69607E-1,-3.18527E-1
-3.02581E-1,-3.01986E-1
-3.39675E-1,-2.84088E-1
-3.69873E-1,-2.49801E-1
-3.88259E-1,-2.03857E-1
-4.01611E-1,-1.58432E-1
-4.20883E-1,-1.21063E-1
-4.41116E-1,-0.86807E-1
-4.50164E-1,-0.57724E-1
-4.49661E-1,-0.18005E-1
-4.42581E-1,0.21652E-1
-4.39697E-1,0.67810E-1
-4.43924E-1,1.08474E-1
-4.42871E-1,1.44653E-1
-4.30679E-1,1.77536E-1
-4.06478E-1,2.07290E-1
-3.82797E-1,2.4086E-1
-3.61465E-1,2.83142E-1
-3.39706E-1,3.15902E-1
-3.19290E-1,3.36685E-1
-2.93167E-1,3.48938E-1
-2.61688E-1,3.66943E-1
-2.13989E-1,3.92379E-1
-1.79657E-1,4.12582E-1
-1.52954E-1,4.31762E-1
-1.25289E-1,4.34036E-1
-0.96206E-1,4.31457E-1
-0.51513E-1,4.31991E-1
-0.06408E-1,4.34570E-1
0.39215E-1,4.39666E-1
0.70983E-1,4.32434E-1
0.90332E-1,4.13970E-1
1.20132E-1,3.90045E-1
1.55395E-1,3.60977E-1
1.92794E-1,3.36608E-1
2.18078E-1,3.13858E-1
2.25158E-1,2.94586E-1
2.32070E-1,2.72934E-1
2.45346E-1,2.36427E-1
2.65731E-1,1.96090E-1
2.80365E-1,1.55975E-1
2.82623E-1,1.25839E-1
2.71789E-1,1.01287E-1
2.54806E-1,0.70343E-1
2.30842E-1,0.35545E-1
2.10037E-1,0.08407E-1
1.95419E-1,-0.05760E-1
1.80137E-1,-0.05653E-1
1.64711E-1,-0.00938E-1
1.45797E-1,-0.05783E-1
1.27311E-1,-0.15968E-1
1.16958E-1,-2.87933E-2
1.07601E-1,-3.48854E-2
1.00921E-1,-2.47573E-2
9.18769E-2,-1.43623E-2
7.19986E-2,-0.34141E-2
6.20880E-2,0.12950E-2
5.74798E-2,-0.12893E-2
6.55441E-2,0.64315E-2
8.63838E-2,1.49841E-2
8.96263E-2,2.36091E-2
9.34486E-2,3.45153E-2
9.27391E-2,2.36549E-2
9.23461E-2,1.12648E-2
1.05735E-1,0.03967E-2
1.19522E-1,-0.63972E-2
1.31958E-1,0.01533E-1
1.37802E-1,-0.01686E-1
1.32011E-1,-0.13923E-1
1.37748E-1,-0.37284E-1
1.52481E-1,-0.70686E-1
1.60194E-1,-0.92514E-1
1.67335E-1,-1.06414E-1
1.50627E-1,-1.23962E-1
1.24534E-1,-1.46308E-1
0.99609E-1,-1.79039E-1
0.78033E-1,-2.05795E-1
0.76026E-1,-2.16896E-1
0.62736E-1,-2.28775E-1
END
BEGIN
-6.54937E-1,3.28247E-1
-5.70495E-1,3.36029E-1
-5.88684E-1,3.91204E-1
-5.03173E-1,4.88250E-1
-4.42413E-1,5.04455E-1
-3.61480E-1,5.63842E-1
-2.73101E-1,5.18066E-1
-3.01635E-1,5.02014E-1
-2.75054E-1,5.78491E-1
-2.22259E-1,5.98388E-1
-1.65741E-1,6.54815E-1
-0.67352E-1,6.28295E-1
-0.87860E-1,6.16790E-1
-0.28442E-1,7.21191E-1
0.99609E-1,7.04864E-1
1.58660E-1,7.01110E-1
2.75299E-1,6.56402E-1
2.74505E-1,5.80505E-1
3.00628E-1,6.26983E-1
4.14398E-1,5.94055E-1
4.55261E-1,5.51971E-1
5.50903E-1,5.01098E-1
5.54626E-1,3.94409E-1
5.58807E-1,3.96637E-1
6.40716E-1,3.43109E-1
6.47216E-1,2.68676E-1
7.01995E-1,2.22198E-1
6.99585E-1,0.94482E-1
6.36932E-1,0.74523E-1
6.77917E-1,0.69274E-1
6.92443E-1,0.03356E-1
7.22320E-1,-0.24627E-1
7.60040E-1,-1.41479E-1
6.90521E-1,-2.01446E-1
7.30346E-1,-2.11792E-1
7.66235E-1,-3.43231E-1
7.34710E-1,-4.51385E-1
6.77917E-1,-6.14227E-1
4.82330E-1,-6.58935E-1
4.45068E-1,-6.02478E-1
4.25964E-1,-6.80755E-1
3.29071E-1,-7.01446E-1
2.95715E-1,-7.38708E-1
1.65252E-1,-7.72949E-1
1.24237E-1,-7.04864E-1
1.23901E-1,-7.65197E-1
0.02807E-1,-7.98522E-1
-0.49987E-1,-7.87994E-1
-1.82586E-1,-8.23516E-1
-2.86010E-1,-6.94061E-1
-2.60131E-1,-6.52160E-1
-3.11645E-1,-6.55212E-1
-3.34381E-1,-6.21582E-1
-3.88732E-1,-6.53076E-1
-4.92553E-1,-5.90545E-1
-4.96887E-1,-5.39917E-1
-5.57739E-1,-5.40679E-1
-6.14013E-1,-4.84252E-1
-6.85394E-1,-4.72137E-1
-8.04534E-1,-3.39935E-1
-7.46490E-1,-2.02484E-1
-7.36480E-1,-1.82342E-1
-7.35900E-1,-1.10839E-1
-7.20459E-1,-1.12304E-1
-8.14117E-1,-0.64910E-1
-7.99224E-1,0.70251E-1
-7.73101E-1,0.91522E-1
-8.17779E-1,1.66259E-1
-7.95410E-1,2.56134E-1
-8.16223E-1,3.52752E-1
-7.23571E-1,5.09460E-1
-6.05682E-1,5.13031E-1
-5.76934E-1,5.49438E-1
-4.88464E-1,5.72998E-1
-4.80163E-1,5.57312E-1
-4.60144E-1,6.28509E-1
-3.96423E-1,6.46820E-1
-3.91479E-1,6.86767E-1
-3.15460E-1,7.57080E-1
-2.65747E-1,7.59735E-1
-2.27935E-1,8.46435E-1
-0.85784E-1,8.91174E-1
0.06256E-1,8.76709E-1
1.28173E-1,8.64837E-1
1.83197E-1,7.75726E-1
1.89727E-1,7.94433E-1
3.06274E-1,7.97271E-1
3.51532E-1,7.25524E-1
3.98529E-1,7.34771E-1
4.83703E-1,6.79351E-1
5.02105E-1,6.58081E-1
6.16729E-1,6.59698E-1
7.07366E-1,5.32501E-1
7.11425E-1,4.55627E-1
7.53021E-1,3.78814E-1
7.34649E-1,3.02642E-1
7.55249E-1,2.80456E-1
7.84454E-1,1.99462E-1
7.6474E-1,1.62994E-1
8.14483E-1,1.32080E-1
8.34594E-1,0.39276E-1
8.37951E-1,-0.08270E-1
8.82843E-1,-0.92132E-1
8.62762E-1,-1.97662E-1
8.60931E-1,-2.70233E-1
8.31604E-1,-4.05548E-1
7.29705E-1,-4.70184E-1
6.92840E-1,-5.01892E-1
6.39648E-1,-5.67932E-1
5.83038E-1,-5.98724E-1
5.39245E-1,-6.56036E-1
4.53460E-1,-6.83868E-1
4.23339E-1,-6.87988E-1
3.85711E-1,-7.46368E-1
3.12805E-1,-7.84332E-1
2.50640E-1,-8.22082E-1
1.49047E-1,-8.49090E-1
0.70678E-1,-8.30291E-1
0.07354E-1,-8.35998E-1
-0.76873E-1,-8.14514E-1
-1.14959E-1,-7.90313E-1
-1.77154E-1,-7.97393E-1
-2.45697E-1,-7.63153E-1
-2.86071E-1,-7.43866E-1
-3.48114E-1,-7.21710E-1
-3.87481E-1,-6.89361E-1
-4.38659E-1,-6.88262E-1
-5.18707E-1,-6.58813E-1
-5.81024E-1,-6.10534E-1
-6.42669E-1,-5.49163E-1
-6.65741E-1,-4.73053E-1
-6.90094E-1,-4.44549E-1
-7.49603E-1,-3.89312E-1
-7.72613E-1,-3.17688E-1
-8.03833E-1,-2.60345E-1
-8.17169E-1,-1.80145E-1
-8.13568E-1,-1.38336E-1
-8.59130E-1,-0.86700E-1
-8.76281E-1,0.10894E-1
-8.72589E-1,0.85449E-1
-8.69659E-1,1.75964E-1
-8.28704E-1,2.46917E-1
-8.18359E-1,3.04901E-1
-7.85858E-1,3.94165E-1
-7.34863E-1,4.44152E-1
-7.06237E-1,5.08392E-1
-6.39648E-1,5.64117E-1
-6.06536E-1,5.82366E-1
-5.80444E-1,6.41723E-1
-5.27252E-1,6.94091E-1
-4.84985E-1,7.51800E-1
-3.98223E-1,8.15704E-1
-3.14910E-1,8.25836E-1
-2.61810E-1,8.50006E-1
-1.87683E-1,8.73748E-1
-1.21215E-1,8.92120E-1
-0.27160E-1,9.10766E-1
0.52642E-1,8.85864E-1
1.01440E-1,8.83544E-1
1.82434E-1,8.89282E-1
2.53753E-1,8.74939E-1
3.39111E-1,8.70025E-1
4.32281E-1,8.23913E-1
4.90875E-1,7.75726E-1
5.59387E-1,7.39715E-1
6.22528E-1,6.84570E-1
6.76666E-1,6.34735E-1
7.36633E-1,5.70892E-1
7.76519E-1,5.01037E-1
8.13201E-1,4.40826E-1
8.48632E-1,3.72009E-1
8.78112E-1,3.05664E-1
9.10247E-1,2.33367E-1
9.30511E-1,1.48773E-1
9.40246E-1,0.66680E-1
9.44915E-1,-0.15136E-1
9.40551E-1,-0.99884E-1
9.27642E-1,-1.80053E-1
9.10308E-1,-2.57507E-1
8.88427E-1,-3.38806E-1
8.55011E-1,-4.16320E-1
8.18420E-1,-4.95422E-1
7.60803E-1,-5.70373E-1
7.03552E-1,-6.25030E-1
6.52526E-1,-6.80114E-1
5.89141E-1,-7.33551E-1
5.27984E-1,-7.78778E-1
4.55535E-1,-8.30261E-1
3.74389E-1,-8.54675E-1
3.11462E-1,-8.77868E-1
2.32910E-1,-9.0979E-1
1.57074E-1,-9.22088E-1
0.73822E-1,-9.47998E-1
-0.30944E-1,-9.40368E-1
-1.04095E-1,-9.18243E-1
-1.79718E-1,-9.06646E-1
-2.51037E-1,-8.77288E-1
-3.16711E-1,-8.59771E-1
-4.00573E-1,-8.26782E-1
-4.59594E-1,-7.77496E-1
-5.1651E-1,-7.41912E-1
END
BEGIN
-6.18835E-1,2.75360E-1
-6.19720E-1,3.52630E-1
-5.06286E-1,4.20867E-1
-4.93530E-1,3.75152E-1
-5.38421E-1,4.85717E-1
-4.23004E-1,5.65185E-1
-3.87115E-1,5.93292E-1
-2.73376E-1,6.61956E-1
-2.07519E-1,5.99273E-1
-2.40264E-1,6.52679E-1
-1.17675E-1,7.36084E-1
-0.31219E-1,7.10144E-1
0.67962E-1,7.18261E-1
1.38427E-1,6.32751E-1
1.19537E-1,6.36383E-1
2.27294E-1,6.80603E-1
3.06091E-1,6.12793E-1
3.73077E-1,5.89752E-1
4.32968E-1,4.67697E-1
3.65951E-1,4.2276E-1
3.98819E-1,4.70077E-1
4.64370E-1,4.18075E-1
4.82528E-1,4.04510E-1
5.59143E-1,3.53424E-1
5.40069E-1,2.83508E-1
5.56762E-1,3.10791E-1
6.47644E-1,2.66021E-1
6.75628E-1,1.99005E-1
7.44049E-1,1.22009E-1
7.14111E-1,-0.18341E-1
6.61407E-1,-0.23284E-1
7.12585E-1,-0.54321E-1
7.23846E-1,-1.28112E-1
7.68402E-1,-2.10998E-1
7.01019E-1,-3.83606E-1
5.73181E-1,-3.72009E-1
6.02874E-1,-3.64349E-1
6.05468E-1,-4.47448E-1
6.03820E-1,-5.22674E-1
5.24871E-1,-6.86828E-1
3.34503E-1,-6.67480E-1
3.35144E-1,-6.00494E-1
3.35052E-1,-6.56158E-1
3.07128E-1,-7.00927E-1
2.49420E-1,-8.34564E-1
0.27618E-1,-8.48724E-1
-0.09552E-1,-7.32116E-1
-0.09552E-1,-7.60986E-1
-0.70526E-1,-7.72308E-1
-1.17462E-1,-8.37921E-1
-3.35693E-1,-8.56597E-1
-4.1922E-1,-6.77307E-1
-3.86901E-1,-6.43615E-1
-4.34387E-1,-6.30279E-1
-4.49890E-1,-6.34613E-1
-5.97503E-1,-6.67114E-1
-7.16796E-1,-4.78912E-1
-6.54968E-1,-3.89465E-1
-6.77063E-1,-3.67553E-1
-6.79534E-1,-3.31573E-1
-7.64679E-1,-3.52905E-1
-8.93951E-1,-1.83258E-1
-7.98492E-1,-0.36285E-1
-7.63549E-1,-0.19195E-1
-7.46093E-1,0.27587E-1
-7.65716E-1,0.11627E-1
-8.90075E-1,1.15600E-1
-8.10180E-1,3.10607E-1
-7.23236E-1,3.20495E-1
-7.07092E-1,3.63861E-1
-6.81030E-1,3.82171E-1
-7.43042E-1,4.59503E-1
-6.60400E-1,6.56036E-1
-5.00885E-1,6.63147E-1
-4.58313E-1,6.63604E-1
-3.97796E-1,6.77368E-1
-3.96911E-1,6.92291E-1
-3.42254E-1,8.09539E-1
-1.83166E-1,8.24035E-1
-1.17126E-1,7.85278E-1
-0.60943E-1,7.66937E-1
-0.54229E-1,7.61352E-1
-0.01373E-1,8.42773E-1
1.50970E-1,8.32366E-1
2.03399E-1,7.70813E-1
2.70111E-1,7.46215E-1
2.97699E-1,6.80816E-1
2.98461E-1,7.09106E-1
4.12994E-1,7.40356E-1
5.05493E-1,6.64917E-1
5.54901E-1,6.15325E-1
5.92620E-1,5.38299E-1
5.89355E-1,5.19012E-1
6.73339E-1,5.21392E-1
7.67303E-1,4.31030E-1
8.05786E-1,3.34259E-1
8.13110E-1,2.21557E-1
7.61261E-1,1.80999E-1
8.10363E-1,1.85272E-1
8.86688E-1,0.78002E-1
8.73504E-1,-0.39703E-1
8.55377E-1,-1.39007E-1
7.83752E-1,-2.02575E-1
7.87994E-1,-2.00897E-1
8.28521E-1,-2.95562E-1
7.77465E-1,-3.96331E-1
7.43316E-1,-4.69787E-1
6.51123E-1,-5.58349E-1
5.82153E-1,-5.43823E-1
5.99639E-1,-5.85235E-1
5.48858E-1,-6.83685E-1
4.68658E-1,-7.41272E-1
3.56079E-1,-7.87445E-1
2.61627E-1,-7.38220E-1
2.67028E-1,-7.33917E-1
2.20733E-1,-8.01544E-1
1.31042E-1,-8.35540E-1
0.27343E-1,-8.52874E-1
-0.74493E-1,-7.91503E-1
-0.76324E-1,-7.44903E-1
-0.98266E-1,-7.78350E-1
-1.76452E-1,-7.99408E-1
-2.74749E-1,-7.97973E-1
-3.80554E-1,-7.29492E-1
-3.89526E-1,-6.47247E-1
-3.97613E-1,-6.50085E-1
-4.56512E-1,-6.48071E-1
-5.32836E-1,-6.30218E-1
-6.27075E-1,-5.56701E-1
-6.30432E-1,-4.45648E-1
-6.11969E-1,-4.27185E-1
-6.56189E-1,-4.21661E-1
-7.19024E-1,-3.85070E-1
-7.86132E-1,-3.10607E-1
-7.89367E-1,-2.04345E-1
-7.67486E-1,-1.60797E-1
-7.89764E-1,-1.25793E-1
-8.14147E-1,-0.69488E-1
-8.49304E-1,-0.03021E-1
-8.56781E-1,1.04003E-1
-8.14941E-1,1.71295E-1
-8.04565E-1,2.13958E-1
-7.98522E-1,2.72796E-1
-7.98736E-1,3.4021E-1
-7.80731E-1,4.42138E-1
-7.18872E-1,5.15808E-1
-6.81915E-1,5.61065E-1
-6.44439E-1,6.19171E-1
-6.05743E-1,6.75659E-1
-5.52368E-1,7.59735E-1
-4.45159E-1,8.17627E-1
-3.68682E-1,8.23669E-1
-3.18786E-1,8.55712E-1
-2.54394E-1,8.90930E-1
-1.76208E-1,9.35089E-1
-0.61248E-1,9.51629E-1
0.30029E-1,9.24316E-1
0.99090E-1,9.15649E-1
1.75842E-1,9.08142E-1
2.54272E-1,8.99871E-1
3.49243E-1,8.77136E-1
4.22821E-1,8.19488E-1
4.75402E-1,7.78106E-1
5.30487E-1,7.38372E-1
5.88256E-1,7.04498E-1
6.61651E-1,6.59057E-1
7.18292E-1,5.88836E-1
7.58972E-1,5.25024E-1
7.98614E-1,4.58953E-1
8.30749E-1,3.94744E-1
8.68194E-1,3.27301E-1
8.98498E-1,2.49298E-1
9.13269E-1,1.68914E-1
9.23584E-1,0.89660E-1
9.26544E-1,0.11016E-1
9.22058E-1,-0.67474E-1
9.16626E-1,-1.40106E-1
9.08660E-1,-2.20550E-1
8.89465E-1,-3.02154E-1
8.59710E-1,-3.84063E-1
8.11492E-1,-4.60388E-1
7.64343E-1,-5.12542E-1
7.32849E-1,-5.7547E-1
6.82952E-1,-6.44958E-1
6.27533E-1,-7.09228E-1
5.49621E-1,-7.69409E-1
4.63989E-1,-7.93487E-1
4.13116E-1,-8.18573E-1
3.42926E-1,-8.59527E-1
2.74505E-1,-8.89495E-1
1.90094E-1,-9.27948E-1
0.84655E-1,-9.29351E-1
0.13305E-1,-9.06066E-1
-0.51513E-1,-9.06768E-1
-1.22558E-1,-9.01275E-1
-1.99096E-1,-9.0625E-1
-2.98248E-1,-8.80462E-1
-3.63037E-1,-8.25958E-1
-4.10461E-1,-7.96203E-1
-4.72564E-1,-7.61840E-1
-5.34057E-1,-7.29187E-1
END
BEGIN
-6.71783E-1,2.11731E-1
-6.43463E-1,2.89032E-1
-6.03118E-1,3.68438E-1
-5.59082E-1,4.39849E-1
-4.94506E-1,5.08331E-1
-4.23706E-1,5.60455E-1
-3.49578E-1,6.08337E-1
-2.77099E-1,6.47918E-1
-1.91467E-1,6.76544E-1
-1.06567E-1,6.86859E-1
-0.26275E-1,6.87561E-1
0.52459E-1,6.74316E-1
1.26129E-1,6.59271E-1
2.07031E-1,6.31439E-1
2.69470E-1,5.98022E-1
3.35815E-1,5.63385E-1
3.96026E-1,5.14923E-1
4.53796E-1,4.63913E-1
5.10955E-1,3.97613E-1
5.37902E-1,3.20800E-1
5.59417E-1,2.46795E-1
5.65277E-1,1.70105E-1
5.62530E-1,0.98846E-1
5.49896E-1,0.29876E-1
5.30853E-1,-0.25543E-1
5.21118E-1,-0.74737E-1
5.04852E-1,-1.22406E-1
4.92813E-1,-1.68396E-1
4.70184E-1,-2.20123E-1
4.54238E-1,-2.67105E-1
4.27154E-1,-3.19992E-1
3.90838E-1,-3.62091E-1
3.60076E-1,-3.95782E-1
3.18771E-1,-4.29000E-1
2.81524E-1,-4.60723E-1
2.18154E-1,-4.86373E-1
1.68853E-1,-4.98764E-1
1.22863E-1,-5.21423E-1
0.59631E-1,-5.42968E-1
-0.00396E-1,-5.37231E-1
-0.58410E-1,-5.32287E-1
-1.11999E-1,-5.22613E-1
-1.69738E-1,-5.06561E-1
-2.26409E-1,-4.92721E-1
-2.83142E-1,-4.58435E-1
-3.26477E-1,-4.34799E-1
-3.68515E-1,-3.94561E-1
-4.09881E-1,-3.52493E-1
-4.48043E-1,-3.08303E-1
-4.9263E-1,-2.50991E-1
-5.03082E-1,-1.93054E-1
-5.26550E-1,-1.50268E-1
-5.46814E-1,-0.97229E-1
-5.56213E-1,-0.40496E-1
-5.59631E-1,0.15106E-1
-5.49743E-1,0.71044E-1
-5.45898E-1,1.23443E-1
-5.27008E-1,1.82373E-1
-5.01434E-1,2.41088E-1
-4.70184E-1,2.92556E-1
-4.38781E-1,3.52691E-1
-3.92715E-1,3.91586E-1
-3.55651E-1,4.29321E-1
-3.08807E-1,4.74411E-1
-2.47558E-1,5.06744E-1
-1.96624E-1,5.28381E-1
-1.42120E-1,5.41717E-1
-0.91674E-1,5.58349E-1
-0.32104E-1,5.56823E-1
0.32196E-1,5.46264E-1
0.89477E-1,5.31158E-1
1.66534E-1,5.16082E-1
2.22549E-1,4.83688E-1
2.68402E-1,4.61883E-1
3.25424E-1,4.32540E-1
3.73199E-1,3.90289E-1
4.14764E-1,3.39431E-1
4.37347E-1,2.92663E-1
4.71862E-1,2.50854E-1
4.98092E-1,1.99310E-1
5.11138E-1,1.36840E-1
5.05950E-1,0.84808E-1
5.08514E-1,0.34881E-1
5.08087E-1,-0.23315E-1
5.01312E-1,-0.76782E-1
4.89379E-1,-1.33758E-1
4.68643E-1,-1.84677E-1
4.49386E-1,-2.31826E-1
4.20715E-1,-2.63290E-1
3.98559E-1,-2.99911E-1
3.62411E-1,-3.32153E-1
3.22753E-1,-3.6203E-1
2.83432E-1,-3.84124E-1
2.41561E-1,-4.11331E-1
2.00805E-1,-4.35379E-1
1.52542E-1,-4.51538E-1
1.10733E-1,-4.62478E-1
0.61920E-1,-4.71923E-1
0.09338E-1,-4.72656E-1
-0.19058E-1,-4.69619E-1
-0.54794E-1,-4.79705E-1
-0.87463E-1,-4.79965E-1
-1.26342E-1,-4.74136E-1
-1.54007E-1,-4.53445E-1
-1.77978E-1,-4.41024E-1
-2.19909E-1,-4.27978E-1
-2.56897E-1,-4.02099E-1
-2.89123E-1,-3.77441E-1
-3.18084E-1,-3.50097E-1
-3.42926E-1,-3.26980E-1
-3.68347E-1,-3.03894E-1
-3.89419E-1,-2.71255E-1
-4.04907E-1,-2.44079E-1
-4.27810E-1,-2.11502E-1
-4.40795E-1,-1.78665E-1
-4.53659E-1,-1.50146E-1
-4.64340E-1,-1.18026E-1
-4.68032E-1,-0.81909E-1
-4.68841E-1,-0.43746E-1
-4.68231E-1,-0.06881E-1
-4.72274E-1,0.36605E-1
-4.71633E-1,0.76477E-1
-4.69162E-1,1.12899E-1
-4.64736E-1,1.4328E-1
-4.55459E-1,1.76528E-1
-4.41772E-1,2.12234E-1
-4.19464E-1,2.43454E-1
-4.01123E-1,2.68417E-1
-3.82843E-1,2.96096E-1
-3.5495E-1,3.23898E-1
-3.31726E-1,3.45443E-1
-2.97409E-1,3.74130E-1
-2.64404E-1,3.93768E-1
-2.34039E-1,4.14260E-1
-2.00485E-1,4.34310E-1
-1.66824E-1,4.47158E-1
-1.29760E-1,4.63180E-1
-0.90072E-1,4.65423E-1
-0.61416E-1,4.64813E-1
-0.28976E-1,4.65194E-1
0.09429E-1,4.55520E-1
0.43472E-1,4.42947E-1
0.85372E-1,4.27520E-1
1.20956E-1,4.09759E-1
1.59072E-1,3.90823E-1
1.90048E-1,3.68698E-1
2.20321E-1,3.43673E-1
2.53738E-1,3.07968E-1
2.77862E-1,2.63702E-1
2.91961E-1,2.27767E-1
3.03344E-1,2.07626E-1
3.19107E-1,1.78009E-1
3.20999E-1,1.46163E-1
3.15658E-1,1.05484E-1
3.02322E-1,0.64788E-1
2.88970E-1,0.30532E-1
2.89001E-1,-0.03646E-1
2.78884E-1,-0.3862E-1
2.64785E-1,-0.65216E-1
2.416E-1,-0.88409E-1
2.17155E-1,-0.98861E-1
2.08023E-1,-1.12678E-1
1.89491E-1,-1.31729E-1
1.72538E-1,-1.37062E-1
1.51191E-1,-1.46423E-1
1.22436E-1,-1.43936E-1
0.97259E-1,-1.37695E-1
0.69816E-1,-1.36207E-1
0.42251E-1,-1.28692E-1
1.83944E-2,-1.24622E-1
-1.34811E-2,-1.14463E-1
-3.10821E-2,-9.79347E-2
-4.24499E-2,-9.30328E-2
-5.43174E-2,-8.67652E-2
-6.27822E-2,-7.91931E-2
-7.56263E-2,-5.98678E-2
-7.34024E-2,-3.21273E-2
-6.92520E-2,-1.65824E-2
-7.13768E-2,-0.36048E-2
-7.22808E-2,0.89569E-2
-7.36351E-2,2.74200E-2
-6.14681E-2,5.10292E-2
-4.72526E-2,6.31790E-2
-3.97300E-2,7.64274E-2
-3.17878E-2,8.43277E-2
-2.74505E-2,8.95500E-2
-1.56936E-2,9.50431E-2
0.52909E-2,8.90846E-2
2.37731E-2,8.22563E-2
4.71534E-2,7.77435E-2
6.52504E-2,7.16018E-2
7.81784E-2,7.30018E-2
1.02390E-1,7.03773E-2
1.15097E-1,5.33981E-2
1.26243E-1,0.40374E-1
1.36627E-1,0.22514E-1
1.39297E-1,0.10314E-1
1.45507E-1,0.04798E-1
1.48239E-1,-0.17364E-1
1.44134E-1,-0.36529E-1
1.41807E-1,-0.64659E-1
END
