CITIFILE A.01.01
#NA VERSION HP8510C.08.10
NAME DATA
#NA REGISTER 1
VAR FREQ MAG 201
DATA S[1,1] RI
DATA S[2,1] RI
DATA S[1,2] RI
DATA S[2,2] RI
SEG_LIST_BEGIN
SEG 8000000000 12000000000 201
SEG_LIST_END
COMMENT       YEAR MONTH DAY HOUR MINUTE SECONDS
CONSTANT TIME 2013   09   26  20    35    14.0
BEGIN
-4.79064E-1,-2.50061E-1
-5.01464E-1,-1.97113E-1
-5.22979E-1,-1.32171E-1
-5.39733E-1,-0.83221E-1
-5.54901E-1,-0.28228E-1
-5.45593E-1,0.18981E-1
-5.36651E-1,0.72509E-1
-5.19653E-1,1.28295E-1
-5.14526E-1,1.94030E-1
-4.96231E-1,2.50717E-1
-4.73617E-1,2.86529E-1
-4.39346E-1,3.22509E-1
-4.00482E-1,3.58245E-1
-3.60000E-1,4.15313E-1
-3.13339E-1,4.56344E-1
-2.76702E-1,4.85443E-1
-2.32147E-1,5.03753E-1
-1.83136E-1,5.10986E-1
-1.32019E-1,5.33966E-1
-0.56701E-1,5.47210E-1
-0.03784E-1,5.52795E-1
0.40985E-1,5.54138E-1
0.82214E-1,5.39764E-1
1.31195E-1,5.20996E-1
1.87469E-1,5.00183E-1
2.38693E-1,4.86526E-1
2.83615E-1,4.68460E-1
3.17993E-1,4.43634E-1
3.51501E-1,4.01870E-1
3.80432E-1,3.68652E-1
4.29763E-1,3.26034E-1
4.65408E-1,2.74063E-1
4.84085E-1,2.38815E-1
4.94384E-1,1.92825E-1
5.00335E-1,1.55487E-1
5.21850E-1,0.82946E-1
5.16937E-1,0.23773E-1
5.22766E-1,-0.14129E-1
5.26977E-1,-0.54138E-1
5.07537E-1,-1.01196E-1
4.86312E-1,-1.53686E-1
4.56588E-1,-1.99493E-1
4.41024E-1,-2.47100E-1
4.25186E-1,-2.84011E-1
3.97949E-1,-3.20236E-1
3.66638E-1,-3.41507E-1
3.13461E-1,-3.70880E-1
2.74368E-1,-3.96438E-1
2.39944E-1,-4.25567E-1
2.13256E-1,-4.52972E-1
1.63147E-1,-4.57580E-1
1.23443E-1,-4.54071E-1
0.80841E-1,-4.58557E-1
0.32363E-1,-4.69238E-1
-0.07919E-1,-4.74441E-1
-0.47424E-1,-4.73709E-1
-0.79376E-1,-4.62280E-1
-1.21536E-1,-4.38919E-1
-1.64367E-1,-4.20562E-1
-2.02255E-1,-4.00680E-1
-2.30896E-1,-3.98437E-1
-2.61322E-1,-3.73275E-1
-2.75528E-1,-3.37371E-1
-2.97699E-1,-3.12637E-1
-3.34411E-1,-2.81784E-1
-3.58444E-1,-2.56530E-1
-3.80905E-1,-2.31308E-1
-3.87985E-1,-2.08023E-1
-3.89663E-1,-1.66427E-1
-3.96484E-1,-1.24420E-1
-4.02328E-1,-0.86364E-1
-4.21600E-1,-0.6633E-1
-4.22927E-1,-0.36804E-1
-4.00955E-1,-0.14892E-1
-3.94073E-1,0.06088E-1
-3.92669E-1,0.47699E-1
-3.97201E-1,0.84289E-1
-3.95477E-1,1.13098E-1
-3.93112E-1,1.27227E-1
-3.79379E-1,1.46163E-1
-3.60122E-1,1.84463E-1
-3.26644E-1,2.22686E-1
-3.15902E-1,2.48138E-1
-3.11660E-1,2.74719E-1
-2.91534E-1,2.82867E-1
-2.72674E-1,2.97363E-1
-2.29827E-1,3.24325E-1
-2.00042E-1,3.44879E-1
-1.75155E-1,3.73138E-1
-1.55212E-1,3.87481E-1
-1.35055E-1,3.95004E-1
-0.92636E-1,4.05532E-1
-0.39733E-1,3.96301E-1
-0.08773E-1,4.07760E-1
0.28701E-1,4.19662E-1
0.53237E-1,4.14199E-1
0.77774E-1,4.08554E-1
1.24481E-1,3.91006E-1
1.71371E-1,3.78326E-1
2.22412E-1,3.65692E-1
2.56576E-1,3.53637E-1
2.81768E-1,3.39141E-1
3.23761E-1,3.01208E-1
3.50723E-1,2.35626E-1
3.81866E-1,1.90902E-1
4.16656E-1,1.52099E-1
4.26986E-1,1.16516E-1
4.33486E-1,0.74646E-1
4.19754E-1,0.10406E-1
4.16580E-1,-0.45547E-1
4.23385E-1,-1.09344E-1
4.18350E-1,-1.53854E-1
4.06692E-1,-1.84951E-1
3.74893E-1,-2.31262E-1
3.22998E-1,-2.82302E-1
2.80151E-1,-3.37402E-1
2.45437E-1,-3.80111E-1
2.17819E-1,-4.05090E-1
1.72210E-1,-4.18426E-1
1.11282E-1,-4.17327E-1
0.50231E-1,-4.40689E-1
-0.15716E-1,-4.60403E-1
-0.56243E-1,-4.73724E-1
-0.93444E-1,-4.69802E-1
-1.40045E-1,-4.48516E-1
-2.06527E-1,-4.26483E-1
-2.81036E-1,-3.97537E-1
-3.24661E-1,-3.79333E-1
-3.58734E-1,-3.65066E-1
-3.86093E-1,-3.23440E-1
-4.12689E-1,-2.68096E-1
-4.60907E-1,-2.05230E-1
-4.92904E-1,-1.59454E-1
-5.16479E-1,-1.35681E-1
-5.27343E-1,-1.00006E-1
-5.21850E-1,-0.44067E-1
-5.27404E-1,0.30304E-1
-5.27435E-1,1.05987E-1
-5.37628E-1,1.41601E-1
-5.40618E-1,1.71630E-1
-5.14160E-1,2.0755E-1
-4.72839E-1,2.64831E-1
-4.28985E-1,3.35540E-1
-4.07043E-1,3.84079E-1
-4.0242E-1,4.19677E-1
-3.75518E-1,4.37698E-1
-3.24066E-1,4.53537E-1
-2.57309E-1,4.86496E-1
-1.89697E-1,5.27587E-1
-1.63940E-1,5.51971E-1
-1.48864E-1,5.72021E-1
-1.12274E-1,5.71319E-1
-0.40985E-1,5.59326E-1
0.44311E-1,5.49072E-1
1.02539E-1,5.49011E-1
1.33819E-1,5.64697E-1
1.64703E-1,5.64605E-1
2.02362E-1,5.24719E-1
2.46185E-1,4.77859E-1
3.04229E-1,4.40811E-1
3.46649E-1,4.22912E-1
3.80981E-1,4.23629E-1
4.07791E-1,3.89846E-1
4.25735E-1,3.29101E-1
4.51400E-1,2.62710E-1
4.83413E-1,2.07580E-1
5.09735E-1,1.69830E-1
5.21667E-1,1.34796E-1
5.07904E-1,0.82763E-1
4.80590E-1,0.28396E-1
4.74868E-1,-0.29998E-1
4.68658E-1,-0.75805E-1
4.76684E-1,-1.01028E-1
4.61792E-1,-1.32446E-1
4.22836E-1,-1.63772E-1
3.86505E-1,-2.12356E-1
3.52096E-1,-2.65457E-1
3.39233E-1,-2.97561E-1
3.28247E-1,-3.25180E-1
2.87612E-1,-3.31741E-1
2.39624E-1,-3.31939E-1
1.81396E-1,-3.57711E-1
1.36840E-1,-3.77258E-1
1.24954E-1,-4.09561E-1
1.03256E-1,-4.15832E-1
0.81085E-1,-3.93936E-1
0.32699E-1,-3.84460E-1
-0.41458E-1,-3.79440E-1
-0.87631E-1,-3.89679E-1
-1.18911E-1,-4.06417E-1
-1.28295E-1,-3.90502E-1
-1.35070E-1,-3.65387E-1
-1.90109E-1,-3.26232E-1
-2.37716E-1,-2.75283E-1
-2.76657E-1,-2.76046E-1
-2.97714E-1,-2.73666E-1
-2.84057E-1,-2.63870E-1
-2.94433E-1,-2.37136E-1
-3.25012E-1,-1.57791E-1
-3.44421E-1,-1.14624E-1
-3.79776E-1,-0.99304E-1
END
BEGIN
-8.76007E-1,1.01196E-1
-7.93396E-1,1.84936E-1
-8.00567E-1,2.20153E-1
-7.81768E-1,3.51928E-1
-7.11669E-1,4.15802E-1
-6.65374E-1,5.12908E-1
-5.31799E-1,5.53009E-1
-4.94720E-1,5.15472E-1
-4.94842E-1,5.71502E-1
-4.36462E-1,6.12182E-1
-4.06799E-1,6.66381E-1
-2.91992E-1,7.09411E-1
-2.50915E-1,6.60705E-1
-2.67211E-1,7.25036E-1
-1.56768E-1,7.89703E-1
-0.93414E-1,7.94921E-1
0.20019E-1,8.31512E-1
1.05926E-1,7.48199E-1
0.88897E-1,7.50457E-1
1.81182E-1,8.01788E-1
2.56469E-1,7.79663E-1
3.58154E-1,8.08013E-1
4.90509E-1,7.09137E-1
4.89837E-1,6.46881E-1
5.82763E-1,6.44653E-1
6.51428E-1,5.37628E-1
6.93176E-1,5.01159E-1
7.83508E-1,3.66485E-1
7.06176E-1,2.46154E-1
6.86920E-1,2.57598E-1
7.16339E-1,2.06970E-1
7.13684E-1,1.89025E-1
7.92633E-1,1.39221E-1
7.64404E-1,0.25238E-1
7.46490E-1,0.40100E-1
8.32366E-1,0.00183E-1
8.67065E-1,-0.93811E-1
9.35241E-1,-2.16400E-1
8.53515E-1,-4.27520E-1
7.20794E-1,-4.34753E-1
7.37335E-1,-4.73419E-1
6.68060E-1,-5.69061E-1
6.32934E-1,-6.03027E-1
5.64941E-1,-7.21344E-1
4.28741E-1,-7.10510E-1
4.42108E-1,-7.01965E-1
3.85131E-1,-7.98461E-1
3.07342E-1,-8.11279E-1
2.53356E-1,-9.01977E-1
0.55114E-1,-9.24591E-1
-0.12176E-1,-8.28582E-1
-0.51544E-1,-8.32885E-1
-1.18591E-1,-7.97485E-1
-1.36505E-1,-8.01452E-1
-2.40295E-1,-8.18725E-1
-3.03314E-1,-7.48413E-1
-3.30688E-1,-7.47528E-1
-4.05242E-1,-7.25494E-1
-4.43603E-1,-7.20336E-1
-5.73883E-1,-7.26074E-1
-6.75140E-1,-5.82916E-1
-6.68548E-1,-5.06225E-1
-7.09625E-1,-4.40338E-1
-6.88873E-1,-3.74084E-1
-7.25036E-1,-3.83667E-1
-8.00628E-1,-2.93304E-1
-7.76397E-1,-2.19696E-1
-8.09783E-1,-1.95037E-1
-8.40454E-1,-1.19995E-1
-8.76831E-1,-0.68603E-1
-9.31945E-1,0.64392E-1
-8.59008E-1,1.91192E-1
-8.25378E-1,2.39440E-1
-7.74536E-1,3.26507E-1
-7.12066E-1,3.43139E-1
-7.12646E-1,3.82843E-1
-6.65466E-1,4.38690E-1
-6.49932E-1,4.55535E-1
-6.37085E-1,5.25451E-1
-5.89508E-1,5.62408E-1
-5.94696E-1,6.16027E-1
-5.44342E-1,7.21099E-1
-4.63256E-1,7.75390E-1
-3.74816E-1,8.41400E-1
-2.53997E-1,8.31115E-1
-2.34649E-1,8.23577E-1
-1.62262E-1,8.90014E-1
-0.61157E-1,8.71185E-1
-0.21881E-1,8.77624E-1
0.65063E-1,8.86169E-1
1.06872E-1,8.71307E-1
1.82617E-1,9.29016E-1
3.36090E-1,9.09393E-1
4.14581E-1,8.41949E-1
4.97802E-1,7.93304E-1
5.44250E-1,7.03033E-1
5.71563E-1,6.71386E-1
6.38336E-1,6.15631E-1
6.52648E-1,5.53497E-1
6.94335E-1,5.39794E-1
7.55249E-1,4.85382E-1
7.86346E-1,4.42291E-1
8.62640E-1,3.94714E-1
9.12323E-1,2.95105E-1
9.487E-1,2.16125E-1
1.00183E0,0.95886E-1
9.67926E-1,-0.37384E-1
9.37133E-1,-1.05529E-1
9.21417E-1,-1.92382E-1
8.81469E-1,-2.69409E-1
8.52050E-1,-3.45459E-1
7.90069E-1,-4.20227E-1
7.46032E-1,-4.46716E-1
7.35534E-1,-5.01617E-1
6.96014E-1,-5.75164E-1
6.39801E-1,-6.39465E-1
5.68573E-1,-7.05566E-1
4.84893E-1,-7.39746E-1
4.22058E-1,-7.70507E-1
3.40057E-1,-8.05816E-1
2.60528E-1,-8.00994E-1
2.04071E-1,-8.01574E-1
1.36596E-1,-8.04595E-1
0.78094E-1,-7.96752E-1
0.20568E-1,-7.97027E-1
-0.39459E-1,-7.89306E-1
-0.83129E-1,-7.75054E-1
-1.28601E-1,-7.80639E-1
-1.99646E-1,-7.77526E-1
-2.73620E-1,-7.57934E-1
-3.45459E-1,-7.16033E-1
-3.862E-1,-6.68396E-1
-4.17419E-1,-6.43371E-1
-4.62097E-1,-6.15600E-1
-5.07782E-1,-5.77575E-1
-5.48309E-1,-5.31341E-1
-5.74157E-1,-4.81018E-1
-5.95092E-1,-4.49279E-1
-6.37176E-1,-4.24652E-1
-6.82006E-1,-3.76129E-1
-7.14782E-1,-3.24188E-1
-7.45727E-1,-2.58300E-1
-7.57049E-1,-1.89941E-1
-7.66418E-1,-1.33453E-1
-7.71759E-1,-0.73944E-1
-7.75146E-1,-0.16418E-1
-7.72399E-1,0.50537E-1
-7.50854E-1,1.03851E-1
-7.30560E-1,1.45416E-1
-7.2995E-1,1.73980E-1
-7.40997E-1,2.28759E-1
-7.41668E-1,2.95929E-1
-7.21069E-1,3.73748E-1
-6.77063E-1,4.33319E-1
-6.40045E-1,4.65057E-1
-6.27807E-1,5.13885E-1
-5.87188E-1,5.83404E-1
-5.26763E-1,6.33789E-1
-4.78485E-1,6.68823E-1
-4.28985E-1,6.96655E-1
-3.98407E-1,7.29766E-1
-3.51440E-1,7.89672E-1
-2.79571E-1,8.30474E-1
-2.03308E-1,8.65539E-1
-1.15203E-1,8.85498E-1
-0.41595E-1,8.9151E-1
0.31219E-1,9.03717E-1
1.22863E-1,9.01641E-1
2.05444E-1,8.75549E-1
2.78259E-1,8.43353E-1
3.42804E-1,8.04290E-1
3.80004E-1,7.77069E-1
4.52453E-1,7.66998E-1
5.17669E-1,7.30316E-1
5.83709E-1,6.90216E-1
6.41845E-1,6.24298E-1
6.75872E-1,5.68237E-1
7.33520E-1,5.22399E-1
7.76123E-1,4.48730E-1
8.11767E-1,3.88580E-1
8.43811E-1,3.14331E-1
8.54736E-1,2.44628E-1
8.76007E-1,1.85577E-1
8.87725E-1,0.93109E-1
8.84460E-1,0.33996E-1
8.99566E-1,-0.45532E-1
8.76892E-1,-1.18011E-1
8.78936E-1,-1.74224E-1
8.58947E-1,-2.67364E-1
8.05572E-1,-3.15002E-1
7.97699E-1,-3.70239E-1
7.57843E-1,-4.38690E-1
7.48748E-1,-4.86358E-1
7.19818E-1,-5.86242E-1
6.28601E-1,-6.45294E-1
5.85998E-1,-6.69525E-1
5.16815E-1,-7.25250E-1
4.64141E-1,-7.29400E-1
4.37683E-1,-8.05450E-1
3.09967E-1,-8.57971E-1
2.44842E-1,-8.25225E-1
END
BEGIN
-7.66967E-1,0.89965E-1
-7.89459E-1,1.55212E-1
-7.14477E-1,2.68463E-1
-6.69799E-1,2.38586E-1
-7.44842E-1,3.07128E-1
-6.80664E-1,4.30511E-1
-6.54266E-1,4.69970E-1
-5.89141E-1,5.87799E-1
-4.86724E-1,5.72570E-1
-5.30517E-1,5.96008E-1
-4.66552E-1,7.33337E-1
-3.65203E-1,7.60345E-1
-2.71637E-1,8.23761E-1
-1.38183E-1,7.87475E-1
-1.45385E-1,7.60650E-1
-0.77087E-1,8.52508E-1
0.41076E-1,8.36761E-1
1.16943E-1,8.53790E-1
2.69348E-1,7.89062E-1
2.58331E-1,6.80145E-1
2.63793E-1,7.30224E-1
3.76495E-1,7.12554E-1
4.14123E-1,6.84509E-1
5.32531E-1,6.61865E-1
5.63232E-1,5.32623E-1
5.40130E-1,5.34545E-1
6.36596E-1,5.23193E-1
6.81213E-1,4.53338E-1
7.68310E-1,4.09057E-1
8.09448E-1,2.46215E-1
7.36999E-1,1.95373E-1
7.80761E-1,1.91406E-1
8.12316E-1,1.22955E-1
8.73901E-1,0.71319E-1
9.01977E-1,-1.16272E-1
7.63305E-1,-1.95953E-1
7.58789E-1,-1.71569E-1
7.86071E-1,-2.40753E-1
8.02093E-1,-3.02703E-1
8.14178E-1,-4.69360E-1
6.33728E-1,-5.67443E-1
5.71044E-1,-5.06866E-1
5.82489E-1,-5.43151E-1
5.62774E-1,-5.85632E-1
5.73913E-1,-7.02117E-1
4.02130E-1,-8.28918E-1
2.87628E-1,-7.49877E-1
2.89764E-1,-7.55249E-1
2.35504E-1,-7.84332E-1
2.22961E-1,-8.37554E-1
0.70465E-1,-9.55322E-1
-1.03088E-1,-8.57452E-1
-1.05773E-1,-7.95532E-1
-1.53503E-1,-7.95776E-1
-1.68426E-1,-7.86132E-1
-2.52960E-1,-8.68804E-1
-4.41864E-1,-7.93212E-1
-4.50897E-1,-6.73339E-1
-4.73022E-1,-6.55365E-1
-4.95941E-1,-6.17492E-1
-5.36590E-1,-6.59759E-1
-7.11883E-1,-6.0672E-1
-7.29003E-1,-4.38537E-1
-7.04681E-1,-3.93676E-1
-7.17071E-1,-3.38745E-1
-7.13470E-1,-3.44085E-1
-8.44360E-1,-3.34381E-1
-9.02099E-1,-1.48956E-1
-8.34655E-1,-0.73852E-1
-8.37402E-1,-0.29235E-1
-8.20526E-1,0.10559E-1
-8.8974E-1,0.29205E-1
-9.487E-1,2.10907E-1
-8.36639E-1,3.30871E-1
-7.92327E-1,3.58917E-1
-7.47375E-1,4.16351E-1
-7.30957E-1,4.27276E-1
-7.60284E-1,5.31860E-1
-6.57043E-1,6.58325E-1
-5.62255E-1,6.78649E-1
-4.94903E-1,7.03491E-1
-4.56176E-1,6.96929E-1
-4.62921E-1,7.60772E-1
-3.55346E-1,8.61480E-1
-2.45880E-1,8.52142E-1
-1.72882E-1,8.70849E-1
-0.76934E-1,8.39813E-1
-0.76171E-1,8.18359E-1
-0.31127E-1,8.94195E-1
0.94665E-1,9.01916E-1
1.69403E-1,8.80554E-1
2.66662E-1,8.47503E-1
2.96112E-1,7.89306E-1
3.27209E-1,8.18420E-1
4.44946E-1,8.20861E-1
5.36254E-1,7.66937E-1
6.28845E-1,6.91223E-1
6.41387E-1,5.80108E-1
6.31835E-1,5.74554E-1
7.29827E-1,5.61370E-1
8.02398E-1,4.66766E-1
8.50585E-1,3.83392E-1
8.64502E-1,2.60955E-1
8.2547E-1,2.15850E-1
8.72924E-1,1.93512E-1
9.12841E-1,0.94696E-1
9.17785E-1,0.16082E-1
9.25750E-1,-1.07055E-1
8.43689E-1,-1.89849E-1
8.30902E-1,-1.98730E-1
8.55072E-1,-2.82226E-1
8.26507E-1,-3.70910E-1
7.91961E-1,-4.71649E-1
6.76055E-1,-5.41626E-1
6.20422E-1,-5.21545E-1
6.23870E-1,-5.66314E-1
5.79986E-1,-6.41815E-1
5.18920E-1,-7.13104E-1
4.0448E-1,-7.56378E-1
3.30993E-1,-7.17498E-1
3.24768E-1,-7.17559E-1
2.88543E-1,-7.69989E-1
2.15087E-1,-8.14209E-1
1.07696E-1,-8.4021E-1
0.16937E-1,-7.92144E-1
0.03295E-1,-7.62390E-1
-0.23986E-1,-7.86987E-1
-0.94390E-1,-8.12164E-1
-1.94488E-1,-8.11187E-1
-2.87200E-1,-7.39685E-1
-2.96295E-1,-6.81854E-1
-3.07220E-1,-6.86370E-1
-3.66912E-1,-7.00927E-1
-4.54132E-1,-6.76879E-1
-5.21575E-1,-6.04187E-1
-5.37414E-1,-5.40710E-1
-5.51178E-1,-5.09307E-1
-5.84045E-1,-4.95971E-1
-6.46148E-1,-4.66247E-1
-7.00836E-1,-3.98254E-1
-7.17681E-1,-3.19702E-1
-7.20611E-1,-2.63641E-1
-7.26440E-1,-2.29553E-1
-7.63244E-1,-2.00286E-1
-8.01544E-1,-1.31378E-1
-8.04657E-1,-0.50659E-1
-7.95898E-1,0.11749E-1
-7.84423E-1,0.65673E-1
-7.99835E-1,1.04797E-1
-8.24981E-1,1.86065E-1
-8.04779E-1,2.77069E-1
-7.56744E-1,3.40789E-1
-7.14355E-1,3.86230E-1
-6.87957E-1,4.15100E-1
-6.92169E-1,4.81475E-1
-6.49963E-1,5.69397E-1
-5.91522E-1,6.26190E-1
-5.31646E-1,6.69555E-1
-4.67651E-1,6.92230E-1
-4.33349E-1,7.23480E-1
-3.63372E-1,7.89856E-1
-2.76092E-1,8.12774E-1
-2.15087E-1,8.27911E-1
-1.41754E-1,8.35937E-1
-0.95550E-1,8.22570E-1
-0.48431E-1,8.51867E-1
0.44525E-1,8.57055E-1
1.10717E-1,8.43933E-1
1.84295E-1,8.38378E-1
2.42919E-1,8.08593E-1
2.87262E-1,8.01422E-1
3.68957E-1,7.85308E-1
4.30450E-1,7.42553E-1
4.95086E-1,7.08740E-1
5.49621E-1,6.55059E-1
5.82366E-1,6.18804E-1
6.4151E-1,5.88653E-1
6.89453E-1,5.21759E-1
7.23663E-1,4.69848E-1
7.68127E-1,4.07867E-1
7.97332E-1,3.44635E-1
8.2724E-1,2.90649E-1
8.54370E-1,2.15240E-1
8.60473E-1,1.51153E-1
8.78936E-1,0.80169E-1
8.82507E-1,0.02899E-1
8.79608E-1,-0.69580E-1
8.78418E-1,-1.42028E-1
8.56903E-1,-2.07428E-1
8.41369E-1,-2.67272E-1
8.18481E-1,-3.34075E-1
7.95471E-1,-4.10034E-1
7.55828E-1,-4.79034E-1
7.13501E-1,-5.43914E-1
6.67053E-1,-5.94238E-1
6.21612E-1,-6.35528E-1
5.85418E-1,-6.84478E-1
5.14495E-1,-7.50640E-1
4.31793E-1,-7.95410E-1
3.53057E-1,-8.13324E-1
2.99438E-1,-8.21380E-1
END
BEGIN
-5.40222E-1,-1.17981E-1
-5.58990E-1,-0.57617E-1
-5.66833E-1,0.02075E-1
-5.72235E-1,0.51788E-1
-5.69702E-1,1.21032E-1
-5.50537E-1,1.84021E-1
-5.31494E-1,2.55218E-1
-5.03326E-1,3.10791E-1
-4.78790E-1,3.67324E-1
-4.40933E-1,4.17083E-1
-3.99276E-1,4.58374E-1
-3.46557E-1,5.01373E-1
-2.92694E-1,5.34393E-1
-2.36480E-1,5.74371E-1
-1.78222E-1,5.93841E-1
-1.17645E-1,6.09436E-1
-0.50689E-1,6.20666E-1
0.18035E-1,6.20483E-1
0.80932E-1,6.22894E-1
1.47583E-1,6.02264E-1
2.00439E-1,5.82672E-1
2.57293E-1,5.54687E-1
3.14300E-1,5.19836E-1
3.72055E-1,4.71954E-1
4.17129E-1,4.19433E-1
4.55581E-1,3.77243E-1
4.90966E-1,3.17565E-1
5.18035E-1,2.57843E-1
5.38085E-1,1.80175E-1
5.46844E-1,1.21124E-1
5.59173E-1,0.58258E-1
5.59021E-1,-0.04760E-1
5.48492E-1,-0.55114E-1
5.31951E-1,-1.11450E-1
5.10437E-1,-1.55578E-1
4.83688E-1,-2.23587E-1
4.42871E-1,-2.66815E-1
4.10949E-1,-3.01834E-1
3.80691E-1,-3.42834E-1
3.21060E-1,-3.80127E-1
2.68005E-1,-4.03732E-1
2.20733E-1,-4.18533E-1
1.69265E-1,-4.38156E-1
1.26007E-1,-4.48364E-1
0.65002E-1,-4.65011E-1
0.15564E-1,-4.55535E-1
-0.33371E-1,-4.45755E-1
-0.79925E-1,-4.36584E-1
-1.21917E-1,-4.14520E-1
-1.67038E-1,-4.09103E-1
-2.27920E-1,-3.61526E-1
-2.50824E-1,-3.32336E-1
-2.87307E-1,-3.17504E-1
-3.23364E-1,-2.84591E-1
-3.45947E-1,-2.55584E-1
-3.76693E-1,-2.11090E-1
-3.83880E-1,-1.69540E-1
-4.00939E-1,-1.33285E-1
-4.16626E-1,-0.86624E-1
-4.11895E-1,-0.44677E-1
-4.27963E-1,-0.08819E-1
-4.14032E-1,0.5513E-1
-4.00985E-1,0.84075E-1
-4.07943E-1,1.2854E-1
-3.91052E-1,1.80099E-1
-3.76663E-1,2.14401E-1
-3.54400E-1,2.65853E-1
-3.27224E-1,2.88711E-1
-3.05175E-1,3.19305E-1
-2.64602E-1,3.45642E-1
-2.24777E-1,3.52249E-1
-1.88751E-1,3.92578E-1
-1.20330E-1,4.0979E-1
-0.83114E-1,4.15069E-1
-0.43151E-1,4.37164E-1
0.06744E-1,4.36126E-1
0.54473E-1,4.34570E-1
1.13845E-1,4.19601E-1
1.55624E-1,4.11254E-1
2.00134E-1,4.08554E-1
2.43789E-1,3.89083E-1
2.68951E-1,3.51165E-1
2.96783E-1,3.19183E-1
3.33938E-1,2.77160E-1
3.67340E-1,2.36373E-1
4.02999E-1,1.92153E-1
4.16305E-1,1.42776E-1
4.25918E-1,1.07879E-1
4.34600E-1,0.52429E-1
4.36142E-1,0.02685E-1
4.39361E-1,-0.43365E-1
4.34539E-1,-0.89935E-1
4.09347E-1,-1.20697E-1
3.98056E-1,-1.56982E-1
3.73779E-1,-2.08496E-1
3.43215E-1,-2.55218E-1
3.13293E-1,-2.94647E-1
2.81463E-1,-3.22128E-1
2.50396E-1,-3.50112E-1
2.02117E-1,-3.76800E-1
1.62811E-1,-4.00253E-1
1.32843E-1,-4.29550E-1
0.95626E-1,-4.54940E-1
0.63736E-1,-4.44702E-1
0.39505E-1,-4.40994E-1
-0.07751E-1,-4.40490E-1
-0.58792E-1,-4.43573E-1
-1.23168E-1,-4.44763E-1
-1.58523E-1,-4.17602E-1
-1.71127E-1,-4.11773E-1
-2.10723E-1,-3.97460E-1
-2.49420E-1,-3.68225E-1
-2.94448E-1,-3.45779E-1
-3.28689E-1,-3.15643E-1
-3.37890E-1,-3.00872E-1
-3.58520E-1,-2.90908E-1
-3.76709E-1,-2.60376E-1
-3.99459E-1,-2.25830E-1
-4.15512E-1,-1.73706E-1
-4.08767E-1,-1.4534E-1
-4.27078E-1,-1.35772E-1
-4.50088E-1,-1.03073E-1
-4.62677E-1,-0.65643E-1
-4.69772E-1,-0.23696E-1
-4.65759E-1,0.02700E-1
-4.73739E-1,0.19958E-1
-4.85855E-1,0.46752E-1
-4.90295E-1,0.84930E-1
-4.83535E-1,1.22528E-1
-4.66629E-1,1.51992E-1
-4.61257E-1,1.68518E-1
-4.62158E-1,1.98211E-1
-4.58526E-1,2.41439E-1
-4.37530E-1,2.86422E-1
-4.16687E-1,3.12896E-1
-4.09164E-1,3.39706E-1
-3.90289E-1,3.72085E-1
-3.74923E-1,4.01336E-1
-3.50051E-1,4.42184E-1
-3.19107E-1,4.63668E-1
-3.01864E-1,4.75647E-1
-2.75665E-1,4.93270E-1
-2.42095E-1,5.02990E-1
-2.10357E-1,5.30792E-1
-1.59759E-1,5.58715E-1
-1.22131E-1,5.65948E-1
-0.91125E-1,5.77697E-1
-0.44372E-1,5.76629E-1
0.01983E-1,5.85113E-1
0.78857E-1,5.94116E-1
1.22802E-1,5.79650E-1
1.41632E-1,5.88653E-1
1.75933E-1,5.86120E-1
2.03460E-1,5.59356E-1
2.52807E-1,5.46722E-1
3.11492E-1,5.04272E-1
3.45169E-1,4.83581E-1
3.85711E-1,4.69055E-1
4.15878E-1,4.24758E-1
4.40658E-1,3.85269E-1
4.87533E-1,3.2547E-1
5.10284E-1,2.76733E-1
5.44677E-1,2.54303E-1
5.77819E-1,2.10693E-1
5.64178E-1,1.63421E-1
5.68573E-1,1.33026E-1
5.77789E-1,0.64941E-1
5.73730E-1,0.11993E-1
5.81634E-1,-0.36956E-1
5.47119E-1,-0.94238E-1
5.10650E-1,-1.15478E-1
4.90158E-1,-1.75811E-1
4.50882E-1,-2.35611E-1
4.31762E-1,-2.89062E-1
3.96423E-1,-3.41522E-1
3.50784E-1,-3.40072E-1
3.34777E-1,-3.56079E-1
2.74963E-1,-3.90869E-1
2.19986E-1,-4.11071E-1
1.70242E-1,-4.43679E-1
1.16500E-1,-4.35180E-1
1.05697E-1,-4.20700E-1
0.52337E-1,-4.23111E-1
-0.13382E-1,-4.01138E-1
-0.74020E-1,-4.07745E-1
-1.44180E-1,-3.94592E-1
-1.46789E-1,-3.69751E-1
-1.66458E-1,-3.75061E-1
-2.01828E-1,-3.30444E-1
-2.25585E-1,-3.06121E-1
-2.89077E-1,-2.82928E-1
-3.06228E-1,-2.34771E-1
-2.99560E-1,-2.29202E-1
-3.09188E-1,-1.89559E-1
-3.04534E-1,-1.43783E-1
-3.49243E-1,-0.99304E-1
-3.73031E-1,-0.24810E-1
-3.53729E-1,-0.20599E-1
-3.62884E-1,-0.06729E-1
-3.33389E-1,0.20233E-1
-3.48968E-1,0.53100E-1
END
