CITIFILE A.01.01
#NA VERSION HP8510C.08.10
NAME DATA
#NA REGISTER 1
VAR FREQ MAG 201
DATA S[1,1] RI
DATA S[2,1] RI
DATA S[1,2] RI
DATA S[2,2] RI
SEG_LIST_BEGIN
SEG 8000000000 12000000000 201
SEG_LIST_END
COMMENT       YEAR MONTH DAY HOUR MINUTE SECONDS
CONSTANT TIME 2013   09   26  20    31    35.0
BEGIN
-4.78591E-1,-2.51556E-1
-5.01068E-1,-1.99066E-1
-5.20782E-1,-1.34521E-1
-5.38421E-1,-0.87860E-1
-5.51879E-1,-0.32897E-1
-5.44189E-1,0.13580E-1
-5.36590E-1,0.66986E-1
-5.21423E-1,1.21185E-1
-5.16540E-1,1.86431E-1
-4.99115E-1,2.42553E-1
-4.76730E-1,2.80014E-1
-4.43115E-1,3.18222E-1
-4.04876E-1,3.5466E-1
-3.64929E-1,4.11804E-1
-3.18420E-1,4.52484E-1
-2.80624E-1,4.82391E-1
-2.35046E-1,5.01342E-1
-1.85791E-1,5.08789E-1
-1.34399E-1,5.33355E-1
-0.57922E-1,5.45318E-1
-0.05889E-1,5.51666E-1
0.40435E-1,5.51422E-1
0.82824E-1,5.37506E-1
1.31408E-1,5.17974E-1
1.86431E-1,4.97283E-1
2.35885E-1,4.83398E-1
2.79998E-1,4.64065E-1
3.14315E-1,4.40017E-1
3.48281E-1,3.98819E-1
3.78418E-1,3.66729E-1
4.28070E-1,3.25164E-1
4.63363E-1,2.74932E-1
4.82742E-1,2.388E-1
4.93698E-1,1.92489E-1
5.02441E-1,1.54144E-1
5.24139E-1,0.78887E-1
5.18890E-1,0.20080E-1
5.23040E-1,-0.18341E-1
5.25909E-1,-0.59143E-1
5.05157E-1,-1.06262E-1
4.84054E-1,-1.58477E-1
4.54315E-1,-2.03857E-1
4.38369E-1,-2.50473E-1
4.22958E-1,-2.87002E-1
3.95828E-1,-3.22799E-1
3.63861E-1,-3.45413E-1
3.10241E-1,-3.74313E-1
2.71392E-1,-4.00192E-1
2.37304E-1,-4.27169E-1
2.10113E-1,-4.53857E-1
1.60812E-1,-4.56756E-1
1.21902E-1,-4.53826E-1
0.80337E-1,-4.59564E-1
0.31936E-1,-4.70367E-1
-0.07171E-1,-4.76257E-1
-0.46234E-1,-4.76211E-1
-0.79345E-1,-4.64767E-1
-1.22390E-1,-4.41909E-1
-1.65771E-1,-4.23248E-1
-2.03079E-1,-4.03808E-1
-2.31735E-1,-4.00772E-1
-2.62298E-1,-3.74847E-1
-2.74368E-1,-3.37860E-1
-2.95761E-1,-3.15216E-1
-3.33236E-1,-2.85415E-1
-3.57955E-1,-2.61306E-1
-3.80233E-1,-2.36648E-1
-3.88076E-1,-2.12539E-1
-3.90502E-1,-1.70867E-1
-3.98635E-1,-1.27243E-1
-4.03564E-1,-0.89462E-1
-4.21447E-1,-0.69854E-1
-4.20715E-1,-0.40725E-1
-3.97323E-1,-0.20538E-1
-3.91433E-1,-0.01098E-1
-3.91494E-1,0.39672E-1
-3.98071E-1,0.74676E-1
-3.97918E-1,1.01791E-1
-3.97171E-1,1.17782E-1
-3.84399E-1,1.37603E-1
-3.65814E-1,1.78848E-1
-3.31405E-1,2.18353E-1
-3.20205E-1,2.44491E-1
-3.15155E-1,2.71316E-1
-2.94143E-1,2.78076E-1
-2.76031E-1,2.92617E-1
-2.33734E-1,3.19366E-1
-2.04834E-1,3.40927E-1
-1.80389E-1,3.70086E-1
-1.60018E-1,3.85223E-1
-1.39450E-1,3.92929E-1
-0.96038E-1,4.04281E-1
-0.42572E-1,3.95462E-1
-0.10742E-1,4.06555E-1
0.26229E-1,4.18304E-1
0.51132E-1,4.11453E-1
0.77743E-1,4.05349E-1
1.22253E-1,3.84277E-1
1.66290E-1,3.75244E-1
2.16476E-1,3.65341E-1
2.52182E-1,3.54614E-1
2.79174E-1,3.39981E-1
3.22876E-1,3.01086E-1
3.51455E-1,2.35824E-1
3.83575E-1,1.90277E-1
4.17556E-1,1.49322E-1
4.26757E-1,1.12838E-1
4.31411E-1,0.69412E-1
4.16122E-1,0.05691E-1
4.12994E-1,-0.49499E-1
4.19693E-1,-1.12121E-1
4.14978E-1,-1.55365E-1
4.03671E-1,-1.86248E-1
3.71673E-1,-2.32605E-1
3.20282E-1,-2.84027E-1
2.78121E-1,-3.38882E-1
2.43362E-1,-3.81469E-1
2.14859E-1,-4.05395E-1
1.68090E-1,-4.18319E-1
1.07315E-1,-4.16595E-1
0.47226E-1,-4.39422E-1
-0.16006E-1,-4.59152E-1
-0.55282E-1,-4.72015E-1
-0.91110E-1,-4.69284E-1
-1.37695E-1,-4.48257E-1
-2.04269E-1,-4.28451E-1
-2.79510E-1,-3.99353E-1
-3.22586E-1,-3.84674E-1
-3.56475E-1,-3.69628E-1
-3.84475E-1,-3.27545E-1
-4.11514E-1,-2.71469E-1
-4.60815E-1,-2.09121E-1
-4.91561E-1,-1.64871E-1
-5.15441E-1,-1.42669E-1
-5.25421E-1,-1.07605E-1
-5.18981E-1,-0.51147E-1
-5.25421E-1,0.23132E-1
-5.26214E-1,1.00860E-1
-5.35858E-1,1.32629E-1
-5.40618E-1,1.57623E-1
-5.18890E-1,1.93267E-1
-4.79370E-1,2.53463E-1
-4.35943E-1,3.27941E-1
-4.13360E-1,3.78219E-1
-4.08065E-1,4.13665E-1
-3.81820E-1,4.32113E-1
-3.28933E-1,4.46502E-1
-2.61993E-1,4.79431E-1
-1.96167E-1,5.22155E-1
-1.70654E-1,5.47729E-1
-1.57897E-1,5.68756E-1
-1.21826E-1,5.68603E-1
-0.49652E-1,5.57189E-1
0.37597E-1,5.48889E-1
0.97076E-1,5.48858E-1
1.29730E-1,5.65918E-1
1.60614E-1,5.65399E-1
1.97174E-1,5.24475E-1
2.40036E-1,4.79476E-1
2.98843E-1,4.42703E-1
3.40438E-1,4.25323E-1
3.76068E-1,4.28237E-1
4.05410E-1,3.94912E-1
4.24606E-1,3.34640E-1
4.53247E-1,2.67028E-1
4.87793E-1,2.10052E-1
5.15045E-1,1.71295E-1
5.26367E-1,1.32110E-1
5.10925E-1,0.78125E-1
4.82086E-1,0.23651E-1
4.74868E-1,-0.36163E-1
4.67895E-1,-0.81008E-1
4.76242E-1,-1.05377E-1
4.61135E-1,-1.35055E-1
4.21844E-1,-1.65573E-1
3.86352E-1,-2.14386E-1
3.51959E-1,-2.68814E-1
3.41293E-1,-3.02566E-1
3.28384E-1,-3.31100E-1
2.86560E-1,-3.37478E-1
2.37594E-1,-3.37265E-1
1.77917E-1,-3.62106E-1
1.33758E-1,-3.80752E-1
1.23123E-1,-4.12597E-1
1.02722E-1,-4.18365E-1
0.81543E-1,-3.96545E-1
0.33050E-1,-3.88092E-1
-0.41412E-1,-3.84750E-1
-0.87738E-1,-3.97735E-1
-1.21856E-1,-4.14520E-1
-1.30996E-1,-3.97934E-1
-1.39221E-1,-3.72131E-1
-1.95358E-1,-3.31344E-1
-2.41409E-1,-2.78686E-1
-2.79373E-1,-2.80502E-1
-2.98919E-1,-2.7742E-1
-2.84042E-1,-2.68295E-1
-2.95089E-1,-2.41485E-1
-3.25820E-1,-1.63070E-1
-3.48190E-1,-1.21948E-1
-3.82644E-1,-1.07391E-1
END
BEGIN
-8.74511E-1,1.15875E-1
-7.91290E-1,1.97753E-1
-7.98675E-1,2.33886E-1
-7.76153E-1,3.65936E-1
-7.05078E-1,4.28009E-1
-6.55548E-1,5.23986E-1
-5.22399E-1,5.59539E-1
-4.89318E-1,5.21972E-1
-4.88006E-1,5.79345E-1
-4.28741E-1,6.19201E-1
-3.97277E-1,6.74804E-1
-2.81433E-1,7.13714E-1
-2.44995E-1,6.65344E-1
-2.57782E-1,7.33245E-1
-1.44439E-1,7.95257E-1
-0.81756E-1,8.00384E-1
0.34942E-1,8.32946E-1
1.16882E-1,7.47711E-1
1.00463E-1,7.53753E-1
1.96228E-1,8.02856E-1
2.71301E-1,7.78900E-1
3.74755E-1,8.04748E-1
5.04638E-1,7.01812E-1
5.03204E-1,6.41571E-1
5.97564E-1,6.36138E-1
6.62597E-1,5.27221E-1
7.05108E-1,4.88922E-1
7.90893E-1,3.50402E-1
7.10174E-1,2.35870E-1
6.94305E-1,2.47711E-1
7.22198E-1,1.95404E-1
7.21710E-1,1.77948E-1
7.98553E-1,1.23016E-1
7.64923E-1,0.11047E-1
7.49847E-1,0.27832E-1
8.35968E-1,-0.16265E-1
8.68347E-1,-1.11328E-1
9.33319E-1,-2.37487E-1
8.44451E-1,-4.45953E-1
7.12677E-1,-4.48120E-1
7.29461E-1,-4.88952E-1
6.57012E-1,-5.82489E-1
6.21002E-1,-6.16577E-1
5.49072E-1,-7.32971E-1
4.14611E-1,-7.17132E-1
4.29229E-1,-7.11578E-1
3.69659E-1,-8.06213E-1
2.92694E-1,-8.17749E-1
2.35199E-1,-9.08630E-1
0.35461E-1,-9.23126E-1
-0.26275E-1,-8.26934E-1
-0.65673E-1,-8.32214E-1
-1.33026E-1,-7.95227E-1
-1.51062E-1,-7.99896E-1
-2.56378E-1,-8.12561E-1
-3.15795E-1,-7.42401E-1
-3.44024E-1,-7.42462E-1
-4.17694E-1,-7.18353E-1
-4.56878E-1,-7.13439E-1
-5.89935E-1,-7.13531E-1
-6.83654E-1,-5.67413E-1
-6.74255E-1,-4.94140E-1
-7.15148E-1,-4.28741E-1
-6.94397E-1,-3.65417E-1
-7.33398E-1,-3.72741E-1
-8.05969E-1,-2.78930E-1
-7.79785E-1,-2.08313E-1
-8.14697E-1,-1.82556E-1
-8.43444E-1,-1.05560E-1
-8.80493E-1,-0.53772E-1
-9.30664E-1,0.82733E-1
-8.55346E-1,2.04071E-1
-8.21868E-1,2.52471E-1
-7.69775E-1,3.37768E-1
-7.09655E-1,3.53027E-1
-7.10144E-1,3.94470E-1
-6.60522E-1,4.48883E-1
-6.47094E-1,4.67407E-1
-6.30950E-1,5.38452E-1
-5.83679E-1,5.73852E-1
-5.87463E-1,6.30706E-1
-5.31463E-1,7.34344E-1
-4.50225E-1,7.86865E-1
-3.58642E-1,8.50860E-1
-2.40448E-1,8.36639E-1
-2.2052E-1,8.31939E-1
-1.44470E-1,8.96637E-1
-0.45440E-1,8.75396E-1
-0.05645E-1,8.82629E-1
0.83221E-1,8.88031E-1
1.23626E-1,8.73382E-1
2.03582E-1,9.29504E-1
3.56262E-1,9.04205E-1
4.31976E-1,8.35083E-1
5.14251E-1,7.84820E-1
5.57159E-1,6.96289E-1
5.85937E-1,6.67633E-1
6.57257E-1,6.05529E-1
6.68609E-1,5.43029E-1
7.11639E-1,5.25665E-1
7.70568E-1,4.68353E-1
8.00323E-1,4.25384E-1
8.75061E-1,3.74237E-1
9.21417E-1,2.72125E-1
9.55108E-1,1.92871E-1
1.00488E0,0.71899E-1
9.66247E-1,-0.59997E-1
9.34722E-1,-1.25915E-1
9.17358E-1,-2.12982E-1
8.75915E-1,-2.88055E-1
8.43292E-1,-3.64837E-1
7.79998E-1,-4.37377E-1
7.37640E-1,-4.61883E-1
7.24609E-1,-5.18096E-1
6.83349E-1,-5.91461E-1
6.25244E-1,-6.53381E-1
5.51818E-1,-7.16857E-1
4.68505E-1,-7.48077E-1
4.06341E-1,-7.78137E-1
3.24493E-1,-8.11950E-1
2.46215E-1,-8.06152E-1
1.89178E-1,-8.06366E-1
1.21551E-1,-8.07281E-1
0.62957E-1,-7.99011E-1
0.06073E-1,-7.99011E-1
-0.54809E-1,-7.90069E-1
-0.98907E-1,-7.75848E-1
-1.45446E-1,-7.80120E-1
-2.16064E-1,-7.74749E-1
-2.90008E-1,-7.53265E-1
-3.59161E-1,-7.09198E-1
-4.00085E-1,-6.62811E-1
-4.31884E-1,-6.37634E-1
-4.77050E-1,-6.07757E-1
-5.23132E-1,-5.68695E-1
-5.62133E-1,-5.19775E-1
-5.87921E-1,-4.70733E-1
-6.09588E-1,-4.36767E-1
-6.49566E-1,-4.08325E-1
-6.89361E-1,-3.57971E-1
-7.19635E-1,-3.07281E-1
-7.48931E-1,-2.43804E-1
-7.61047E-1,-1.75689E-1
-7.69378E-1,-1.18927E-1
-7.74810E-1,-0.59356E-1
-7.78503E-1,-0.01434E-1
-7.73315E-1,0.66803E-1
-7.52136E-1,1.19018E-1
-7.31933E-1,1.61865E-1
-7.31170E-1,1.90918E-1
-7.41668E-1,2.46887E-1
-7.38037E-1,3.16436E-1
-7.13317E-1,3.92974E-1
-6.68029E-1,4.52179E-1
-6.30462E-1,4.81140E-1
-6.17675E-1,5.31494E-1
-5.75164E-1,6.00830E-1
-5.10955E-1,6.49169E-1
-4.62799E-1,6.82281E-1
-4.11468E-1,7.09198E-1
-3.80432E-1,7.41973E-1
-3.29315E-1,8.02185E-1
-2.55798E-1,8.39691E-1
-1.76910E-1,8.71521E-1
-0.87738E-1,8.87085E-1
-0.16082E-1,8.89831E-1
0.55267E-1,9.00024E-1
1.45080E-1,8.95477E-1
2.26104E-1,8.67462E-1
2.96966E-1,8.35418E-1
3.60443E-1,7.94799E-1
3.97247E-1,7.68310E-1
4.70184E-1,7.56317E-1
5.34423E-1,7.17651E-1
5.99456E-1,6.74987E-1
6.55517E-1,6.07147E-1
6.875E-1,5.51666E-1
7.45758E-1,5.02990E-1
7.84027E-1,4.30236E-1
8.18603E-1,3.69812E-1
8.48693E-1,2.94891E-1
8.58093E-1,2.26287E-1
8.80371E-1,1.66320E-1
8.89312E-1,0.72692E-1
8.84491E-1,0.13977E-1
8.97857E-1,-0.65643E-1
8.72833E-1,-1.37725E-1
8.74237E-1,-1.94732E-1
8.50616E-1,-2.87414E-1
7.9599E-1,-3.31909E-1
7.87719E-1,-3.85711E-1
7.4823E-1,-4.52301E-1
7.39532E-1,-5.01190E-1
7.07824E-1,-6.03149E-1
6.13983E-1,-6.59393E-1
5.71929E-1,-6.81488E-1
5.00762E-1,-7.37304E-1
4.48364E-1,-7.39807E-1
4.19067E-1,-8.17932E-1
2.89306E-1,-8.66394E-1
2.25769E-1,-8.29467E-1
END
BEGIN
-7.68432E-1,1.01440E-1
-7.90191E-1,1.6745E-1
-7.13745E-1,2.80090E-1
-6.68792E-1,2.51007E-1
-7.42828E-1,3.20739E-1
-6.76269E-1,4.44244E-1
-6.48223E-1,4.84130E-1
-5.81024E-1,6.01470E-1
-4.78424E-1,5.83892E-1
-5.20446E-1,6.0672E-1
-4.55566E-1,7.42981E-1
-3.53179E-1,7.69317E-1
-2.58453E-1,8.30444E-1
-1.25305E-1,7.92419E-1
-1.32171E-1,7.65655E-1
-0.62225E-1,8.56445E-1
0.55603E-1,8.39080E-1
1.32659E-1,8.54919E-1
2.84484E-1,7.86834E-1
2.71087E-1,6.78070E-1
2.77801E-1,7.27081E-1
3.90136E-1,7.09045E-1
4.27795E-1,6.79687E-1
5.46386E-1,6.54296E-1
5.75683E-1,5.24841E-1
5.52948E-1,5.26916E-1
6.49414E-1,5.12786E-1
6.93420E-1,4.41192E-1
7.79296E-1,3.94073E-1
8.16711E-1,2.29522E-1
7.43011E-1,1.79260E-1
7.85583E-1,1.73614E-1
8.14666E-1,1.04400E-1
8.75671E-1,0.52490E-1
8.98925E-1,-1.35925E-1
7.58239E-1,-2.10815E-1
7.54058E-1,-1.85241E-1
7.81616E-1,-2.55432E-1
7.97546E-1,-3.17962E-1
8.05419E-1,-4.85748E-1
6.22833E-1,-5.79742E-1
5.62469E-1,-5.17395E-1
5.73120E-1,-5.53894E-1
5.52307E-1,-5.96527E-1
5.60913E-1,-7.12371E-1
3.86322E-1,-8.36914E-1
2.74292E-1,-7.54638E-1
2.76306E-1,-7.60314E-1
2.21984E-1,-7.89093E-1
2.09320E-1,-8.42834E-1
0.53100E-1,-9.57580E-1
-1.18988E-1,-8.55987E-1
-1.20788E-1,-7.93823E-1
-1.68609E-1,-7.92938E-1
-1.82800E-1,-7.83081E-1
-2.67700E-1,-8.63952E-1
-4.56359E-1,-7.85369E-1
-4.62402E-1,-6.64856E-1
-4.84130E-1,-6.47155E-1
-5.06256E-1,-6.08520E-1
-5.47637E-1,-6.51092E-1
-7.22015E-1,-5.95672E-1
-7.38098E-1,-4.27917E-1
-7.13684E-1,-3.82324E-1
-7.24548E-1,-3.26293E-1
-7.19390E-1,-3.31451E-1
-8.50524E-1,-3.21136E-1
-9.05975E-1,-1.34582E-1
-8.36883E-1,-0.60028E-1
-8.38867E-1,-0.16052E-1
-8.21960E-1,0.23254E-1
-8.91662E-1,0.43884E-1
-9.49493E-1,2.26409E-1
-8.35815E-1,3.47412E-1
-7.90557E-1,3.7677E-1
-7.42248E-1,4.34204E-1
-7.23388E-1,4.44580E-1
-7.51007E-1,5.48492E-1
-6.46453E-1,6.73706E-1
-5.49743E-1,6.92688E-1
-4.81567E-1,7.15179E-1
-4.42352E-1,7.06512E-1
-4.49615E-1,7.69714E-1
-3.40850E-1,8.70117E-1
-2.31018E-1,8.59466E-1
-1.57257E-1,8.77533E-1
-0.60302E-1,8.44329E-1
-0.58990E-1,8.21472E-1
-0.13458E-1,8.95904E-1
1.12060E-1,9.02221E-1
1.86798E-1,8.78173E-1
2.82836E-1,8.44238E-1
3.11554E-1,7.85217E-1
3.43017E-1,8.13964E-1
4.60083E-1,8.15399E-1
5.50384E-1,7.60742E-1
6.45294E-1,6.86065E-1
6.60461E-1,5.70282E-1
6.49353E-1,5.60913E-1
7.43896E-1,5.45074E-1
8.13079E-1,4.48455E-1
8.59741E-1,3.63891E-1
8.71002E-1,2.40783E-1
8.29406E-1,1.96624E-1
8.77563E-1,1.74682E-1
9.13909E-1,0.74890E-1
9.19311E-1,-0.02960E-1
9.24041E-1,-1.25854E-1
8.40820E-1,-2.06359E-1
8.28552E-1,-2.16064E-1
8.50402E-1,-2.99865E-1
8.19885E-1,-3.87878E-1
7.82775E-1,-4.87426E-1
6.65710E-1,-5.55236E-1
6.10229E-1,-5.33721E-1
6.13678E-1,-5.78521E-1
5.67169E-1,-6.53320E-1
5.05737E-1,-7.22168E-1
3.90594E-1,-7.63885E-1
3.18725E-1,-7.24884E-1
3.12042E-1,-7.25402E-1
2.73803E-1,-7.76794E-1
1.99920E-1,-8.19946E-1
0.91918E-1,-8.45092E-1
0.01251E-1,-7.94708E-1
-0.12603E-1,-7.63855E-1
-0.39825E-1,-7.87963E-1
-1.10351E-1,-8.11157E-1
-2.10083E-1,-8.08380E-1
-3.02124E-1,-7.35870E-1
-3.09478E-1,-6.77032E-1
-3.20129E-1,-6.82342E-1
-3.81378E-1,-6.96685E-1
-4.68292E-1,-6.70776E-1
-5.35614E-1,-5.96740E-1
-5.52154E-1,-5.31097E-1
-5.65307E-1,-4.98718E-1
-5.99029E-1,-4.83429E-1
-6.58203E-1,-4.49585E-1
-7.06329E-1,-3.81469E-1
-7.22076E-1,-3.05572E-1
-7.24121E-1,-2.51129E-1
-7.30896E-1,-2.18231E-1
-7.69256E-1,-1.88324E-1
-8.07495E-1,-1.18103E-1
-8.10516E-1,-0.37628E-1
-8.00933E-1,0.27679E-1
-7.88147E-1,0.82885E-1
-8.02673E-1,1.23992E-1
-8.24371E-1,2.06146E-1
-8.03039E-1,2.96417E-1
-7.53021E-1,3.60626E-1
-7.08435E-1,4.05212E-1
-6.81182E-1,4.33990E-1
-6.82922E-1,4.99786E-1
-6.38092E-1,5.86364E-1
-5.78796E-1,6.43066E-1
-5.17456E-1,6.86431E-1
-4.51171E-1,7.06970E-1
-4.15527E-1,7.37976E-1
-3.41552E-1,8.01696E-1
-2.54028E-1,8.22113E-1
-1.91131E-1,8.35479E-1
-1.17309E-1,8.39050E-1
-0.72570E-1,8.23150E-1
-0.24536E-1,8.50952E-1
0.66070E-1,8.53057E-1
1.30279E-1,8.38745E-1
2.02667E-1,8.31878E-1
2.59307E-1,8.01605E-1
3.04687E-1,7.95288E-1
3.86871E-1,7.76489E-1
4.47692E-1,7.31628E-1
5.11413E-1,6.96929E-1
5.64727E-1,6.41479E-1
5.95428E-1,6.04583E-1
6.55639E-1,5.72784E-1
6.99188E-1,5.04150E-1
7.31689E-1,4.53125E-1
7.74292E-1,3.91021E-1
8.02581E-1,3.27209E-1
8.32489E-1,2.72918E-1
8.58123E-1,1.96899E-1
8.62640E-1,1.32476E-1
8.79974E-1,0.61401E-1
8.81347E-1,-0.17181E-1
8.77258E-1,-0.88867E-1
8.73352E-1,-1.62078E-1
8.49304E-1,-2.25128E-1
8.33465E-1,-2.83050E-1
8.09051E-1,-3.48968E-1
7.85888E-1,-4.23614E-1
7.45391E-1,-4.93682E-1
7.01904E-1,-5.57067E-1
6.55273E-1,-6.06353E-1
6.09375E-1,-6.47644E-1
5.72021E-1,-6.95373E-1
4.99969E-1,-7.61138E-1
4.16320E-1,-8.04412E-1
3.37768E-1,-8.20220E-1
2.83660E-1,-8.27514E-1
END
BEGIN
-5.40954E-1,-1.01196E-1
-5.57403E-1,-0.39367E-1
-5.63354E-1,0.21606E-1
-5.66589E-1,0.71655E-1
-5.60180E-1,1.42059E-1
-5.37780E-1,2.05230E-1
-5.15930E-1,2.76489E-1
-4.85687E-1,3.31695E-1
-4.59625E-1,3.87603E-1
-4.19982E-1,4.35394E-1
-3.78463E-1,4.73190E-1
-3.25134E-1,5.12756E-1
-2.70874E-1,5.43243E-1
-2.14172E-1,5.81451E-1
-1.55578E-1,5.98144E-1
-0.94696E-1,6.11694E-1
-0.28442E-1,6.19354E-1
0.39337E-1,6.16485E-1
1.02264E-1,6.17218E-1
1.66473E-1,5.94512E-1
2.17865E-1,5.73852E-1
2.71789E-1,5.44342E-1
3.26141E-1,5.08178E-1
3.81561E-1,4.5784E-1
4.24606E-1,4.03228E-1
4.62768E-1,3.58184E-1
4.96871E-1,2.96875E-1
5.22003E-1,2.35687E-1
5.39001E-1,1.56860E-1
5.46081E-1,0.96740E-1
5.57373E-1,0.32897E-1
5.56060E-1,-0.31311E-1
5.45135E-1,-0.80291E-1
5.27893E-1,-1.33514E-1
5.06439E-1,-1.74957E-1
4.77569E-1,-2.40158E-1
4.35775E-1,-2.80136E-1
4.0271E-1,-3.14193E-1
3.71322E-1,-3.53591E-1
3.10363E-1,-3.88351E-1
2.56240E-1,-4.09591E-1
2.07458E-1,-4.23477E-1
1.54739E-1,-4.43054E-1
1.10290E-1,-4.53216E-1
0.48812E-1,-4.68200E-1
0.00351E-1,-4.57595E-1
-0.46737E-1,-4.45816E-1
-0.92819E-1,-4.35180E-1
-1.35299E-1,-4.10553E-1
-1.81411E-1,-4.03183E-1
-2.41073E-1,-3.52142E-1
-2.63366E-1,-3.21929E-1
-3.00354E-1,-3.05297E-1
-3.36364E-1,-2.70294E-1
-3.59207E-1,-2.40081E-1
-3.89495E-1,-1.94717E-1
-3.95217E-1,-1.53976E-1
-4.10049E-1,-1.19262E-1
-4.22607E-1,-0.72158E-1
-4.15008E-1,-0.29968E-1
-4.29367E-1,0.08346E-1
-4.09988E-1,0.74783E-1
-3.95111E-1,1.01059E-1
-4.01229E-1,1.46255E-1
-3.81805E-1,1.97647E-1
-3.66378E-1,2.32467E-1
-3.41934E-1,2.83477E-1
-3.15216E-1,3.04611E-1
-2.93548E-1,3.32504E-1
-2.53189E-1,3.55041E-1
-2.12051E-1,3.58184E-1
-1.72744E-1,3.95523E-1
-1.00570E-1,4.09057E-1
-0.62240E-1,4.12399E-1
-0.19363E-1,4.33364E-1
0.32302E-1,4.29351E-1
0.81558E-1,4.24636E-1
1.39633E-1,4.07394E-1
1.80816E-1,3.97918E-1
2.23358E-1,3.95202E-1
2.64236E-1,3.75366E-1
2.84103E-1,3.38241E-1
3.08197E-1,3.04351E-1
3.42254E-1,2.60467E-1
3.72863E-1,2.18551E-1
4.06417E-1,1.72592E-1
4.16976E-1,1.22802E-1
4.25842E-1,0.87310E-1
4.31137E-1,0.31707E-1
4.31808E-1,-0.17593E-1
4.34875E-1,-0.62118E-1
4.29351E-1,-1.06842E-1
4.03060E-1,-1.34185E-1
3.91128E-1,-1.68670E-1
3.63296E-1,-2.19238E-1
3.30520E-1,-2.65792E-1
2.96920E-1,-3.09371E-1
2.57125E-1,-3.33847E-1
2.26181E-1,-3.58596E-1
1.78451E-1,-3.83728E-1
1.38961E-1,-4.06143E-1
1.09863E-1,-4.35440E-1
0.73379E-1,-4.61242E-1
0.45501E-1,-4.49615E-1
0.24475E-1,-4.45510E-1
-0.21835E-1,-4.41741E-1
-0.71762E-1,-4.41391E-1
-1.36215E-1,-4.38949E-1
-1.70867E-1,-4.09988E-1
-1.84692E-1,-4.03656E-1
-2.25051E-1,-3.87435E-1
-2.62359E-1,-3.56826E-1
-3.07754E-1,-3.32626E-1
-3.41857E-1,-3.01071E-1
-3.50662E-1,-2.86880E-1
-3.71261E-1,-2.77374E-1
-3.87374E-1,-2.46780E-1
-4.07104E-1,-2.11715E-1
-4.19799E-1,-1.58065E-1
-4.12033E-1,-1.28128E-1
-4.30236E-1,-1.16317E-1
-4.52697E-1,-0.8078E-1
-4.64065E-1,-0.41580E-1
-4.69055E-1,0.01815E-1
-4.64111E-1,0.29998E-1
-4.70932E-1,0.48004E-1
-4.83764E-1,0.76721E-1
-4.86831E-1,1.14425E-1
-4.79217E-1,1.49658E-1
-4.60006E-1,1.76040E-1
-4.51919E-1,1.90597E-1
-4.50561E-1,2.20748E-1
-4.43924E-1,2.66189E-1
-4.20806E-1,3.09982E-1
-3.98574E-1,3.34960E-1
-3.89297E-1,3.59558E-1
-3.67813E-1,3.89709E-1
-3.51928E-1,4.18029E-1
-3.27865E-1,4.58725E-1
-2.99575E-1,4.81582E-1
-2.81936E-1,4.93545E-1
-2.54699E-1,5.07904E-1
-2.21283E-1,5.12695E-1
-1.87927E-1,5.38208E-1
-1.34307E-1,5.62683E-1
-0.96344E-1,5.68237E-1
-0.63812E-1,5.77179E-1
-0.16204E-1,5.72998E-1
0.32684E-1,5.79223E-1
1.12640E-1,5.84075E-1
1.55578E-1,5.68695E-1
1.75354E-1,5.78308E-1
2.07153E-1,5.76019E-1
2.30682E-1,5.48065E-1
2.78778E-1,5.32714E-1
3.33435E-1,4.87152E-1
3.66500E-1,4.64218E-1
4.06662E-1,4.47311E-1
4.34860E-1,4.00970E-1
4.58602E-1,3.58963E-1
5.02655E-1,2.94006E-1
5.25146E-1,2.43804E-1
5.61126E-1,2.20153E-1
5.93902E-1,1.76361E-1
5.78826E-1,1.31713E-1
5.81695E-1,1.04766E-1
5.87768E-1,0.38909E-1
5.79711E-1,-0.10345E-1
5.84747E-1,-0.58471E-1
5.46844E-1,-1.12945E-1
5.08819E-1,-1.33026E-1
4.84573E-1,-1.93344E-1
4.41085E-1,-2.53601E-1
4.19021E-1,-3.08639E-1
3.80737E-1,-3.62136E-1
3.36319E-1,-3.59909E-1
3.20144E-1,-3.76174E-1
2.59231E-1,-4.07791E-1
2.04559E-1,-4.2453E-1
1.54022E-1,-4.54864E-1
1.00952E-1,-4.43344E-1
0.90286E-1,-4.28649E-1
0.35003E-1,-4.27780E-1
-0.31890E-1,-4.01214E-1
-0.95733E-1,-4.04449E-1
-1.66976E-1,-3.88229E-1
-1.70562E-1,-3.64379E-1
-1.92321E-1,-3.69415E-1
-2.25204E-1,-3.24218E-1
-2.46704E-1,-3.00231E-1
-3.07815E-1,-2.74688E-1
-3.21167E-1,-2.24990E-1
-3.125E-1,-2.19146E-1
-3.19259E-1,-1.77017E-1
-3.11523E-1,-1.29806E-1
-3.53820E-1,-0.81192E-1
-3.73718E-1,-0.02868E-1
-3.53607E-1,0.02044E-1
-3.62319E-1,0.17562E-1
-3.32687E-1,0.43701E-1
-3.48220E-1,0.77301E-1
END
