CITIFILE A.01.01
#NA VERSION HP8510C.08.10
NAME DATA
#NA REGISTER 1
VAR FREQ MAG 201
DATA S[1,1] RI
DATA S[2,1] RI
DATA S[1,2] RI
DATA S[2,2] RI
SEG_LIST_BEGIN
SEG 8000000000 12000000000 201
SEG_LIST_END
COMMENT       YEAR MONTH DAY HOUR MINUTE SECONDS
CONSTANT TIME 2013   09   26  20    28    14.0
BEGIN
-4.8172E-1,-2.56286E-1
-5.03753E-1,-2.03887E-1
-5.24719E-1,-1.40686E-1
-5.41046E-1,-0.92346E-1
-5.55053E-1,-0.37689E-1
-5.47424E-1,0.10009E-1
-5.40069E-1,0.63385E-1
-5.25665E-1,1.17462E-1
-5.21148E-1,1.83197E-1
-5.03418E-1,2.40448E-1
-4.80560E-1,2.78335E-1
-4.46411E-1,3.16864E-1
-4.09011E-1,3.54263E-1
-3.69278E-1,4.10629E-1
-3.22799E-1,4.51934E-1
-2.84317E-1,4.82330E-1
-2.38311E-1,5.01922E-1
-1.88659E-1,5.09033E-1
-1.37634E-1,5.34729E-1
-0.62072E-1,5.46691E-1
-0.08819E-1,5.52703E-1
0.38177E-1,5.53070E-1
0.81390E-1,5.38513E-1
1.30584E-1,5.19531E-1
1.85928E-1,4.98733E-1
2.35733E-1,4.85092E-1
2.80059E-1,4.65744E-1
3.14621E-1,4.40338E-1
3.49655E-1,3.99078E-1
3.80035E-1,3.67340E-1
4.28878E-1,3.25073E-1
4.64889E-1,2.75451E-1
4.84878E-1,2.38647E-1
4.96078E-1,1.90933E-1
5.04425E-1,1.52069E-1
5.25634E-1,0.77362E-1
5.20690E-1,0.17974E-1
5.24841E-1,-0.19928E-1
5.27618E-1,-0.60882E-1
5.06835E-1,-1.08886E-1
4.85275E-1,-1.61666E-1
4.56405E-1,-2.07168E-1
4.40460E-1,-2.53082E-1
4.24636E-1,-2.89733E-1
3.96972E-1,-3.26461E-1
3.64807E-1,-3.48999E-1
3.11142E-1,-3.78326E-1
2.72644E-1,-4.03656E-1
2.38845E-1,-4.30297E-1
2.10876E-1,-4.57382E-1
1.60629E-1,-4.60983E-1
1.21139E-1,-4.58206E-1
0.79574E-1,-4.64080E-1
0.32760E-1,-4.75128E-1
-0.07431E-1,-4.80041E-1
-0.46798E-1,-4.80163E-1
-0.81054E-1,-4.69268E-1
-1.25183E-1,-4.44686E-1
-1.67221E-1,-4.27703E-1
-2.03872E-1,-4.07699E-1
-2.31994E-1,-4.05761E-1
-2.63015E-1,-3.78952E-1
-2.75329E-1,-3.42910E-1
-2.97485E-1,-3.20129E-1
-3.34793E-1,-2.90023E-1
-3.59268E-1,-2.66555E-1
-3.81790E-1,-2.41897E-1
-3.90441E-1,-2.17483E-1
-3.93508E-1,-1.74942E-1
-4.00817E-1,-1.31561E-1
-4.06066E-1,-0.94360E-1
-4.24728E-1,-0.74523E-1
-4.24789E-1,-0.45043E-1
-4.01870E-1,-0.23757E-1
-3.95584E-1,-0.03982E-1
-3.96087E-1,0.37002E-1
-4.0242E-1,0.72830E-1
-4.00955E-1,1.00601E-1
-4.00054E-1,1.16394E-1
-3.87100E-1,1.36337E-1
-3.68484E-1,1.77719E-1
-3.35708E-1,2.16171E-1
-3.24295E-1,2.41516E-1
-3.18435E-1,2.69409E-1
-2.97393E-1,2.77145E-1
-2.78610E-1,2.92816E-1
-2.36496E-1,3.20144E-1
-2.07824E-1,3.41018E-1
-1.83319E-1,3.69674E-1
-1.62262E-1,3.85208E-1
-1.41067E-1,3.93631E-1
-0.96557E-1,4.05380E-1
-0.43273E-1,3.95507E-1
-0.12207E-1,4.06936E-1
0.26107E-1,4.18945E-1
0.51055E-1,4.12048E-1
0.79193E-1,4.05914E-1
1.24816E-1,3.83606E-1
1.68289E-1,3.73916E-1
2.18368E-1,3.64105E-1
2.53494E-1,3.52218E-1
2.81066E-1,3.37493E-1
3.25286E-1,2.97866E-1
3.53698E-1,2.31582E-1
3.85101E-1,1.86279E-1
4.19326E-1,1.45126E-1
4.27490E-1,1.08734E-1
4.32998E-1,0.65414E-1
4.18289E-1,0.00610E-1
4.14123E-1,-0.54519E-1
4.21142E-1,-1.16806E-1
4.15374E-1,-1.60095E-1
4.03793E-1,-1.91696E-1
3.72146E-1,-2.38555E-1
3.20282E-1,-2.89871E-1
2.77542E-1,-3.44177E-1
2.42507E-1,-3.87176E-1
2.14325E-1,-4.10644E-1
1.66839E-1,-4.23889E-1
1.06552E-1,-4.22210E-1
0.45776E-1,-4.45510E-1
-0.17822E-1,-4.65194E-1
-0.56991E-1,-4.77401E-1
-0.92895E-1,-4.74105E-1
-1.39770E-1,-4.54162E-1
-2.06756E-1,-4.34005E-1
-2.82058E-1,-4.06372E-1
-3.25317E-1,-3.90365E-1
-3.59344E-1,-3.74984E-1
-3.87802E-1,-3.33068E-1
-4.15313E-1,-2.77801E-1
-4.64752E-1,-2.15728E-1
-4.96200E-1,-1.70150E-1
-5.19531E-1,-1.48956E-1
-5.30304E-1,-1.13555E-1
-5.25268E-1,-0.57464E-1
-5.33325E-1,0.17456E-1
-5.36377E-1,0.93994E-1
-5.48706E-1,1.29089E-1
-5.52398E-1,1.62506E-1
-5.25177E-1,1.99737E-1
-4.82864E-1,2.57293E-1
-4.39865E-1,3.31192E-1
-4.16671E-1,3.79715E-1
-4.10934E-1,4.13818E-1
-3.84201E-1,4.33197E-1
-3.31314E-1,4.47464E-1
-2.65472E-1,4.80835E-1
-1.97998E-1,5.22247E-1
-1.72790E-1,5.48736E-1
-1.60003E-1,5.69213E-1
-1.22802E-1,5.69213E-1
-0.50750E-1,5.58075E-1
0.35644E-1,5.49163E-1
0.95428E-1,5.49896E-1
1.2854E-1,5.66192E-1
1.59301E-1,5.65551E-1
1.97296E-1,5.24292E-1
2.40112E-1,4.78607E-1
2.99835E-1,4.42565E-1
3.40683E-1,4.25766E-1
3.76403E-1,4.27444E-1
4.05242E-1,3.92944E-1
4.24942E-1,3.32153E-1
4.53720E-1,2.64404E-1
4.88449E-1,2.08816E-1
5.15838E-1,1.68884E-1
5.27221E-1,1.30676E-1
5.11657E-1,0.75561E-1
4.82452E-1,0.20523E-1
4.75952E-1,-0.38635E-1
4.68444E-1,-0.83358E-1
4.76654E-1,-1.06994E-1
4.61227E-1,-1.38687E-1
4.22226E-1,-1.69921E-1
3.85894E-1,-2.18856E-1
3.52447E-1,-2.72323E-1
3.40988E-1,-3.05664E-1
3.28140E-1,-3.34243E-1
2.86071E-1,-3.40805E-1
2.36831E-1,-3.41674E-1
1.77490E-1,-3.66485E-1
1.33590E-1,-3.85284E-1
1.21994E-1,-4.17495E-1
1.02157E-1,-4.22607E-1
0.80047E-1,-4.01458E-1
0.31494E-1,-3.93234E-1
-0.42282E-1,-3.89419E-1
-0.89584E-1,-4.02236E-1
-1.22192E-1,-4.18182E-1
-1.31988E-1,-4.01962E-1
-1.40472E-1,-3.76739E-1
-1.96548E-1,-3.35922E-1
-2.43164E-1,-2.84179E-1
-2.81234E-1,-2.85003E-1
-3.00109E-1,-2.82226E-1
-2.86499E-1,-2.73178E-1
-2.97790E-1,-2.46398E-1
-3.29025E-1,-1.68075E-1
-3.50128E-1,-1.27029E-1
-3.84979E-1,-1.11175E-1
END
BEGIN
-8.74450E-1,1.14349E-1
-7.90741E-1,1.95434E-1
-7.98309E-1,2.32330E-1
-7.76763E-1,3.64196E-1
-7.05535E-1,4.25567E-1
-6.56982E-1,5.22064E-1
-5.23681E-1,5.57098E-1
-4.90051E-1,5.20111E-1
-4.88555E-1,5.78613E-1
-4.30389E-1,6.17919E-1
-3.99231E-1,6.73919E-1
-2.83264E-1,7.13623E-1
-2.45849E-1,6.65924E-1
-2.59491E-1,7.33642E-1
-1.45629E-1,7.95562E-1
-0.83374E-1,8.00933E-1
0.33142E-1,8.33740E-1
1.15692E-1,7.48992E-1
0.99395E-1,7.54730E-1
1.95953E-1,8.04016E-1
2.70538E-1,7.79602E-1
3.74511E-1,8.05389E-1
5.04699E-1,7.02514E-1
5.04028E-1,6.41723E-1
5.98083E-1,6.36261E-1
6.63208E-1,5.27374E-1
7.05108E-1,4.90509E-1
7.91595E-1,3.51074E-1
7.11059E-1,2.35656E-1
6.94213E-1,2.47863E-1
7.22045E-1,1.95312E-1
7.20886E-1,1.77612E-1
7.97973E-1,1.23657E-1
7.65106E-1,0.11291E-1
7.48992E-1,0.27404E-1
8.35937E-1,-0.16204E-1
8.67706E-1,-1.11389E-1
9.33471E-1,-2.36663E-1
8.44207E-1,-4.46167E-1
7.12066E-1,-4.48425E-1
7.28454E-1,-4.88342E-1
6.57104E-1,-5.82458E-1
6.21246E-1,-6.15814E-1
5.49255E-1,-7.32116E-1
4.14398E-1,-7.16064E-1
4.29260E-1,-7.09442E-1
3.69201E-1,-8.04992E-1
2.93426E-1,-8.16528E-1
2.35443E-1,-9.07897E-1
0.36529E-1,-9.22393E-1
-0.25390E-1,-8.25958E-1
-0.65460E-1,-8.30474E-1
-1.30981E-1,-7.93853E-1
-1.49047E-1,-7.99255E-1
-2.54943E-1,-8.12286E-1
-3.14178E-1,-7.41210E-1
-3.41491E-1,-7.41790E-1
-4.14978E-1,-7.18719E-1
-4.55169E-1,-7.13958E-1
-5.88195E-1,-7.15942E-1
-6.82403E-1,-5.68939E-1
-6.73492E-1,-4.95086E-1
-7.13562E-1,-4.30084E-1
-6.92382E-1,-3.65661E-1
-7.32208E-1,-3.74389E-1
-8.05114E-1,-2.79937E-1
-7.78961E-1,-2.09167E-1
-8.13964E-1,-1.85302E-1
-8.43505E-1,-1.07910E-1
-8.81012E-1,-0.55664E-1
-9.31243E-1,0.81329E-1
-8.54522E-1,2.03125E-1
-8.21594E-1,2.50640E-1
-7.69378E-1,3.36212E-1
-7.09259E-1,3.51226E-1
-7.10205E-1,3.91876E-1
-6.62292E-1,4.46014E-1
-6.48773E-1,4.65332E-1
-6.33850E-1,5.36773E-1
-5.86547E-1,5.73333E-1
-5.90728E-1,6.29791E-1
-5.35034E-1,7.33642E-1
-4.52453E-1,7.86743E-1
-3.60778E-1,8.51135E-1
-2.42614E-1,8.37036E-1
-2.22412E-1,8.32214E-1
-1.46575E-1,8.97522E-1
-0.47027E-1,8.76312E-1
-0.07476E-1,8.84002E-1
0.81909E-1,8.89312E-1
1.23077E-1,8.74328E-1
2.01873E-1,9.31610E-1
3.54797E-1,9.06494E-1
4.31671E-1,8.37341E-1
5.14007E-1,7.87475E-1
5.57251E-1,6.98181E-1
5.86822E-1,6.69830E-1
6.57806E-1,6.08581E-1
6.69952E-1,5.43426E-1
7.13104E-1,5.26702E-1
7.71392E-1,4.69726E-1
8.01696E-1,4.25262E-1
8.76434E-1,3.75152E-1
9.22515E-1,2.72491E-1
9.56512E-1,1.93847E-1
1.00567E0,0.71228E-1
9.68200E-1,-0.60272E-1
9.35333E-1,-1.26220E-1
9.17816E-1,-2.14111E-1
8.75610E-1,-2.88909E-1
8.43719E-1,-3.65875E-1
7.80242E-1,-4.38598E-1
7.37182E-1,-4.62554E-1
7.24273E-1,-5.18158E-1
6.83532E-1,-5.90423E-1
6.25457E-1,-6.52679E-1
5.52398E-1,-7.16827E-1
4.68811E-1,-7.48168E-1
4.06890E-1,-7.77313E-1
3.23944E-1,-8.10852E-1
2.44903E-1,-8.04229E-1
1.89483E-1,-8.04595E-1
1.21826E-1,-8.05542E-1
0.6427E-1,-7.97576E-1
0.07904E-1,-7.97363E-1
-0.52185E-1,-7.88177E-1
-0.95611E-1,-7.75207E-1
-1.41937E-1,-7.79754E-1
-2.11914E-1,-7.75512E-1
-2.86956E-1,-7.53814E-1
-3.56140E-1,-7.09808E-1
-3.97491E-1,-6.63421E-1
-4.28100E-1,-6.38763E-1
-4.73632E-1,-6.10504E-1
-5.19653E-1,-5.71746E-1
-5.58837E-1,-5.24017E-1
-5.85296E-1,-4.75616E-1
-6.07208E-1,-4.42749E-1
-6.49810E-1,-4.15039E-1
-6.93847E-1,-3.64654E-1
-7.24700E-1,-3.11157E-1
-7.53234E-1,-2.45025E-1
-7.64404E-1,-1.77734E-1
-7.72857E-1,-1.19903E-1
-7.77465E-1,-0.59997E-1
-7.81036E-1,-0.02105E-1
-7.76489E-1,0.66131E-1
-7.54882E-1,1.18896E-1
-7.34802E-1,1.61193E-1
-7.33947E-1,1.90338E-1
-7.43743E-1,2.47314E-1
-7.40966E-1,3.17627E-1
-7.16156E-1,3.94226E-1
-6.70196E-1,4.53216E-1
-6.32782E-1,4.83520E-1
-6.19476E-1,5.32897E-1
-5.76843E-1,6.03302E-1
-5.12268E-1,6.51428E-1
-4.63897E-1,6.84783E-1
-4.12567E-1,7.12158E-1
-3.80554E-1,7.44873E-1
-3.29864E-1,8.04657E-1
-2.54882E-1,8.42376E-1
-1.77093E-1,8.73107E-1
-0.88439E-1,8.89038E-1
-0.15411E-1,8.91693E-1
0.55633E-1,9.01794E-1
1.46240E-1,8.97583E-1
2.27630E-1,8.68652E-1
2.98034E-1,8.36151E-1
3.61206E-1,7.95745E-1
3.98834E-1,7.68402E-1
4.71435E-1,7.56378E-1
5.34851E-1,7.18566E-1
6.01501E-1,6.75018E-1
6.57104E-1,6.07055E-1
6.88262E-1,5.51208E-1
7.44995E-1,5.03997E-1
7.83935E-1,4.30053E-1
8.19183E-1,3.70575E-1
8.49090E-1,2.95074E-1
8.58642E-1,2.26959E-1
8.80462E-1,1.66412E-1
8.89801E-1,0.73425E-1
8.84979E-1,0.14709E-1
8.98376E-1,-0.64880E-1
8.73596E-1,-1.36962E-1
8.75213E-1,-1.93206E-1
8.51928E-1,-2.86438E-1
7.97058E-1,-3.31207E-1
7.89123E-1,-3.85467E-1
7.49481E-1,-4.51324E-1
7.41088E-1,-4.99939E-1
7.09198E-1,-6.02447E-1
6.16424E-1,-6.58569E-1
5.73944E-1,-6.82525E-1
5.02563E-1,-7.37670E-1
4.51263E-1,-7.39440E-1
4.22149E-1,-8.18206E-1
2.92327E-1,-8.67157E-1
2.28302E-1,-8.31573E-1
END
BEGIN
-7.67791E-1,0.99975E-1
-7.90039E-1,1.65618E-1
-7.13623E-1,2.79052E-1
-6.67938E-1,2.48962E-1
-7.42889E-1,3.17382E-1
-6.77825E-1,4.42596E-1
-6.50146E-1,4.82482E-1
-5.83007E-1,6.00280E-1
-4.78546E-1,5.83160E-1
-5.21850E-1,6.04858E-1
-4.57580E-1,7.41790E-1
-3.55529E-1,7.69378E-1
-2.60406E-1,8.31512E-1
-1.26129E-1,7.93090E-1
-1.33270E-1,7.65441E-1
-0.63842E-1,8.57055E-1
0.54534E-1,8.39294E-1
1.32080E-1,8.55926E-1
2.84851E-1,7.87902E-1
2.71728E-1,6.78680E-1
2.77191E-1,7.27691E-1
3.89984E-1,7.09137E-1
4.28009E-1,6.80236E-1
5.47180E-1,6.55120E-1
5.76263E-1,5.24414E-1
5.53314E-1,5.26428E-1
6.49719E-1,5.12420E-1
6.93756E-1,4.40856E-1
7.79876E-1,3.94287E-1
8.16345E-1,2.29187E-1
7.43042E-1,1.78894E-1
7.85430E-1,1.73461E-1
8.15765E-1,1.04431E-1
8.75213E-1,0.52215E-1
8.98651E-1,-1.36047E-1
7.57568E-1,-2.10907E-1
7.54089E-1,-1.85272E-1
7.81066E-1,-2.55127E-1
7.96356E-1,-3.17443E-1
8.04016E-1,-4.85870E-1
6.20941E-1,-5.78247E-1
5.61035E-1,-5.16571E-1
5.72357E-1,-5.52673E-1
5.51544E-1,-5.94726E-1
5.60882E-1,-7.12249E-1
3.85711E-1,-8.35571E-1
2.73529E-1,-7.52563E-1
2.76580E-1,-7.59246E-1
2.22656E-1,-7.87841E-1
2.09869E-1,-8.40789E-1
0.53436E-1,-9.56726E-1
-1.18347E-1,-8.54309E-1
-1.19842E-1,-7.92572E-1
-1.67053E-1,-7.91320E-1
-1.81243E-1,-7.82226E-1
-2.65838E-1,-8.63922E-1
-4.55535E-1,-7.85705E-1
1.69158E-1,-8.22448E-1
-4.82147E-1,-6.47003E-1
-5.04577E-1,-6.09100E-1
-5.44677E-1,-6.52496E-1
-7.20764E-1,-5.98266E-1
-7.37548E-1,-4.28039E-1
-7.12097E-1,-3.82659E-1
-7.23022E-1,-3.26904E-1
-7.17437E-1,-3.32305E-1
-8.49578E-1,-3.23303E-1
-9.06494E-1,-1.362E-1
-8.36731E-1,-0.61370E-1
-8.38226E-1,-0.17089E-1
-8.21746E-1,0.22277E-1
-8.91387E-1,0.41473E-1
-9.50683E-1,2.24517E-1
-8.36669E-1,3.46221E-1
-7.90588E-1,3.75061E-1
-7.41729E-1,4.32098E-1
-7.23693E-1,4.41131E-1
-7.53173E-1,5.45684E-1
-6.49108E-1,6.72332E-1
-5.52124E-1,6.91497E-1
-4.84008E-1,7.15118E-1
-4.43969E-1,7.06787E-1
-4.51660E-1,7.70233E-1
-3.43322E-1,8.71185E-1
-2.32452E-1,8.60351E-1
-1.59088E-1,8.77716E-1
-0.61798E-1,8.45703E-1
-0.59845E-1,8.22967E-1
-0.14160E-1,8.97613E-1
1.10412E-1,9.03808E-1
1.85485E-1,8.80127E-1
2.82379E-1,8.45245E-1
3.11737E-1,7.87200E-1
3.42254E-1,8.15948E-1
4.60662E-1,8.17169E-1
5.51025E-1,7.62298E-1
6.45721E-1,6.87377E-1
6.61132E-1,5.71807E-1
6.49902E-1,5.62561E-1
7.46032E-1,5.45440E-1
8.15124E-1,4.48974E-1
8.61602E-1,3.63403E-1
8.72100E-1,2.40661E-1
8.31024E-1,1.96991E-1
8.79028E-1,1.74408E-1
9.15924E-1,0.74432E-1
9.19006E-1,-0.04089E-1
9.23492E-1,-1.27899E-1
8.40118E-1,-2.07672E-1
8.28582E-1,-2.16918E-1
8.50219E-1,-3.00781E-1
8.19305E-1,-3.88916E-1
7.81219E-1,-4.89013E-1
6.63543E-1,-5.55053E-1
6.09130E-1,-5.33264E-1
6.1203E-1,-5.77880E-1
5.66345E-1,-6.53320E-1
5.04699E-1,-7.22198E-1
3.88763E-1,-7.62847E-1
3.17535E-1,-7.22351E-1
3.12622E-1,-7.22808E-1
2.74810E-1,-7.75329E-1
2.00805E-1,-8.18725E-1
0.92071E-1,-8.44512E-1
0.01800E-1,-7.92724E-1
-0.10498E-1,-7.61261E-1
-0.36956E-1,-7.85308E-1
-1.07605E-1,-8.09875E-1
-2.07000E-1,-8.09021E-1
-3.00018E-1,-7.35443E-1
-3.07312E-1,-6.77429E-1
-3.17230E-1,-6.82098E-1
-3.77746E-1,-6.97143E-1
-4.65179E-1,-6.7276E-1
-5.33142E-1,-5.99975E-1
-5.48919E-1,-5.34149E-1
-5.62011E-1,-5.02624E-1
-5.95550E-1,-4.89074E-1
-6.57348E-1,-4.58496E-1
-7.11273E-1,-3.89160E-1
-7.27722E-1,-3.08746E-1
-7.28332E-1,-2.52136E-1
-7.34558E-1,-2.18811E-1
-7.71575E-1,-1.88629E-1
-8.09814E-1,-1.18713E-1
-8.13964E-1,-0.37963E-1
-8.03588E-1,0.27923E-1
-7.90374E-1,0.83007E-1
-8.05206E-1,1.24511E-1
-8.27880E-1,2.07153E-1
-8.06427E-1,2.97515E-1
-7.55584E-1,3.62670E-1
-7.10296E-1,4.06768E-1
-6.83319E-1,4.35333E-1
-6.85058E-1,5.02533E-1
-6.39679E-1,5.89233E-1
-5.80108E-1,6.46301E-1
-5.17150E-1,6.89209E-1
-4.51416E-1,7.09228E-1
-4.14917E-1,7.40844E-1
-3.41766E-1,8.03955E-1
-2.53112E-1,8.24066E-1
-1.90033E-1,8.37005E-1
-1.15478E-1,8.41217E-1
-0.71868E-1,8.24127E-1
-0.23284E-1,8.52478E-1
0.67596E-1,8.54522E-1
1.32019E-1,8.39660E-1
2.04467E-1,8.32397E-1
2.62054E-1,8.01727E-1
3.06152E-1,7.94555E-1
3.88122E-1,7.76367E-1
4.48944E-1,7.31842E-1
5.12939E-1,6.96838E-1
5.65643E-1,6.41784E-1
5.96160E-1,6.04705E-1
6.56036E-1,5.72021E-1
6.99615E-1,5.03967E-1
7.32910E-1,4.52270E-1
7.74444E-1,3.90197E-1
8.02612E-1,3.26507E-1
8.33007E-1,2.72216E-1
8.57330E-1,1.96716E-1
8.62731E-1,1.32659E-1
8.80340E-1,0.61737E-1
8.81286E-1,-0.16784E-1
8.77105E-1,-0.88928E-1
8.73504E-1,-1.61377E-1
8.49700E-1,-2.24945E-1
8.33831E-1,-2.82348E-1
8.09326E-1,-3.47686E-1
7.87384E-1,-4.22576E-1
7.47192E-1,-4.92706E-1
7.03064E-1,-5.57006E-1
6.56219E-1,-6.05590E-1
6.10412E-1,-6.47522E-1
5.73333E-1,-6.94732E-1
5.02410E-1,-7.61810E-1
4.18304E-1,-8.05633E-1
3.39569E-1,-8.20892E-1
2.85400E-1,-8.28582E-1
END
BEGIN
-5.44708E-1,-0.99212E-1
-5.61340E-1,-0.37384E-1
-5.66558E-1,0.22796E-1
-5.68634E-1,0.72784E-1
-5.61370E-1,1.43463E-1
-5.38787E-1,2.07092E-1
-5.16418E-1,2.78869E-1
-4.87396E-1,3.33480E-1
-4.61196E-1,3.88687E-1
-4.21005E-1,4.35409E-1
-3.77914E-1,4.72869E-1
-3.24462E-1,5.13458E-1
-2.70782E-1,5.44525E-1
-2.13958E-1,5.82855E-1
-1.56036E-1,5.98754E-1
-0.94635E-1,6.11389E-1
-0.28900E-1,6.18591E-1
0.39764E-1,6.16210E-1
1.03118E-1,6.17553E-1
1.66961E-1,5.95733E-1
2.17865E-1,5.74249E-1
2.71148E-1,5.44555E-1
3.25683E-1,5.08483E-1
3.81439E-1,4.58038E-1
4.25613E-1,4.03533E-1
4.63348E-1,3.60153E-1
4.96734E-1,2.98767E-1
5.20904E-1,2.37670E-1
5.38513E-1,1.58477E-1
5.47149E-1,0.97869E-1
5.59021E-1,0.33538E-1
5.58044E-1,-0.28961E-1
5.46722E-1,-0.77484E-1
5.28564E-1,-1.31439E-1
5.07202E-1,-1.72943E-1
4.78881E-1,-2.39959E-1
4.37774E-1,-2.80441E-1
4.05212E-1,-3.14727E-1
3.74374E-1,-3.53942E-1
3.12530E-1,-3.88732E-1
2.58163E-1,-4.10354E-1
2.09182E-1,-4.263E-1
1.56204E-1,-4.46258E-1
1.12655E-1,-4.56436E-1
0.51162E-1,-4.71099E-1
0.02822E-1,-4.60022E-1
-0.45913E-1,-4.48440E-1
-0.93627E-1,-4.38613E-1
-1.36383E-1,-4.15069E-1
-1.82128E-1,-4.07623E-1
-2.41302E-1,-3.56246E-1
-2.64495E-1,-3.25042E-1
-3.02963E-1,-3.07907E-1
-3.39904E-1,-2.73162E-1
-3.63372E-1,-2.42706E-1
-3.92684E-1,-1.98074E-1
-3.97628E-1,-1.56692E-1
-4.72778E-1,-1.36779E-1
-4.25857E-1,-0.71655E-1
-4.19128E-1,-0.28076E-1
-4.33319E-1,0.09887E-1
-4.15756E-1,0.75546E-1
-3.98529E-1,1.03576E-1
-4.03015E-1,1.49169E-1
-3.83392E-1,2.01873E-1
-3.67614E-1,2.37228E-1
-3.43719E-1,2.87872E-1
-3.16314E-1,3.08136E-1
-2.93884E-1,3.35022E-1
-2.51815E-1,3.57803E-1
-2.10235E-1,3.61450E-1
-1.69952E-1,3.99520E-1
-0.98632E-1,4.12597E-1
-0.60638E-1,4.14764E-1
-0.17257E-1,4.33593E-1
0.34912E-1,4.27276E-1
0.82748E-1,4.21951E-1
1.39862E-1,4.06601E-1
1.80465E-1,3.98315E-1
2.21710E-1,3.95584E-1
2.61520E-1,3.75518E-1
2.82791E-1,3.36807E-1
3.07815E-1,3.02719E-1
3.42636E-1,2.59689E-1
3.73031E-1,2.18353E-1
4.05212E-1,1.73782E-1
4.15710E-1,1.23733E-1
4.23782E-1,0.87982E-1
4.30481E-1,0.31784E-1
4.31778E-1,-0.16708E-1
4.34890E-1,-0.59753E-1
4.29687E-1,-1.03683E-1
4.02893E-1,-1.31149E-1
3.90258E-1,-1.66198E-1
3.63662E-1,-2.17407E-1
3.32428E-1,-2.64648E-1
3.00170E-1,-3.07754E-1
2.60162E-1,-3.31329E-1
2.28927E-1,-3.55560E-1
1.81594E-1,-3.81271E-1
1.41647E-1,-4.05197E-1
1.13906E-1,-4.35714E-1
0.78414E-1,-4.61013E-1
0.50659E-1,-4.49386E-1
0.28884E-1,-4.45083E-1
-0.18829E-1,-4.42382E-1
-0.69824E-1,-4.43695E-1
-1.34277E-1,-4.42123E-1
-1.68487E-1,-4.14474E-1
-1.81945E-1,-4.08203E-1
-2.22518E-1,-3.92135E-1
-2.61444E-1,-3.60870E-1
-3.07891E-1,-3.37219E-1
-3.42849E-1,-3.06564E-1
-3.51959E-1,-2.93121E-1
-3.72299E-1,-2.83554E-1
-3.88961E-1,-2.51373E-1
-4.09500E-1,-2.15469E-1
-4.23751E-1,-1.61392E-1
-4.16549E-1,-1.32049E-1
-4.35287E-1,-1.19949E-1
-4.57611E-1,-0.84579E-1
-4.68383E-1,-0.43991E-1
-4.73846E-1,0.00824E-1
-4.69329E-1,0.29388E-1
-4.77356E-1,0.47378E-1
-4.89547E-1,0.76019E-1
-4.91607E-1,1.14364E-1
-4.82711E-1,1.49017E-1
-4.62890E-1,1.77505E-1
-4.55307E-1,1.93832E-1
-4.53842E-1,2.23526E-1
-4.46945E-1,2.68692E-1
-4.23400E-1,3.12011E-1
-3.99734E-1,3.37646E-1
-3.89587E-1,3.62945E-1
-3.67782E-1,3.93844E-1
-3.51638E-1,4.22790E-1
-3.25515E-1,4.62951E-1
-2.96539E-1,4.82284E-1
-2.79357E-1,4.91989E-1
-2.52685E-1,5.06225E-1
-2.19665E-1,5.11932E-1
-1.86920E-1,5.37628E-1
-1.34307E-1,5.62713E-1
-0.96405E-1,5.67169E-1
-0.64514E-1,5.75683E-1
-0.16937E-1,5.71502E-1
0.33050E-1,5.77880E-1
1.11328E-1,5.82763E-1
1.54357E-1,5.68847E-1
1.7276E-1,5.77941E-1
2.05047E-1,5.74432E-1
2.29522E-1,5.46478E-1
2.77557E-1,5.31341E-1
3.33068E-1,4.86877E-1
3.65020E-1,4.65515E-1
4.04953E-1,4.48211E-1
4.32800E-1,4.01931E-1
4.57244E-1,3.59359E-1
5.02197E-1,2.95623E-1
5.25268E-1,2.45971E-1
5.61218E-1,2.23297E-1
5.93963E-1,1.80236E-1
5.78491E-1,1.35650E-1
5.81359E-1,1.07299E-1
5.87646E-1,0.40557E-1
5.81024E-1,-0.09124E-1
5.86547E-1,-0.56793E-1
5.48950E-1,-1.11541E-1
5.10986E-1,-1.31805E-1
4.86648E-1,-1.93084E-1
4.43801E-1,-2.54257E-1
4.22119E-1,-3.09280E-1
3.84307E-1,-3.62411E-1
3.39721E-1,-3.59878E-1
3.23226E-1,-3.76602E-1
2.61810E-1,-4.08981E-1
2.06268E-1,-4.27017E-1
1.55334E-1,-4.58282E-1
1.02233E-1,-4.47082E-1
0.91201E-1,-4.32342E-1
0.34927E-1,-4.31045E-1
-0.33523E-1,-4.05197E-1
-0.97457E-1,-4.08523E-1
-1.69464E-1,-3.92181E-1
-1.72561E-1,-3.68347E-1
-1.94366E-1,-3.73321E-1
-2.27157E-1,-3.26690E-1
-2.49694E-1,-3.01437E-1
-3.11904E-1,-2.75390E-1
-3.25073E-1,-2.25952E-1
-3.17138E-1,-2.19421E-1
-3.23486E-1,-1.76559E-1
-3.16177E-1,-1.28173E-1
-3.58322E-1,-0.78292E-1
-3.77670E-1,0.00320E-1
-3.58169E-1,0.04699E-1
-3.65402E-1,0.20507E-1
-3.34732E-1,0.46920E-1
-3.47900E-1,0.81268E-1
END
