CITIFILE A.01.01
#NA VERSION HP8510C.08.10
NAME DATA
#NA REGISTER 4
VAR FREQ MAG 201
DATA S[1,1] RI
DATA S[2,1] RI
DATA S[1,2] RI
DATA S[2,2] RI
SEG_LIST_BEGIN
SEG 8000000000 12000000000 201
SEG_LIST_END
COMMENT       YEAR MONTH DAY HOUR MINUTE SECONDS
CONSTANT TIME 2013   09   26  18    43    34.0
BEGIN
-5.35553E-1,-1.72515E-1
-5.50170E-1,-1.17797E-1
-5.55847E-1,-0.53314E-1
-5.61615E-1,-0.00305E-1
-5.62591E-1,0.63842E-1
-5.48217E-1,1.15295E-1
-5.33996E-1,1.67327E-1
-5.10131E-1,2.14569E-1
-4.88754E-1,2.73407E-1
-4.55123E-1,3.25561E-1
-4.23126E-1,3.64028E-1
-3.84017E-1,4.02023E-1
-3.44940E-1,4.30999E-1
-2.98477E-1,4.72137E-1
-2.44308E-1,4.99191E-1
-1.93542E-1,5.21545E-1
-1.41235E-1,5.38024E-1
-0.91705E-1,5.43548E-1
-0.43823E-1,5.57952E-1
0.23712E-1,5.49713E-1
0.77819E-1,5.41870E-1
1.32354E-1,5.32226E-1
1.80267E-1,5.17517E-1
2.24136E-1,4.95742E-1
2.6474E-1,4.68414E-1
3.04794E-1,4.43069E-1
3.46389E-1,4.10766E-1
3.87847E-1,3.78433E-1
4.20471E-1,3.32931E-1
4.42459E-1,3.04626E-1
4.72183E-1,2.59765E-1
4.90097E-1,2.05947E-1
5.06835E-1,1.59332E-1
5.19012E-1,1.03729E-1
5.28015E-1,0.67749E-1
5.32592E-1,0.04364E-1
5.15411E-1,-0.41931E-1
5.08911E-1,-0.82672E-1
5.09491E-1,-1.38458E-1
4.82147E-1,-1.92672E-1
4.59487E-1,-2.33261E-1
4.30328E-1,-2.61688E-1
4.02298E-1,-2.96920E-1
3.75396E-1,-3.35723E-1
3.31039E-1,-3.81332E-1
3.00415E-1,-4.01916E-1
2.59674E-1,-4.19601E-1
2.21435E-1,-4.32006E-1
1.81503E-1,-4.43084E-1
1.36596E-1,-4.74426E-1
0.75485E-1,-4.74044E-1
0.46020E-1,-4.72930E-1
0.15167E-1,-4.73663E-1
-0.25634E-1,-4.6698E-1
-0.70770E-1,-4.58725E-1
-1.26632E-1,-4.47891E-1
-1.63314E-1,-4.38491E-1
-1.94534E-1,-4.22424E-1
-2.20474E-1,-3.99002E-1
-2.41699E-1,-3.66516E-1
-2.85293E-1,-3.46817E-1
-3.20800E-1,-3.05572E-1
-3.35464E-1,-2.84347E-1
-3.49533E-1,-2.68417E-1
-3.62121E-1,-2.35931E-1
-3.74511E-1,-1.99127E-1
-3.95980E-1,-1.47354E-1
-4.10583E-1,-1.17370E-1
-4.17190E-1,-0.89767E-1
-4.10766E-1,-0.63964E-1
-3.94928E-1,-0.36788E-1
-3.99871E-1,0.10162E-1
-3.87908E-1,0.54336E-1
-3.84567E-1,0.71792E-1
-3.83972E-1,0.82443E-1
-3.72055E-1,0.99533E-1
-3.51501E-1,1.35543E-1
-3.24691E-1,1.70272E-1
-3.27941E-1,2.01049E-1
-3.28384E-1,2.26486E-1
-3.16024E-1,2.44812E-1
-2.74063E-1,2.53601E-1
-2.34252E-1,2.69546E-1
-2.09869E-1,3.02291E-1
-1.91955E-1,3.36074E-1
-1.82067E-1,3.48724E-1
-1.61956E-1,3.45947E-1
-1.27014E-1,3.41827E-1
-0.81344E-1,3.43734E-1
-0.40481E-1,3.72085E-1
-0.06027E-1,3.91464E-1
0.12466E-1,3.96362E-1
0.31494E-1,3.73977E-1
0.64498E-1,3.51699E-1
1.10458E-1,3.43185E-1
1.66626E-1,3.40744E-1
1.92688E-1,3.37616E-1
2.08969E-1,3.32016E-1
2.3172E-1,3.02185E-1
2.53219E-1,2.62313E-1
3.02169E-1,2.32498E-1
3.46374E-1,2.01446E-1
3.80340E-1,1.73721E-1
3.79821E-1,1.29684E-1
3.73291E-1,0.83511E-1
3.80050E-1,0.27114E-1
3.96728E-1,-0.34942E-1
3.99276E-1,-0.86578E-1
3.82568E-1,-1.17065E-1
3.57620E-1,-1.47583E-1
3.24829E-1,-1.92230E-1
2.99865E-1,-2.51861E-1
2.72857E-1,-3.02246E-1
2.49664E-1,-3.34381E-1
2.13623E-1,-3.45809E-1
1.59988E-1,-3.57254E-1
0.96908E-1,-3.79364E-1
0.36773E-1,-4.10018E-1
-0.04440E-1,-4.24636E-1
-0.21987E-1,-4.21081E-1
-0.59799E-1,-4.11239E-1
-1.17065E-1,-3.84338E-1
-1.88552E-1,-3.68438E-1
-2.40631E-1,-3.61633E-1
-2.72476E-1,-3.64471E-1
-2.92846E-1,-3.4758E-1
-3.21502E-1,-3.02124E-1
-3.60519E-1,-2.35977E-1
-4.06982E-1,-1.90307E-1
-4.48349E-1,-1.64871E-1
-4.59320E-1,-1.55044E-1
-4.62997E-1,-1.25396E-1
-4.61044E-1,-0.57189E-1
-4.60037E-1,0.19393E-1
-4.82406E-1,0.70419E-1
-5.04089E-1,1.00921E-1
-5.00976E-1,1.19323E-1
-4.77981E-1,1.59713E-1
-4.31381E-1,2.24197E-1
-4.08325E-1,2.88177E-1
-4.05242E-1,3.46969E-1
-3.98468E-1,3.64913E-1
-3.79608E-1,3.75351E-1
-3.20770E-1,4.04251E-1
-2.49069E-1,4.43054E-1
-2.08374E-1,4.87075E-1
-1.90429E-1,5.16632E-1
-1.80450E-1,5.14343E-1
-1.48345E-1,5.15350E-1
-0.58075E-1,5.13427E-1
0.13793E-1,5.15716E-1
0.64666E-1,5.52032E-1
0.83740E-1,5.62377E-1
0.91735E-1,5.53344E-1
1.46057E-1,5.17211E-1
2.17529E-1,4.57412E-1
2.81829E-1,4.42733E-1
3.34213E-1,4.42321E-1
3.45657E-1,4.40246E-1
3.56063E-1,4.15252E-1
3.83255E-1,3.40225E-1
4.19357E-1,2.77816E-1
4.82177E-1,2.35961E-1
5.16204E-1,2.15026E-1
5.25482E-1,1.92779E-1
5.04211E-1,1.38855E-1
4.87518E-1,0.59005E-1
4.90707E-1,-0.26107E-1
5.00762E-1,-0.81756E-1
5.05004E-1,-1.06384E-1
4.77752E-1,-1.15646E-1
4.39102E-1,-1.49902E-1
3.85635E-1,-2.11547E-1
3.54538E-1,-2.69821E-1
3.53164E-1,-3.12088E-1
3.40850E-1,-3.24035E-1
3.16574E-1,-3.22128E-1
2.46078E-1,-3.41934E-1
1.69174E-1,-3.63388E-1
1.32324E-1,-3.96820E-1
1.12213E-1,-4.20715E-1
1.09008E-1,-4.06585E-1
0.74859E-1,-3.94897E-1
0.00640E-1,-3.65509E-1
-0.56366E-1,-3.61969E-1
-0.99594E-1,-3.88397E-1
-1.08184E-1,-3.91265E-1
-1.02706E-1,-3.80523E-1
-1.40441E-1,-3.34304E-1
-1.93862E-1,-2.7948E-1
-2.55096E-1,-2.65121E-1
-2.90145E-1,-2.61489E-1
-2.70782E-1,-2.70401E-1
-2.68447E-1,-2.46307E-1
-2.68875E-1,-1.65206E-1
-3.03054E-1,-1.06704E-1
-3.58139E-1,-0.71762E-1
-3.63540E-1,-0.87738E-1
-3.51409E-1,-1.18713E-1
-3.20175E-1,-0.84747E-1
-2.99484E-1,-0.08834E-1
END
BEGIN
-8.74298E-1,1.41113E-1
-7.85400E-1,2.27111E-1
-7.88269E-1,2.60803E-1
-7.66815E-1,3.91937E-1
-6.95129E-1,4.55200E-1
-6.43981E-1,5.54595E-1
-5.03326E-1,5.90911E-1
-4.63501E-1,5.49408E-1
-4.59716E-1,6.01806E-1
-4.01245E-1,6.39465E-1
-3.69110E-1,6.94915E-1
-2.46948E-1,7.31903E-1
-2.09259E-1,6.79168E-1
-2.21435E-1,7.41943E-1
-1.10137E-1,7.99011E-1
-0.46661E-1,8.05694E-1
0.73547E-1,8.35632E-1
1.55304E-1,7.46154E-1
1.38793E-1,7.48535E-1
2.33001E-1,7.90039E-1
3.05084E-1,7.67761E-1
4.14764E-1,7.89917E-1
5.39886E-1,6.78680E-1
5.38787E-1,6.19049E-1
6.32049E-1,6.06048E-1
6.87042E-1,4.96643E-1
7.33520E-1,4.59014E-1
8.13537E-1,3.08990E-1
7.26898E-1,1.98913E-1
7.11761E-1,2.07489E-1
7.29248E-1,1.54327E-1
7.30896E-1,1.45568E-1
8.08105E-1,0.79254E-1
7.62908E-1,-0.31127E-1
7.49420E-1,-0.12939E-1
8.29528E-1,-0.61950E-1
8.60076E-1,-1.49871E-1
9.27002E-1,-2.83783E-1
8.19732E-1,-4.90661E-1
6.90795E-1,-4.82818E-1
7.02423E-1,-5.28472E-1
6.25488E-1,-6.10168E-1
5.99243E-1,-6.45996E-1
5.14190E-1,-7.66235E-1
3.80310E-1,-7.36755E-1
3.94805E-1,-7.35015E-1
3.25653E-1,-8.22235E-1
2.58483E-1,-8.29620E-1
1.93756E-1,-9.28405E-1
-0.09216E-1,-9.27093E-1
-0.65094E-1,-8.32489E-1
-1.12609E-1,-8.30169E-1
-1.69433E-1,-7.84942E-1
-1.86523E-1,-8.01483E-1
-3.01086E-1,-8.05755E-1
-3.52508E-1,-7.31475E-1
-3.84796E-1,-7.29736E-1
-4.52392E-1,-6.94519E-1
-4.86328E-1,-6.97814E-1
-6.32110E-1,-6.92871E-1
-7.15087E-1,-5.40191E-1
-7.08984E-1,-4.70764E-1
-7.45300E-1,-3.91693E-1
-7.09869E-1,-3.34930E-1
-7.61962E-1,-3.46221E-1
-8.29101E-1,-2.38037E-1
-8.00109E-1,-1.73736E-1
-8.36517E-1,-1.40319E-1
-8.49304E-1,-0.63720E-1
-8.92486E-1,-0.19592E-1
-9.39880E-1,1.31256E-1
-8.57452E-1,2.46337E-1
-8.30383E-1,2.99163E-1
-7.63732E-1,3.85864E-1
-7.04681E-1,3.89953E-1
-7.06543E-1,4.43328E-1
-6.43402E-1,4.96368E-1
-6.35559E-1,5.14190E-1
-6.0849E-1,5.9375E-1
-5.51971E-1,6.12823E-1
-5.68603E-1,6.72332E-1
-4.92248E-1,7.8125E-1
-4.07928E-1,8.20861E-1
-3.15307E-1,8.89404E-1
-1.91467E-1,8.66302E-1
-1.80603E-1,8.59252E-1
-0.93292E-1,9.24469E-1
0.05462E-1,8.84033E-1
0.41748E-1,9.02984E-1
1.52069E-1,9.03015E-1
1.86950E-1,8.72497E-1
2.67028E-1,9.34509E-1
4.23461E-1,8.88702E-1
4.79461E-1,8.15612E-1
5.71624E-1,7.73254E-1
6.19354E-1,6.68243E-1
6.41418E-1,6.40075E-1
7.16888E-1,5.71807E-1
7.12921E-1,5.02624E-1
7.59643E-1,4.95117E-1
8.26568E-1,4.14337E-1
8.37493E-1,3.62274E-1
9.17419E-1,3.12042E-1
9.45922E-1,1.95617E-1
9.68780E-1,1.33667E-1
1.02014E0,0.00793E-1
9.63684E-1,-1.29608E-1
9.32373E-1,-1.89666E-1
9.07043E-1,-2.85278E-1
8.54553E-1,-3.44238E-1
8.37616E-1,-4.19494E-1
7.60040E-1,-5.02868E-1
7.06054E-1,-5.16449E-1
6.90216E-1,-5.78552E-1
6.33026E-1,-6.35437E-1
5.94909E-1,-6.89819E-1
5.12817E-1,-7.67486E-1
4.18853E-1,-7.83599E-1
3.58306E-1,-8.12255E-1
2.60406E-1,-8.34716E-1
2.02056E-1,-8.14331E-1
1.49749E-1,-8.40637E-1
0.56854E-1,-8.29376E-1
0.10742E-1,-8.06396E-1
-0.57220E-1,-8.03466E-1
-1.03881E-1,-7.68981E-1
-1.30889E-1,-7.84698E-1
-2.09930E-1,-7.89794E-1
-2.69409E-1,-7.65106E-1
-3.47442E-1,-7.43896E-1
-4.03778E-1,-6.70898E-1
-4.15649E-1,-6.50756E-1
-4.92095E-1,-6.36962E-1
-5.33172E-1,-5.73120E-1
-5.64605E-1,-5.47088E-1
-6.12121E-1,-4.78179E-1
-5.96740E-1,-4.31915E-1
-6.46606E-1,-4.32922E-1
-7.06787E-1,-3.64135E-1
-7.24639E-1,-3.16009E-1
-7.72094E-1,-2.57293E-1
-7.61138E-1,-1.76178E-1
-7.71423E-1,-1.50909E-1
-8.11004E-1,-0.62011E-1
-7.81189E-1,0.12268E-1
-7.98492E-1,0.57403E-1
-7.74505E-1,1.49108E-1
-7.27294E-1,1.59179E-1
-7.52533E-1,1.93603E-1
-7.27691E-1,2.65747E-1
-7.27844E-1,3.00293E-1
-7.25555E-1,4.00878E-1
-6.61346E-1,4.53857E-1
-6.53198E-1,4.81079E-1
-6.11175E-1,5.52825E-1
-5.67718E-1,5.79284E-1
-5.40008E-1,6.59881E-1
-4.34417E-1,7.05749E-1
-4.03839E-1,6.96960E-1
-3.72772E-1,7.60650E-1
-3.01879E-1,7.75451E-1
-2.80944E-1,8.17199E-1
-1.73034E-1,8.79241E-1
-0.87982E-1,8.57208E-1
-0.33447E-1,8.91998E-1
0.73211E-1,8.88855E-1
1.20269E-1,8.69232E-1
2.09564E-1,8.90350E-1
2.98980E-1,8.30658E-1
3.42498E-1,7.97668E-1
4.16961E-1,7.65564E-1
4.49859E-1,7.17315E-1
5.00030E-1,7.26165E-1
5.95459E-1,6.72576E-1
6.29089E-1,6.13189E-1
6.89483E-1,5.69580E-1
7.25433E-1,4.89868E-1
7.47711E-1,4.52453E-1
8.21319E-1,3.88305E-1
8.34014E-1,3.01849E-1
8.52783E-1,2.50579E-1
8.77410E-1,1.70379E-1
8.70086E-1,1.02081E-1
8.93981E-1,0.45135E-1
8.92242E-1,-0.53375E-1
8.68530E-1,-1.12304E-1
8.73931E-1,-1.82617E-1
8.46496E-1,-2.59307E-1
8.22631E-1,-3.06732E-1
8.03710E-1,-3.81744E-1
7.55767E-1,-4.42627E-1
7.30316E-1,-4.85900E-1
7.08465E-1,-5.48248E-1
6.58325E-1,-6.26709E-1
6.08398E-1,-6.78772E-1
5.30334E-1,-7.36999E-1
4.58953E-1,-7.46521E-1
4.18121E-1,-7.78350E-1
3.55468E-1,-8.29986E-1
2.85736E-1,-8.49304E-1
2.05352E-1,-8.82385E-1
END
BEGIN
-7.52288E-1,1.20941E-1
-7.71484E-1,1.92199E-1
-6.87469E-1,2.89642E-1
-6.62139E-1,2.55340E-1
-7.35595E-1,3.46557E-1
-6.56646E-1,4.60418E-1
-6.33239E-1,5.04913E-1
-5.49377E-1,6.15081E-1
-4.63348E-1,5.87951E-1
-5.07537E-1,6.33972E-1
-4.18975E-1,7.64526E-1
-3.19580E-1,7.84698E-1
-2.13287E-1,8.36731E-1
-0.97015E-1,7.83874E-1
-1.08551E-1,7.75848E-1
-0.18035E-1,8.60961E-1
0.93048E-1,8.33496E-1
1.79901E-1,8.45825E-1
3.14147E-1,7.56134E-1
2.85522E-1,6.69067E-1
3.12561E-1,7.24639E-1
4.22180E-1,6.90826E-1
4.64294E-1,6.67663E-1
5.85632E-1,6.19903E-1
5.91735E-1,4.9823E-1
5.84167E-1,5.11688E-1
6.84936E-1,4.80590E-1
7.25250E-1,4.10827E-1
8.14361E-1,3.43902E-1
8.19366E-1,1.80053E-1
7.56042E-1,1.50299E-1
8.07952E-1,1.30340E-1
8.31909E-1,0.58685E-1
8.97247E-1,-0.13183E-1
8.79638E-1,-2.07885E-1
7.42889E-1,-2.46765E-1
7.56317E-1,-2.32879E-1
7.71423E-1,-3.1073E-1
7.88238E-1,-3.80706E-1
7.59918E-1,-5.61279E-1
5.70282E-1,-6.09466E-1
5.37170E-1,-5.50842E-1
5.40557E-1,-5.97442E-1
5.21820E-1,-6.41662E-1
5.04791E-1,-7.76489E-1
3.05236E-1,-8.57605E-1
2.26287E-1,-7.67669E-1
2.22534E-1,-7.87780E-1
1.67144E-1,-8.09204E-1
1.43035E-1,-8.75854E-1
-0.45806E-1,-9.55841E-1
-1.79321E-1,-8.28521E-1
-1.76971E-1,-7.86224E-1
-2.26440E-1,-7.77832E-1
-2.38769E-1,-7.81921E-1
-3.58886E-1,-8.49426E-1
-5.18249E-1,-7.25952E-1
-5.03234E-1,-6.29943E-1
-5.36438E-1,-6.09497E-1
-5.49469E-1,-5.75073E-1
-6.17736E-1,-6.18713E-1
-7.77313E-1,-5.14862E-1
-7.55371E-1,-3.65753E-1
-7.42736E-1,-3.28369E-1
-7.45208E-1,-2.73468E-1
-7.61444E-1,-2.89276E-1
-9.0271E-1,-2.33551E-1
-9.05029E-1,-0.45196E-1
-8.44329E-1,0.03112E-1
-8.43261E-1,0.58197E-1
-8.28369E-1,0.87005E-1
-9.12017E-1,1.37054E-1
-9.14917E-1,3.34472E-1
-7.95593E-1,4.13635E-1
-7.55737E-1,4.48181E-1
-7.03704E-1,4.91272E-1
-7.05627E-1,5.16662E-1
-6.97021E-1,6.42181E-1
-5.74523E-1,7.28729E-1
-4.88769E-1,7.43927E-1
-4.14825E-1,7.53051E-1
-3.97125E-1,7.51983E-1
-3.75488E-1,8.42254E-1
-2.40570E-1,9.06768E-1
-1.52465E-1,8.85437E-1
-0.66375E-1,8.95599E-1
0.06988E-1,8.45550E-1
0.08941E-1,8.55499E-1
0.95367E-1,9.20959E-1
2.14538E-1,9.01367E-1
2.92999E-1,8.76342E-1
3.75915E-1,8.14941E-1
3.89434E-1,7.74688E-1
4.51934E-1,7.98126E-1
5.71502E-1,7.68981E-1
6.62994E-1,6.98211E-1
7.35412E-1,5.93139E-1
7.15850E-1,5.03814E-1
7.34802E-1,5.08331E-1
8.30719E-1,4.55322E-1
8.84155E-1,3.46405E-1
9.19616E-1,2.39227E-1
8.88122E-1,1.25122E-1
8.65997E-1,1.14257E-1
9.25964E-1,0.56213E-1
9.27764E-1,-0.52185E-1
9.25720E-1,-1.36505E-1
8.86901E-1,-2.64617E-1
8.04565E-1,-3.00628E-1
8.18420E-1,-3.27545E-1
8.10913E-1,-4.23217E-1
7.68493E-1,-5.07812E-1
6.89605E-1,-6.03454E-1
5.72601E-1,-6.14563E-1
5.58593E-1,-6.07086E-1
5.37994E-1,-6.76483E-1
4.76684E-1,-7.33947E-1
3.93981E-1,-7.94250E-1
2.71698E-1,-7.88879E-1
2.39868E-1,-7.45391E-1
2.24456E-1,-7.80242E-1
1.65679E-1,-8.21502E-1
0.82672E-1,-8.62304E-1
-0.43823E-1,-8.44543E-1
-0.88623E-1,-7.69317E-1
-0.99731E-1,-7.76184E-1
-1.60430E-1,-7.88757E-1
-2.27111E-1,-8.03344E-1
-3.48022E-1,-7.80914E-1
-3.97430E-1,-6.69799E-1
-3.76861E-1,-6.41235E-1
-4.21508E-1,-6.53747E-1
-4.89166E-1,-6.40960E-1
-5.84228E-1,-6.07208E-1
-6.34796E-1,-5.00885E-1
-6.11999E-1,-4.49768E-1
-6.39526E-1,-4.37164E-1
-6.78466E-1,-3.93432E-1
-7.31903E-1,-3.56811E-1
-7.94006E-1,-2.58514E-1
-7.65350E-1,-1.69982E-1
-7.55554E-1,-1.47033E-1
-7.72094E-1,-1.05224E-1
-7.92633E-1,-0.65124E-1
-8.39508E-1,0.19287E-1
-8.10333E-1,1.24298E-1
-7.81829E-1,1.61193E-1
-7.78442E-1,2.08374E-1
-7.70538E-1,2.48840E-1
-7.96478E-1,3.21716E-1
-7.50854E-1,4.58190E-1
-6.50451E-1,4.95910E-1
-6.27136E-1,5.11871E-1
-6.01104E-1,5.50659E-1
-5.90759E-1,5.92895E-1
-5.50445E-1,6.93573E-1
-4.31884E-1,7.45117E-1
-3.66424E-1,7.47955E-1
-3.14025E-1,7.72705E-1
-2.69256E-1,7.86621E-1
-2.22930E-1,8.35571E-1
-1.11389E-1,8.60290E-1
-0.29968E-1,8.28918E-1
0.25116E-1,8.17962E-1
0.72235E-1,8.11950E-1
1.17553E-1,8.23761E-1
1.95007E-1,8.33435E-1
2.72338E-1,7.99255E-1
3.30444E-1,7.62664E-1
3.76037E-1,7.26532E-1
4.20532E-1,7.13287E-1
4.89135E-1,7.05169E-1
5.64361E-1,6.54571E-1
6.06658E-1,5.94757E-1
6.37054E-1,5.40496E-1
6.74713E-1,5.00579E-1
7.21221E-1,4.57122E-1
7.78625E-1,3.99322E-1
8.09814E-1,3.27331E-1
8.23974E-1,2.61932E-1
8.41613E-1,2.07611E-1
8.61114E-1,1.34857E-1
8.79608E-1,0.66589E-1
8.91998E-1,-0.15869E-1
8.85406E-1,-0.88653E-1
8.78112E-1,-1.53015E-1
8.64440E-1,-2.33764E-1
8.31146E-1,-2.99011E-1
8.12286E-1,-3.70208E-1
7.77923E-1,-4.39697E-1
7.51403E-1,-4.93316E-1
7.24670E-1,-5.62408E-1
6.56951E-1,-6.24542E-1
6.01562E-1,-6.65069E-1
5.38787E-1,-7.15087E-1
4.89685E-1,-7.53997E-1
4.42901E-1,-8.13324E-1
3.52966E-1,-8.62060E-1
2.74902E-1,-8.57940E-1
2.07855E-1,-8.69598E-1
1.35376E-1,-8.65387E-1
END
BEGIN
-5.47790E-1,-1.62475E-1
-5.71533E-1,-1.01318E-1
-5.84960E-1,-0.36315E-1
-5.92254E-1,0.17120E-1
-5.93963E-1,0.87432E-1
-5.78460E-1,1.55304E-1
-5.60272E-1,2.28241E-1
-5.33294E-1,2.89215E-1
-5.06774E-1,3.52203E-1
-4.67376E-1,4.05441E-1
-4.29260E-1,4.49432E-1
-3.76724E-1,4.94644E-1
-3.23120E-1,5.29785E-1
-2.61566E-1,5.73638E-1
-1.98608E-1,5.94116E-1
-1.38885E-1,6.13311E-1
-0.70800E-1,6.25976E-1
-0.05096E-1,6.25E-1
0.62408E-1,6.29577E-1
1.33758E-1,6.07147E-1
1.88598E-1,5.86395E-1
2.46948E-1,5.62133E-1
3.02856E-1,5.27069E-1
3.58184E-1,4.80926E-1
4.07943E-1,4.25705E-1
4.49615E-1,3.76739E-1
4.86633E-1,3.19015E-1
5.17822E-1,2.59216E-1
5.31707E-1,1.85302E-1
5.43884E-1,1.28845E-1
5.56579E-1,0.56579E-1
5.52063E-1,-0.11077E-1
5.45227E-1,-0.61615E-1
5.2771E-1,-1.12365E-1
5.14770E-1,-1.50390E-1
4.82757E-1,-2.21557E-1
4.34646E-1,-2.64831E-1
4.03762E-1,-3.03283E-1
3.73092E-1,-3.44131E-1
3.24737E-1,-3.72955E-1
2.74856E-1,-4.00543E-1
2.19406E-1,-4.13528E-1
1.65115E-1,-4.30389E-1
1.19979E-1,-4.45022E-1
0.66543E-1,-4.55276E-1
0.29434E-1,-4.56283E-1
-0.26367E-1,-4.43679E-1
-0.75012E-1,-4.27948E-1
-1.21994E-1,-4.09408E-1
-1.67404E-1,-4.01001E-1
-2.09335E-1,-3.66012E-1
-2.40646E-1,-3.44802E-1
-2.79235E-1,-3.17672E-1
-3.17443E-1,-2.82928E-1
-3.44680E-1,-2.50595E-1
-3.63830E-1,-2.15347E-1
-3.79776E-1,-1.90582E-1
-3.96514E-1,-1.46835E-1
-4.08355E-1,-0.94253E-1
-4.08187E-1,-0.45135E-1
-4.18197E-1,-0.11001E-1
-4.13238E-1,0.27694E-1
-4.11361E-1,0.64132E-1
-4.0625E-1,1.14822E-1
-3.87664E-1,1.70242E-1
-3.68377E-1,2.09838E-1
-3.49639E-1,2.39624E-1
-3.46054E-1,2.67471E-1
-3.13171E-1,3.02764E-1
-2.68966E-1,3.25912E-1
-2.23999E-1,3.40911E-1
-1.86050E-1,3.67477E-1
-1.47811E-1,3.86810E-1
-1.01669E-1,4.06417E-1
-0.51925E-1,4.16015E-1
-0.02121E-1,4.19464E-1
0.54428E-1,4.14962E-1
0.88790E-1,3.95294E-1
1.27136E-1,4.07028E-1
1.79061E-1,3.97628E-1
2.24868E-1,3.73092E-1
2.52807E-1,3.31024E-1
2.65747E-1,3.00491E-1
3.02917E-1,2.83813E-1
3.39904E-1,2.35916E-1
3.64608E-1,1.95114E-1
3.90991E-1,1.44073E-1
3.97094E-1,0.93261E-1
3.8797E-1,0.61431E-1
4.08386E-1,0.24841E-1
4.04846E-1,-0.22186E-1
4.04800E-1,-0.65139E-1
3.79043E-1,-1.10336E-1
3.54126E-1,-1.41723E-1
3.48159E-1,-1.78009E-1
3.21701E-1,-2.28378E-1
2.98385E-1,-2.61505E-1
2.60116E-1,-3.03115E-1
2.07138E-1,-3.24310E-1
1.79718E-1,-3.29605E-1
1.54830E-1,-3.69033E-1
1.25701E-1,-3.90716E-1
0.94253E-1,-4.20715E-1
0.51055E-1,-4.08386E-1
0.31402E-1,-3.93417E-1
-0.05798E-1,-4.04922E-1
-0.55648E-1,-4.00009E-1
-0.95657E-1,-4.01245E-1
-1.40106E-1,-3.87649E-1
-1.63452E-1,-3.66317E-1
-1.86096E-1,-3.55072E-1
-2.23831E-1,-3.35647E-1
-2.49176E-1,-3.16650E-1
-2.85263E-1,-3.04382E-1
-3.06976E-1,-2.78213E-1
-3.18924E-1,-2.58361E-1
-3.35907E-1,-2.38082E-1
-3.50555E-1,-2.11807E-1
-3.69552E-1,-1.85958E-1
-3.78479E-1,-1.54296E-1
-3.93737E-1,-1.27212E-1
-4.05197E-1,-0.97198E-1
-4.18289E-1,-0.67443E-1
-4.29931E-1,-0.43335E-1
-4.46350E-1,-0.17410E-1
-4.62158E-1,0.11291E-1
-4.58328E-1,0.48797E-1
-4.50805E-1,0.70465E-1
-4.54437E-1,0.92819E-1
-4.62204E-1,1.30508E-1
-4.61425E-1,1.60644E-1
-4.55001E-1,2.03552E-1
-4.32632E-1,2.28012E-1
-4.24987E-1,2.52929E-1
-4.19937E-1,2.93991E-1
-4.01947E-1,3.32366E-1
-3.92593E-1,3.72802E-1
-3.59909E-1,4.04632E-1
-3.39706E-1,4.10659E-1
-3.31131E-1,4.35287E-1
-3.02764E-1,4.69299E-1
-2.76001E-1,4.89349E-1
-2.38922E-1,5.17517E-1
-1.97662E-1,5.16906E-1
-1.69799E-1,5.29968E-1
-1.2677E-1,5.52642E-1
-0.79589E-1,5.66101E-1
-0.29418E-1,5.86883E-1
0.30883E-1,5.73944E-1
0.56304E-1,5.57220E-1
0.84625E-1,5.64880E-1
1.46270E-1,5.73425E-1
1.88903E-1,5.66650E-1
2.41272E-1,5.51147E-1
2.59277E-1,5.08819E-1
2.73544E-1,4.89975E-1
3.26446E-1,4.76303E-1
3.79806E-1,4.33151E-1
4.26925E-1,4.00863E-1
4.56161E-1,3.46435E-1
4.55215E-1,3.18069E-1
4.85122E-1,2.98584E-1
5.24658E-1,2.3349E-1
5.40222E-1,1.89971E-1
5.71960E-1,1.38366E-1
5.51422E-1,0.94940E-1
5.44677E-1,0.83313E-1
5.51239E-1,0.3479E-1
5.26123E-1,-0.19348E-1
5.19714E-1,-0.69610E-1
4.89700E-1,-1.29852E-1
4.57946E-1,-1.53549E-1
4.41268E-1,-1.84082E-1
4.03533E-1,-2.27951E-1
3.79013E-1,-2.64617E-1
3.38058E-1,-3.25790E-1
2.89703E-1,-3.35830E-1
2.73498E-1,-3.40057E-1
2.37136E-1,-3.54614E-1
1.93679E-1,-3.53363E-1
1.44790E-1,-3.79653E-1
0.76278E-1,-3.82507E-1
0.49301E-1,-3.74145E-1
0.16555E-1,-3.73214E-1
-0.15045E-1,-3.45733E-1
-0.47515E-1,-3.44055E-1
-1.26922E-1,-3.35800E-1
-1.60186E-1,-3.09738E-1
-1.78787E-1,-3.13552E-1
-1.88629E-1,-2.85217E-1
-1.75430E-1,-2.62405E-1
-2.14775E-1,-2.47093E-1
-2.62908E-1,-1.87637E-1
-2.74932E-1,-1.58004E-1
-2.84179E-1,-1.33941E-1
-2.58560E-1,-1.1586E-1
-2.6828E-1,-1.01882E-1
-3.07296E-1,-0.28396E-1
-3.06152E-1,0.27999E-1
-3.22479E-1,0.49957E-1
-2.95410E-1,0.55282E-1
END
