CITIFILE A.01.01
#NA VERSION HP8510C.08.10
NAME DATA
#NA REGISTER 1
VAR FREQ MAG 201
DATA S[1,1] RI
DATA S[2,1] RI
DATA S[1,2] RI
DATA S[2,2] RI
SEG_LIST_BEGIN
SEG 8000000000 12000000000 201
SEG_LIST_END
COMMENT       YEAR MONTH DAY HOUR MINUTE SECONDS
CONSTANT TIME 2013   09   26  18    52    22.0
BEGIN
-5.32867E-1,-1.87011E-1
-5.49560E-1,-1.32019E-1
-5.59753E-1,-0.66589E-1
-5.67810E-1,-0.14953E-1
-5.70190E-1,0.49408E-1
-5.56091E-1,1.01074E-1
-5.42388E-1,1.55242E-1
-5.20996E-1,2.04864E-1
-5.02624E-1,2.65838E-1
-4.70794E-1,3.19381E-1
-4.38827E-1,3.58352E-1
-3.98407E-1,3.98117E-1
-3.58017E-1,4.30603E-1
-3.10607E-1,4.75997E-1
-2.56774E-1,5.05279E-1
-2.04956E-1,5.27984E-1
-1.51214E-1,5.44616E-1
-0.99060E-1,5.49865E-1
-0.47515E-1,5.65399E-1
0.21728E-1,5.58471E-1
0.77453E-1,5.51940E-1
1.31622E-1,5.40863E-1
1.79565E-1,5.24078E-1
2.24975E-1,5.00335E-1
2.67868E-1,4.72702E-1
3.09417E-1,4.47326E-1
3.51669E-1,4.14337E-1
3.91922E-1,3.80615E-1
4.22927E-1,3.32321E-1
4.46411E-1,3.02352E-1
4.76760E-1,2.56286E-1
4.95575E-1,2.01614E-1
5.11047E-1,1.54052E-1
5.21575E-1,0.9729E-1
5.28747E-1,0.59234E-1
5.32165E-1,-0.06927E-1
5.14495E-1,-0.53619E-1
5.06774E-1,-0.94268E-1
5.05828E-1,-1.49932E-1
4.75784E-1,-2.03064E-1
4.49951E-1,-2.43408E-1
4.19677E-1,-2.72247E-1
3.91372E-1,-3.07144E-1
3.64151E-1,-3.43124E-1
3.19305E-1,-3.86703E-1
2.86972E-1,-4.06280E-1
2.44644E-1,-4.21920E-1
2.06985E-1,-4.33761E-1
1.67999E-1,-4.42749E-1
1.23443E-1,-4.72137E-1
0.62713E-1,-4.69299E-1
0.34011E-1,-4.66186E-1
0.04104E-1,-4.66293E-1
-0.35247E-1,-4.58908E-1
-0.78735E-1,-4.50012E-1
-1.32843E-1,-4.37973E-1
-1.67999E-1,-4.27719E-1
-1.98028E-1,-4.10949E-1
-2.23175E-1,-3.87161E-1
-2.43194E-1,-3.55819E-1
-2.86071E-1,-3.35815E-1
-3.17276E-1,-2.90893E-1
-3.27911E-1,-2.73910E-1
-3.42422E-1,-2.59399E-1
-3.53530E-1,-2.28653E-1
-3.65387E-1,-1.94793E-1
-3.85452E-1,-1.44210E-1
-3.99154E-1,-1.16546E-1
-4.05242E-1,-0.90011E-1
-3.98361E-1,-0.64956E-1
-3.83285E-1,-0.41198E-1
-3.89190E-1,0.03616E-1
-3.76632E-1,0.43838E-1
-3.75289E-1,0.59371E-1
-3.75259E-1,0.68054E-1
-3.64807E-1,0.83511E-1
-3.46847E-1,1.18194E-1
-3.22189E-1,1.51840E-1
-3.28613E-1,1.81793E-1
-3.31115E-1,2.07519E-1
-3.20495E-1,2.24792E-1
-2.81524E-1,2.34710E-1
-2.43591E-1,2.50396E-1
-2.22122E-1,2.84317E-1
-2.05978E-1,3.19824E-1
-1.96960E-1,3.32473E-1
-1.79153E-1,3.30886E-1
-1.46804E-1,3.28674E-1
-1.02401E-1,3.32672E-1
-0.63644E-1,3.64181E-1
-0.29815E-1,3.85711E-1
-0.13290E-1,3.91601E-1
0.05874E-1,3.72497E-1
0.39245E-1,3.52096E-1
0.84503E-1,3.46786E-1
1.41342E-1,3.48342E-1
1.68365E-1,3.47000E-1
1.85043E-1,3.45611E-1
2.10281E-1,3.17825E-1
2.33245E-1,2.79251E-1
2.86590E-1,2.52899E-1
3.33358E-1,2.22641E-1
3.70147E-1,1.96243E-1
3.73992E-1,1.53442E-1
3.68743E-1,1.06567E-1
3.80310E-1,0.51239E-1
4.01031E-1,-0.12664E-1
4.06601E-1,-0.64697E-1
3.93859E-1,-0.96191E-1
3.70788E-1,-1.28723E-1
3.42056E-1,-1.74987E-1
3.20129E-1,-2.39395E-1
2.94769E-1,-2.92785E-1
2.74017E-1,-3.28399E-1
2.39273E-1,-3.43994E-1
1.86691E-1,-3.59252E-1
1.24206E-1,-3.86459E-1
0.61676E-1,-4.21844E-1
0.19775E-1,-4.40017E-1
0.01693E-1,-4.41864E-1
-0.37078E-1,-4.35791E-1
-0.99151E-1,-4.15069E-1
-1.76834E-1,-4.01260E-1
-2.33688E-1,-3.96026E-1
-2.70446E-1,-4.01733E-1
-2.96081E-1,-3.86047E-1
-3.29666E-1,-3.42208E-1
-3.76968E-1,-2.7388E-1
-4.27734E-1,-2.25708E-1
-4.74365E-1,-1.98486E-1
-4.87960E-1,-1.85760E-1
-4.95208E-1,-1.54922E-1
-5.00122E-1,-0.80688E-1
-5.00793E-1,0.03814E-1
-5.25177E-1,0.58746E-1
-5.48584E-1,0.94818E-1
-5.45105E-1,1.14532E-1
-5.20843E-1,1.60644E-1
-4.71618E-1,2.32788E-1
-4.46441E-1,3.01773E-1
-4.41818E-1,3.65539E-1
-4.30969E-1,3.84246E-1
-4.11666E-1,3.95370E-1
-3.46771E-1,4.30236E-1
-2.67181E-1,4.71160E-1
-2.23663E-1,5.1828E-1
-2.03002E-1,5.48187E-1
-1.91864E-1,5.43640E-1
-1.57074E-1,5.44677E-1
-0.55206E-1,5.42907E-1
0.21087E-1,5.41992E-1
0.75988E-1,5.78369E-1
0.94055E-1,5.85510E-1
1.00616E-1,5.76324E-1
1.60614E-1,5.34210E-1
2.35809E-1,4.66949E-1
3.03619E-1,4.50302E-1
3.55758E-1,4.47708E-1
3.64730E-1,4.43481E-1
3.74420E-1,4.15420E-1
4.00375E-1,3.32763E-1
4.36019E-1,2.65991E-1
4.98901E-1,2.21054E-1
5.31433E-1,2.00286E-1
5.36346E-1,1.75018E-1
5.07934E-1,1.17767E-1
4.87533E-1,0.35324E-1
4.86999E-1,-0.52658E-1
4.95513E-1,-1.05514E-1
4.97299E-1,-1.27853E-1
4.65377E-1,-1.33255E-1
4.23934E-1,-1.66519E-1
3.65173E-1,-2.27340E-1
3.34167E-1,-2.82821E-1
3.35632E-1,-3.22937E-1
3.23730E-1,-3.3078E-1
2.99301E-1,-3.25424E-1
2.25936E-1,-3.44268E-1
1.47964E-1,-3.62960E-1
1.15310E-1,-3.97262E-1
0.97030E-1,-4.21310E-1
0.98068E-1,-4.04342E-1
0.61889E-1,-3.93356E-1
-0.13259E-1,-3.59329E-1
-0.68649E-1,-3.57803E-1
-1.12442E-1,-3.88168E-1
-1.17584E-1,-3.92288E-1
-1.10626E-1,-3.81759E-1
-1.49627E-1,-3.32107E-1
-2.03674E-1,-2.74337E-1
-2.68844E-1,-2.61825E-1
-3.04199E-1,-2.59338E-1
-2.80090E-1,-2.71957E-1
-2.77832E-1,-2.47299E-1
-2.75878E-1,-1.61041E-1
-3.11859E-1,-1.01257E-1
-3.69247E-1,-0.64788E-1
-3.73580E-1,-0.85678E-1
-3.61389E-1,-1.22085E-1
-3.27270E-1,-0.86563E-1
-3.04580E-1,-0.06027E-1
END
BEGIN
-8.66943E-1,1.56951E-1
-7.76153E-1,2.35656E-1
-7.81005E-1,2.68768E-1
-7.55737E-1,3.99597E-1
-6.83227E-1,4.60540E-1
-6.30096E-1,5.56610E-1
-4.92065E-1,5.87463E-1
-4.56604E-1,5.46020E-1
-4.52514E-1,6.00128E-1
-3.94805E-1,6.36566E-1
-3.60992E-1,6.92352E-1
-2.40875E-1,7.26287E-1
-2.06024E-1,6.73431E-1
-2.17773E-1,7.38311E-1
-1.05651E-1,7.95013E-1
-0.42511E-1,8.00445E-1
0.78460E-1,8.29162E-1
1.56860E-1,7.39349E-1
1.40289E-1,7.42523E-1
2.33337E-1,7.85217E-1
3.05450E-1,7.61932E-1
4.14062E-1,7.84179E-1
5.39093E-1,6.73584E-1
5.35614E-1,6.14440E-1
6.2854E-1,6.03118E-1
6.84387E-1,4.93530E-1
7.30957E-1,4.56054E-1
8.11798E-1,3.07220E-1
7.23724E-1,1.95831E-1
7.08953E-1,2.04406E-1
7.25921E-1,1.52496E-1
7.27386E-1,1.42700E-1
8.04168E-1,0.78491E-1
7.59185E-1,-0.31402E-1
7.43713E-1,-0.14190E-1
8.24554E-1,-0.59783E-1
8.5495E-1,-1.46606E-1
9.23584E-1,-2.77923E-1
8.21685E-1,-4.85473E-1
6.90399E-1,-4.80346E-1
7.02575E-1,-5.24444E-1
6.27777E-1,-6.07452E-1
6.00677E-1,-6.43920E-1
5.17272E-1,-7.63610E-1
3.82324E-1,-7.37579E-1
3.96698E-1,-7.33825E-1
3.28765E-1,-8.21319E-1
2.61840E-1,-8.30474E-1
1.97448E-1,-9.29107E-1
-0.05279E-1,-9.30419E-1
-0.61920E-1,-8.36883E-1
-1.10168E-1,-8.34869E-1
-1.67541E-1,-7.90130E-1
-1.87011E-1,-8.07128E-1
-3.02246E-1,-8.11370E-1
-3.54003E-1,-7.37701E-1
-3.88519E-1,-7.34588E-1
-4.55841E-1,-6.98730E-1
-4.91851E-1,-7.03491E-1
-6.38000E-1,-6.94915E-1
-7.18658E-1,-5.41809E-1
-7.11608E-1,-4.75280E-1
-7.50854E-1,-3.95568E-1
-7.18414E-1,-3.40332E-1
-7.72430E-1,-3.47930E-1
-8.37982E-1,-2.37579E-1
-8.10028E-1,-1.73553E-1
-8.47259E-1,-1.36749E-1
-8.59191E-1,-0.59753E-1
-9.03411E-1,-0.11291E-1
-9.44824E-1,1.41449E-1
-8.61511E-1,2.52716E-1
-8.34137E-1,3.06884E-1
-7.66082E-1,3.92028E-1
-7.10540E-1,3.94073E-1
-7.11883E-1,4.51629E-1
-6.48010E-1,5.03601E-1
-6.40502E-1,5.25512E-1
-6.09832E-1,6.06109E-1
-5.53985E-1,6.24847E-1
-5.69183E-1,6.88690E-1
-4.85778E-1,7.96691E-1
-4.00085E-1,8.34106E-1
-3.03558E-1,9.00054E-1
-1.82464E-1,8.71185E-1
-1.73400E-1,8.66851E-1
-0.81634E-1,9.31243E-1
0.13549E-1,8.89648E-1
0.51513E-1,9.09698E-1
1.63879E-1,9.07806E-1
1.98028E-1,8.77319E-1
2.82135E-1,9.39361E-1
4.38842E-1,8.85833E-1
4.91149E-1,8.12286E-1
5.83984E-1,7.68707E-1
6.28265E-1,6.62933E-1
6.50207E-1,6.36718E-1
7.24945E-1,5.65155E-1
7.19177E-1,4.98199E-1
7.68890E-1,4.92034E-1
8.36242E-1,4.07104E-1
8.46008E-1,3.56658E-1
9.27276E-1,3.03619E-1
9.53125E-1,1.85852E-1
9.76135E-1,1.23352E-1
1.02691E0,-0.13427E-1
9.64874E-1,-1.44592E-1
9.33288E-1,-2.03308E-1
9.05883E-1,-2.99163E-1
8.53729E-1,-3.53973E-1
8.35662E-1,-4.31671E-1
7.56225E-1,-5.13092E-1
7.03643E-1,-5.25390E-1
6.87622E-1,-5.89141E-1
6.28356E-1,-6.46484E-1
5.9021E-1,-7.01263E-1
5.05310E-1,-7.79113E-1
4.08996E-1,-7.92511E-1
3.48846E-1,-8.20678E-1
2.48138E-1,-8.39202E-1
1.93695E-1,-8.16619E-1
1.39617E-1,-8.46679E-1
0.44952E-1,-8.31756E-1
0.01220E-1,-8.07800E-1
-0.69000E-1,-8.03466E-1
-1.12243E-1,-7.67791E-1
-1.39190E-1,-7.87017E-1
-2.23083E-1,-7.89672E-1
-2.80456E-1,-7.62390E-1
-3.59100E-1,-7.38678E-1
-4.11010E-1,-6.61285E-1
-4.19769E-1,-6.46148E-1
-5.0E-1,-6.31927E-1
-5.38116E-1,-5.64971E-1
-5.67993E-1,-5.40832E-1
-6.14105E-1,-4.70489E-1
-5.95306E-1,-4.28497E-1
-6.49780E-1,-4.31549E-1
-7.10327E-1,-3.59283E-1
-7.26532E-1,-3.12072E-1
-7.74749E-1,-2.50793E-1
-7.59918E-1,-1.72119E-1
-7.72460E-1,-1.51062E-1
-8.14453E-1,-0.57281E-1
-7.81677E-1,0.15045E-1
-8.01605E-1,0.60028E-1
-7.74475E-1,1.52648E-1
-7.28668E-1,1.56646E-1
-7.59521E-1,1.93359E-1
-7.34069E-1,2.68463E-1
-7.34893E-1,3.03955E-1
-7.32269E-1,4.08508E-1
-6.63665E-1,4.59747E-1
-6.61529E-1,4.86022E-1
-6.18103E-1,5.62042E-1
-5.74859E-1,5.88165E-1
-5.45898E-1,6.73248E-1
-4.33868E-1,7.17651E-1
-4.07196E-1,7.06695E-1
-3.76190E-1,7.76031E-1
-3.02703E-1,7.89856E-1
-2.83050E-1,8.35388E-1
-1.66595E-1,8.99353E-1
-0.81115E-1,8.72222E-1
-0.26123E-1,9.11377E-1
0.87371E-1,9.06158E-1
1.32659E-1,8.84521E-1
2.28820E-1,9.06524E-1
3.19213E-1,8.39355E-1
3.61175E-1,8.07098E-1
4.38232E-1,7.70721E-1
4.69696E-1,7.20886E-1
5.23071E-1,7.32238E-1
6.19995E-1,6.71844E-1
6.50177E-1,6.11602E-1
7.12921E-1,5.64422E-1
7.46734E-1,4.82269E-1
7.68127E-1,4.46197E-1
8.42742E-1,3.76281E-1
8.51562E-1,2.87292E-1
8.70025E-1,2.35717E-1
8.93249E-1,1.54113E-1
8.83544E-1,0.85052E-1
9.08111E-1,0.26062E-1
9.01886E-1,-0.75408E-1
8.75152E-1,-1.32507E-1
8.80676E-1,-2.05230E-1
8.49670E-1,-2.81402E-1
8.24859E-1,-3.27056E-1
8.04290E-1,-4.04510E-1
7.52624E-1,-4.63439E-1
7.27996E-1,-5.05310E-1
7.06756E-1,-5.68542E-1
6.52923E-1,-6.47460E-1
6.02569E-1,-7.00439E-1
5.19287E-1,-7.59155E-1
4.47967E-1,-7.65136E-1
4.06341E-1,-7.96783E-1
3.39141E-1,-8.47168E-1
2.71392E-1,-8.65417E-1
1.86615E-1,-9.00329E-1
END
BEGIN
-7.49237E-1,1.31774E-1
-7.67730E-1,2.01507E-1
-6.81762E-1,2.99987E-1
-6.54357E-1,2.64099E-1
-7.27264E-1,3.52905E-1
-6.48834E-1,4.67804E-1
-6.23504E-1,5.09735E-1
-5.40679E-1,6.19842E-1
-4.52453E-1,5.91583E-1
-4.97009E-1,6.34338E-1
-4.09973E-1,7.65106E-1
-3.09875E-1,7.83935E-1
-2.04132E-1,8.35907E-1
-0.86822E-1,7.81311E-1
-1.00341E-1,7.69989E-1
-0.10742E-1,8.55926E-1
1.00219E-1,8.27514E-1
1.85699E-1,8.39538E-1
3.19213E-1,7.48626E-1
2.89001E-1,6.61315E-1
3.14636E-1,7.18048E-1
4.23950E-1,6.83654E-1
4.65515E-1,6.60247E-1
5.85052E-1,6.12823E-1
5.90179E-1,4.91912E-1
5.83068E-1,5.06469E-1
6.83715E-1,4.75372E-1
7.23083E-1,4.05456E-1
8.12225E-1,3.37890E-1
8.16711E-1,1.76025E-1
7.53356E-1,1.47155E-1
8.05755E-1,1.26861E-1
8.30322E-1,0.54962E-1
8.94622E-1,-0.17211E-1
8.75213E-1,-2.11212E-1
7.39288E-1,-2.47009E-1
7.54852E-1,-2.33306E-1
7.70568E-1,-3.13293E-1
7.87323E-1,-3.84094E-1
7.55615E-1,-5.64697E-1
5.67810E-1,-6.07757E-1
5.37536E-1,-5.50811E-1
5.40985E-1,-5.99853E-1
5.21881E-1,-6.45721E-1
5.00793E-1,-7.82196E-1
3.01483E-1,-8.57757E-1
2.26257E-1,-7.69012E-1
2.21862E-1,-7.91595E-1
1.65588E-1,-8.14025E-1
1.38305E-1,-8.81378E-1
-0.51727E-1,-9.56420E-1
-1.80633E-1,-8.29559E-1
-1.79382E-1,-7.90130E-1
-2.30804E-1,-7.82714E-1
-2.45361E-1,-7.87048E-1
-3.68774E-1,-8.51074E-1
-5.24200E-1,-7.25952E-1
-5.09582E-1,-6.32598E-1
-5.44158E-1,-6.11206E-1
-5.58563E-1,-5.77453E-1
-6.28784E-1,-6.18072E-1
-7.83996E-1,-5.12268E-1
-7.64587E-1,-3.66027E-1
-7.54058E-1,-3.27392E-1
-7.56744E-1,-2.70599E-1
-7.74414E-1,-2.83844E-1
-9.13208E-1,-2.24090E-1
-9.14306E-1,-0.37933E-1
-8.54095E-1,0.12786E-1
-8.52905E-1,0.69152E-1
-8.37310E-1,0.99700E-1
-9.17755E-1,1.52648E-1
-9.18884E-1,3.47198E-1
-7.99896E-1,4.29626E-1
-7.57934E-1,4.65362E-1
-7.03399E-1,5.09277E-1
-7.01812E-1,5.35827E-1
-6.90643E-1,6.57806E-1
-5.69580E-1,7.45178E-1
-4.80896E-1,7.60711E-1
-4.04083E-1,7.68859E-1
-3.82873E-1,7.66845E-1
-3.59893E-1,8.53942E-1
-2.26287E-1,9.17358E-1
-1.35833E-1,8.94989E-1
-0.49865E-1,9.03045E-1
0.26001E-1,8.52478E-1
0.30304E-1,8.58520E-1
1.13861E-1,9.19738E-1
2.32177E-1,9.00482E-1
3.11920E-1,8.73657E-1
3.94287E-1,8.11645E-1
4.09027E-1,7.67791E-1
4.68444E-1,7.88208E-1
5.85693E-1,7.59613E-1
6.77154E-1,6.89361E-1
7.49572E-1,5.83343E-1
7.30560E-1,4.89898E-1
7.45269E-1,4.91546E-1
8.38867E-1,4.41131E-1
8.92578E-1,3.32519E-1
9.27185E-1,2.23999E-1
8.94195E-1,1.08612E-1
8.69079E-1,0.96710E-1
9.27368E-1,0.40405E-1
9.29748E-1,-0.68634E-1
9.26849E-1,-1.53472E-1
8.87420E-1,-2.81829E-1
8.01818E-1,-3.18908E-1
8.13720E-1,-3.44055E-1
8.06823E-1,-4.38293E-1
7.64343E-1,-5.23590E-1
6.83380E-1,-6.20605E-1
5.62103E-1,-6.31683E-1
5.47393E-1,-6.21032E-1
5.26641E-1,-6.88476E-1
4.65759E-1,-7.46673E-1
3.81469E-1,-8.08868E-1
2.54303E-1,-8.01178E-1
2.21374E-1,-7.52380E-1
2.08679E-1,-7.84820E-1
1.50024E-1,-8.25958E-1
0.66864E-1,-8.68591E-1
-0.65673E-1,-8.48815E-1
-1.08398E-1,-7.66693E-1
-1.15692E-1,-7.72796E-1
-1.74957E-1,-7.85064E-1
-2.40936E-1,-8.02093E-1
-3.68042E-1,-7.78686E-1
-4.16015E-1,-6.57836E-1
-3.87451E-1,-6.29455E-1
-4.30633E-1,-6.44714E-1
-4.97772E-1,-6.32995E-1
-5.96923E-1,-5.99762E-1
-6.46667E-1,-4.86755E-1
-6.16272E-1,-4.37042E-1
-6.43371E-1,-4.28375E-1
-6.82769E-1,-3.84887E-1
-7.38464E-1,-3.50372E-1
-8.03192E-1,-2.47314E-1
-7.68402E-1,-1.58416E-1
-7.58850E-1,-1.37939E-1
-7.74932E-1,-0.96954E-1
-7.97454E-1,-0.58624E-1
-8.47381E-1,0.30181E-1
-8.14209E-1,1.38427E-1
-7.84179E-1,1.72088E-1
-7.81646E-1,2.19268E-1
-7.74169E-1,2.58514E-1
-8.03375E-1,3.34808E-1
-7.53631E-1,4.77783E-1
-6.46453E-1,5.11779E-1
-6.25915E-1,5.25665E-1
-6.00921E-1,5.65094E-1
-5.91705E-1,6.07543E-1
-5.49255E-1,7.15271E-1
-4.22180E-1,7.65136E-1
-3.57666E-1,7.64404E-1
-3.04687E-1,7.90161E-1
-2.58606E-1,8.04077E-1
-2.11761E-1,8.54644E-1
-0.93170E-1,8.77868E-1
-0.12451E-1,8.40637E-1
0.41595E-1,8.28887E-1
0.90606E-1,8.23516E-1
1.36261E-1,8.35571E-1
2.17376E-1,8.46618E-1
2.96508E-1,8.07342E-1
3.54675E-1,7.68127E-1
4.00299E-1,7.3172E-1
4.48211E-1,7.16552E-1
5.19073E-1,7.07946E-1
5.96374E-1,6.52374E-1
6.35894E-1,5.87554E-1
6.64733E-1,5.32012E-1
7.03399E-1,4.88281E-1
7.48596E-1,4.42443E-1
8.06213E-1,3.81408E-1
8.35052E-1,3.04870E-1
8.46130E-1,2.38281E-1
8.62884E-1,1.82098E-1
8.77441E-1,1.05438E-1
8.95660E-1,0.37078E-1
9.04937E-1,-0.49743E-1
8.93096E-1,-1.23321E-1
8.83911E-1,-1.85546E-1
8.66455E-1,-2.67944E-1
8.29803E-1,-3.30963E-1
8.09326E-1,-4.02862E-1
7.69928E-1,-4.72595E-1
7.42584E-1,-5.24749E-1
7.13562E-1,-5.93902E-1
6.41571E-1,-6.53015E-1
5.85144E-1,-6.92199E-1
5.19836E-1,-7.42309E-1
4.69055E-1,-7.79602E-1
4.20501E-1,-8.39721E-1
3.26019E-1,-8.85803E-1
2.49755E-1,-8.76495E-1
1.80755E-1,-8.87085E-1
1.0672E-1,-8.79791E-1
END
BEGIN
-5.59173E-1,-1.33941E-1
-5.80139E-1,-0.72235E-1
-5.89447E-1,-0.08300E-1
-5.93963E-1,0.44891E-1
-5.91552E-1,1.15325E-1
-5.737E-1,1.81915E-1
-5.52795E-1,2.55035E-1
-5.24017E-1,3.13873E-1
-4.96124E-1,3.74710E-1
-4.54818E-1,4.25277E-1
-4.15847E-1,4.68322E-1
-3.62731E-1,5.11871E-1
-3.09631E-1,5.45898E-1
-2.48718E-1,5.86853E-1
-1.875E-1,6.04522E-1
-1.28448E-1,6.21795E-1
-0.61889E-1,6.33453E-1
0.04394E-1,6.32110E-1
0.69915E-1,6.35711E-1
1.39617E-1,6.12793E-1
1.92871E-1,5.91583E-1
2.49755E-1,5.66864E-1
3.05908E-1,5.32318E-1
3.61770E-1,4.85809E-1
4.11163E-1,4.30740E-1
4.51828E-1,3.82080E-1
4.87716E-1,3.25546E-1
5.18035E-1,2.66082E-1
5.32653E-1,1.91741E-1
5.45593E-1,1.34857E-1
5.58593E-1,0.62988E-1
5.54626E-1,-0.0354E-1
5.47973E-1,-0.53405E-1
5.31494E-1,-1.04309E-1
5.18768E-1,-1.42364E-1
4.88601E-1,-2.14096E-1
4.41925E-1,-2.56576E-1
4.11300E-1,-2.93563E-1
3.82339E-1,-3.33862E-1
3.34030E-1,-3.63586E-1
2.84332E-1,-3.92227E-1
2.27615E-1,-4.06356E-1
1.73461E-1,-4.22592E-1
1.28952E-1,-4.36950E-1
0.76568E-1,-4.47845E-1
0.38513E-1,-4.50439E-1
-0.18676E-1,-4.38217E-1
-0.67947E-1,-4.22226E-1
-1.14685E-1,-4.03610E-1
-1.59515E-1,-3.95172E-1
-2.01065E-1,-3.60611E-1
-2.33078E-1,-3.38775E-1
-2.71743E-1,-3.10684E-1
-3.09585E-1,-2.74459E-1
-3.36120E-1,-2.41836E-1
-3.54934E-1,-2.07824E-1
-3.70971E-1,-1.82815E-1
-3.87619E-1,-1.37832E-1
-3.98010E-1,-0.85159E-1
-3.97415E-1,-0.36468E-1
-4.07409E-1,-0.01815E-1
-4.01062E-1,0.38711E-1
-3.95248E-1,0.72769E-1
-3.88183E-1,1.22192E-1
-3.68225E-1,1.76574E-1
-3.47518E-1,2.15408E-1
-3.29208E-1,2.42782E-1
-3.25744E-1,2.70629E-1
-2.91076E-1,3.03817E-1
-2.45285E-1,3.24539E-1
-1.99539E-1,3.37539E-1
-1.60751E-1,3.61297E-1
-1.24282E-1,3.78646E-1
-0.77682E-1,3.9711E-1
-0.27511E-1,4.03945E-1
0.22583E-1,4.04434E-1
0.78918E-1,3.96163E-1
1.09787E-1,3.75732E-1
1.47445E-1,3.87954E-1
1.99157E-1,3.75915E-1
2.43011E-1,3.48907E-1
2.67593E-1,3.05435E-1
2.78183E-1,2.74581E-1
3.14193E-1,2.58377E-1
3.49060E-1,2.09396E-1
3.69552E-1,1.67831E-1
3.93020E-1,1.16210E-1
3.95233E-1,0.64788E-1
3.85040E-1,0.36010E-1
4.05380E-1,-0.00152E-1
4.00039E-1,-0.46814E-1
3.97888E-1,-0.89675E-1
3.69445E-1,-1.34048E-1
3.41201E-1,-1.64123E-1
3.35708E-1,-1.99462E-1
3.07617E-1,-2.48642E-1
2.83920E-1,-2.80639E-1
2.42446E-1,-3.21044E-1
1.86477E-1,-3.39355E-1
1.60415E-1,-3.41522E-1
1.35269E-1,-3.81668E-1
1.06063E-1,-4.02572E-1
0.72982E-1,-4.31869E-1
0.28839E-1,-4.17114E-1
0.10360E-1,-4.00589E-1
-0.27298E-1,-4.12445E-1
-0.76858E-1,-4.06478E-1
-1.16821E-1,-4.06616E-1
-1.62094E-1,-3.8974E-1
-1.85119E-1,-3.65737E-1
-2.07504E-1,-3.53378E-1
-2.45315E-1,-3.32672E-1
-2.70156E-1,-3.12454E-1
-3.07754E-1,-2.98111E-1
-3.28552E-1,-2.68173E-1
-3.39126E-1,-2.46139E-1
-3.56018E-1,-2.24838E-1
-3.70040E-1,-1.97311E-1
-3.88610E-1,-1.70120E-1
-3.95584E-1,-1.35757E-1
-4.09622E-1,-1.05957E-1
-4.18487E-1,-0.74462E-1
-4.30801E-1,-0.43304E-1
-4.4133E-1,-0.18188E-1
-4.56161E-1,0.08926E-1
-4.70306E-1,0.40451E-1
-4.61166E-1,0.79269E-1
-4.52560E-1,1.00357E-1
-4.55108E-1,1.23962E-1
-4.60998E-1,1.62750E-1
-4.59411E-1,1.92596E-1
-4.48303E-1,2.37381E-1
-4.22622E-1,2.58255E-1
-4.14688E-1,2.82775E-1
-4.07806E-1,3.24234E-1
-3.88275E-1,3.62304E-1
-3.76785E-1,4.02496E-1
-3.39538E-1,4.31472E-1
-3.19732E-1,4.33761E-1
-3.10180E-1,4.58648E-1
-2.78411E-1,4.92202E-1
-2.52533E-1,5.10833E-1
-2.11608E-1,5.37902E-1
-1.70349E-1,5.33599E-1
-1.41143E-1,5.44982E-1
-0.96893E-1,5.66894E-1
-0.48156E-1,5.78979E-1
0.05249E-1,5.98907E-1
0.66467E-1,5.80291E-1
0.89172E-1,5.60791E-1
1.17401E-1,5.69335E-1
1.82464E-1,5.76110E-1
2.26409E-1,5.67565E-1
2.81677E-1,5.48797E-1
2.96234E-1,5.03784E-1
3.09509E-1,4.84695E-1
3.65402E-1,4.68902E-1
4.20898E-1,4.21157E-1
4.69818E-1,3.85192E-1
4.97055E-1,3.25378E-1
4.93682E-1,2.98034E-1
5.26825E-1,2.76580E-1
5.65094E-1,2.04803E-1
5.79193E-1,1.59393E-1
6.10656E-1,1.01501E-1
5.84686E-1,0.57006E-1
5.77575E-1,0.45776E-1
5.83557E-1,-0.09094E-1
5.52642E-1,-0.63873E-1
5.44647E-1,-1.17034E-1
5.06378E-1,-1.81335E-1
4.69772E-1,-2.03353E-1
4.50164E-1,-2.36236E-1
4.05639E-1,-2.79968E-1
3.79333E-1,-3.16665E-1
3.29177E-1,-3.80416E-1
2.74032E-1,-3.83728E-1
2.56530E-1,-3.87222E-1
2.15438E-1,-3.99826E-1
1.70898E-1,-3.96118E-1
1.17095E-1,-4.22317E-1
0.42327E-1,-4.16976E-1
0.15457E-1,-4.03656E-1
-0.20019E-1,-3.99597E-1
-0.50476E-1,-3.67462E-1
-0.83252E-1,-3.65768E-1
-1.68151E-1,-3.50311E-1
-1.96716E-1,-3.17810E-1
-2.16110E-1,-3.20800E-1
-2.23602E-1,-2.87231E-1
-2.06283E-1,-2.65304E-1
-2.48527E-1,-2.49366E-1
-2.93991E-1,-1.82128E-1
-3.00918E-1,-1.50817E-1
-3.06762E-1,-1.24099E-1
-2.75436E-1,-1.07620E-1
-2.8685E-1,-0.94635E-1
-3.24508E-1,-0.13916E-1
-3.17169E-1,0.42556E-1
-3.31008E-1,0.64819E-1
-2.98309E-1,0.67443E-1
END
