CITIFILE A.01.01
#NA VERSION HP8510C.08.10
NAME DATA
#NA REGISTER 1
VAR FREQ MAG 201
DATA S[1,1] RI
DATA S[2,1] RI
DATA S[1,2] RI
DATA S[2,2] RI
SEG_LIST_BEGIN
SEG 8000000000 12000000000 201
SEG_LIST_END
COMMENT       YEAR MONTH DAY HOUR MINUTE SECONDS
CONSTANT TIME 2013   09   26  18    56    11.0
BEGIN
-5.26641E-1,-1.83471E-1
-5.42755E-1,-1.2854E-1
-5.52368E-1,-0.63293E-1
-5.60302E-1,-0.11932E-1
-5.62652E-1,0.51574E-1
-5.48980E-1,1.02569E-1
-5.35736E-1,1.55944E-1
-5.13977E-1,2.05078E-1
-4.95773E-1,2.66693E-1
-4.62982E-1,3.19152E-1
-4.31869E-1,3.58047E-1
-3.92288E-1,3.97598E-1
-3.52752E-1,4.29122E-1
-3.05542E-1,4.74365E-1
-2.50915E-1,5.02533E-1
-2.00653E-1,5.27160E-1
-1.47369E-1,5.43060E-1
-0.96130E-1,5.48431E-1
-0.45715E-1,5.64056E-1
0.23345E-1,5.57525E-1
0.78430E-1,5.51116E-1
1.32690E-1,5.40191E-1
1.80481E-1,5.23590E-1
2.25616E-1,5.01068E-1
2.68005E-1,4.73007E-1
3.09143E-1,4.47967E-1
3.51211E-1,4.14932E-1
3.92013E-1,3.81012E-1
4.23233E-1,3.34701E-1
4.46517E-1,3.04855E-1
4.76043E-1,2.58316E-1
4.95742E-1,2.04513E-1
5.11810E-1,1.56127E-1
5.21972E-1,1.00524E-1
5.30334E-1,0.62316E-1
5.33874E-1,-0.02899E-1
5.16296E-1,-0.49896E-1
5.09124E-1,-0.91308E-1
5.07507E-1,-1.46606E-1
4.77615E-1,-1.99691E-1
4.52957E-1,-2.40097E-1
4.22424E-1,-2.68127E-1
3.94088E-1,-3.03207E-1
3.66180E-1,-3.39874E-1
3.21273E-1,-3.83331E-1
2.89428E-1,-4.02282E-1
2.47604E-1,-4.18731E-1
2.09579E-1,-4.29504E-1
1.70150E-1,-4.39437E-1
1.25030E-1,-4.68231E-1
0.64834E-1,-4.65133E-1
0.36941E-1,-4.62387E-1
0.07690E-1,-4.62814E-1
-0.32043E-1,-4.54620E-1
-0.76339E-1,-4.45022E-1
-1.30111E-1,-4.33441E-1
-1.65374E-1,-4.23172E-1
-1.94625E-1,-4.06539E-1
-2.19268E-1,-3.83804E-1
-2.39364E-1,-3.50418E-1
-2.81219E-1,-3.30871E-1
-3.13110E-1,-2.88040E-1
-3.24386E-1,-2.69622E-1
-3.38287E-1,-2.55142E-1
-3.48403E-1,-2.24258E-1
-3.60321E-1,-1.90353E-1
-3.80081E-1,-1.40182E-1
-3.94226E-1,-1.12716E-1
-4.00375E-1,-0.86990E-1
-3.92883E-1,-0.62072E-1
-3.77243E-1,-0.36895E-1
-3.81958E-1,0.07476E-1
-3.70208E-1,0.47790E-1
-3.69216E-1,0.62576E-1
-3.69583E-1,0.70434E-1
-3.58886E-1,0.84487E-1
-3.40530E-1,1.194E-1
-3.16665E-1,1.52587E-1
-3.22433E-1,1.83746E-1
-3.25149E-1,2.08572E-1
-3.15109E-1,2.25402E-1
-2.76535E-1,2.34268E-1
-2.38006E-1,2.50305E-1
-2.16491E-1,2.84866E-1
-2.01324E-1,3.19900E-1
-1.93756E-1,3.32763E-1
-1.763E-1,3.31527E-1
-1.43112E-1,3.28292E-1
-0.99029E-1,3.32061E-1
-0.59814E-1,3.63601E-1
-0.26489E-1,3.85192E-1
-0.10025E-1,3.91616E-1
0.07873E-1,3.72070E-1
0.41122E-1,3.51272E-1
0.87188E-1,3.46298E-1
1.44409E-1,3.47030E-1
1.70394E-1,3.46801E-1
1.86798E-1,3.44955E-1
2.10937E-1,3.18130E-1
2.34024E-1,2.81143E-1
2.87811E-1,2.52838E-1
3.35647E-1,2.23022E-1
3.72314E-1,1.97479E-1
3.75366E-1,1.54876E-1
3.70025E-1,1.07452E-1
3.81835E-1,0.52276E-1
4.02893E-1,-0.11886E-1
4.08599E-1,-0.63736E-1
3.94973E-1,-0.94574E-1
3.72619E-1,-1.25976E-1
3.43704E-1,-1.72012E-1
3.21929E-1,-2.36694E-1
2.96768E-1,-2.90786E-1
2.76184E-1,-3.26339E-1
2.42157E-1,-3.40850E-1
1.90307E-1,-3.55712E-1
1.27044E-1,-3.82492E-1
0.64010E-1,-4.18808E-1
0.22064E-1,-4.37866E-1
0.03921E-1,-4.38476E-1
-0.33950E-1,-4.319E-1
-0.94802E-1,-4.10339E-1
-1.72714E-1,-3.96881E-1
-2.29782E-1,-3.91967E-1
-2.66662E-1,-3.97567E-1
-2.90618E-1,-3.82080E-1
-3.23135E-1,-3.39065E-1
-3.70071E-1,-2.69851E-1
-4.21859E-1,-2.21496E-1
-4.68215E-1,-1.94763E-1
-4.81796E-1,-1.83013E-1
-4.87899E-1,-1.52252E-1
-4.90905E-1,-0.79513E-1
-4.91577E-1,0.06362E-1
-5.15899E-1,0.60943E-1
-5.39978E-1,0.96130E-1
-5.37170E-1,1.14593E-1
-5.12481E-1,1.58905E-1
-4.62829E-1,2.30789E-1
-4.38522E-1,3.00445E-1
-4.34783E-1,3.63586E-1
-4.25323E-1,3.82003E-1
-4.05532E-1,3.92166E-1
-3.39675E-1,4.26315E-1
-2.60681E-1,4.67559E-1
-2.17895E-1,5.14892E-1
-1.98944E-1,5.45013E-1
-1.90033E-1,5.39154E-1
-1.55151E-1,5.39367E-1
-0.53100E-1,5.37078E-1
0.22522E-1,5.37902E-1
0.77880E-1,5.75317E-1
0.94665E-1,5.84381E-1
0.99670E-1,5.74890E-1
1.59393E-1,5.31860E-1
2.35137E-1,4.64538E-1
3.03268E-1,4.49096E-1
3.5495E-1,4.46853E-1
3.63281E-1,4.43878E-1
3.72070E-1,4.16946E-1
3.99261E-1,3.33877E-1
4.35379E-1,2.66616E-1
4.99237E-1,2.22427E-1
5.32135E-1,2.02667E-1
5.37628E-1,1.79382E-1
5.08728E-1,1.22161E-1
4.88189E-1,0.39367E-1
4.88250E-1,-0.50140E-1
4.97650E-1,-1.02752E-1
5.00091E-1,-1.24450E-1
4.67971E-1,-1.29592E-1
4.25491E-1,-1.61743E-1
3.67507E-1,-2.23358E-1
3.36822E-1,-2.79052E-1
3.38867E-1,-3.19519E-1
3.27896E-1,-3.27377E-1
3.03741E-1,-3.20816E-1
2.28942E-1,-3.39691E-1
1.50192E-1,-3.59390E-1
1.17721E-1,-3.94653E-1
1.00235E-1,-4.18609E-1
1.02020E-1,-4.01123E-1
0.65872E-1,-3.89114E-1
-0.09033E-1,-3.54248E-1
-0.65841E-1,-3.53759E-1
-1.09085E-1,-3.84948E-1
-1.13555E-1,-3.89465E-1
-1.04827E-1,-3.79028E-1
-1.43081E-1,-3.28506E-1
-1.99310E-1,-2.70904E-1
-2.65182E-1,-2.58651E-1
-3.00582E-1,-2.57095E-1
-2.75390E-1,-2.69744E-1
-2.71392E-1,-2.44506E-1
-2.68096E-1,-1.58691E-1
-3.04901E-1,-0.98480E-1
-3.638E-1,-0.62515E-1
-3.68011E-1,-0.84228E-1
-3.55545E-1,-1.21612E-1
-3.20175E-1,-0.87616E-1
-2.97699E-1,-0.05859E-1
END
BEGIN
-8.63769E-1,1.58203E-1
-7.72796E-1,2.3703E-1
-7.77099E-1,2.70080E-1
-7.51709E-1,3.99993E-1
-6.79595E-1,4.59716E-1
-6.25579E-1,5.56091E-1
-4.87243E-1,5.85571E-1
-4.53033E-1,5.43640E-1
-4.49249E-1,5.97686E-1
-3.91571E-1,6.33270E-1
-3.58215E-1,6.88903E-1
-2.37762E-1,7.22320E-1
-2.04254E-1,6.68792E-1
-2.16522E-1,7.34497E-1
-1.04431E-1,7.90161E-1
-0.42663E-1,7.95898E-1
0.77270E-1,8.24462E-1
1.54815E-1,7.34497E-1
1.37725E-1,7.38342E-1
2.30102E-1,7.81463E-1
3.02154E-1,7.59185E-1
4.11712E-1,7.81738E-1
5.34942E-1,6.71264E-1
5.32257E-1,6.12640E-1
6.25244E-1,6.01562E-1
6.80511E-1,4.93194E-1
7.27081E-1,4.56543E-1
8.07525E-1,3.07525E-1
7.20825E-1,1.97753E-1
7.06359E-1,2.06481E-1
7.23663E-1,1.54602E-1
7.26257E-1,1.45019E-1
8.03466E-1,0.80169E-1
7.58483E-1,-0.30090E-1
7.44323E-1,-0.11993E-1
8.24310E-1,-0.59051E-1
8.55011E-1,-1.46453E-1
9.23217E-1,-2.78045E-1
8.20007E-1,-4.84802E-1
6.90612E-1,-4.79522E-1
7.02331E-1,-5.23773E-1
6.27136E-1,-6.06475E-1
6.00341E-1,-6.43524E-1
5.17913E-1,-7.63122E-1
3.82537E-1,-7.36877E-1
3.95568E-1,-7.34069E-1
3.27270E-1,-8.21258E-1
2.60345E-1,-8.30108E-1
1.96014E-1,-9.28100E-1
-0.04577E-1,-9.29962E-1
-0.62713E-1,-8.36517E-1
-1.11480E-1,-8.34137E-1
-1.68609E-1,-7.90100E-1
-1.88568E-1,-8.06152E-1
-3.03772E-1,-8.09661E-1
-3.54644E-1,-7.36328E-1
-3.89343E-1,-7.33001E-1
-4.55871E-1,-6.97876E-1
-4.92553E-1,-7.00347E-1
-6.37817E-1,-6.93023E-1
-7.18627E-1,-5.40283E-1
-7.12799E-1,-4.71405E-1
-7.50549E-1,-3.92944E-1
-7.17407E-1,-3.36425E-1
-7.71240E-1,-3.44543E-1
-8.35784E-1,-2.34314E-1
-8.07739E-1,-1.70196E-1
-8.44543E-1,-1.33667E-1
-8.55621E-1,-0.57495E-1
-8.99536E-1,-0.09491E-1
-9.40643E-1,1.43646E-1
-8.57452E-1,2.53936E-1
-8.29864E-1,3.07800E-1
-7.61230E-1,3.92608E-1
-7.05688E-1,3.94531E-1
-7.07336E-1,4.50744E-1
-6.43310E-1,5.02533E-1
-6.362E-1,5.23315E-1
-6.05987E-1,6.04248E-1
-5.51269E-1,6.21124E-1
-5.67260E-1,6.84936E-1
-4.84314E-1,7.93762E-1
-3.98193E-1,8.29895E-1
-3.02154E-1,8.96118E-1
-1.81030E-1,8.67095E-1
-1.72637E-1,8.63861E-1
-0.80322E-1,9.27154E-1
0.13458E-1,8.84216E-1
0.50872E-1,9.05639E-1
1.63055E-1,9.03595E-1
1.96533E-1,8.73565E-1
2.80761E-1,9.36706E-1
4.36889E-1,8.82690E-1
4.88586E-1,8.09539E-1
5.80749E-1,7.65594E-1
6.25091E-1,6.61315E-1
6.47338E-1,6.35040E-1
7.22137E-1,5.63903E-1
7.15759E-1,4.98321E-1
7.66876E-1,4.92034E-1
8.33679E-1,4.07196E-1
8.43994E-1,3.56079E-1
9.25720E-1,3.03955E-1
9.51263E-1,1.85241E-1
9.74121E-1,1.23260E-1
1.02398E0,-0.13366E-1
9.62616E-1,-1.43737E-1
9.31640E-1,-2.01263E-1
9.04022E-1,-2.98248E-1
8.51593E-1,-3.53454E-1
8.35296E-1,-4.29931E-1
7.54852E-1,-5.13549E-1
7.02056E-1,-5.25116E-1
6.86523E-1,-5.88409E-1
6.26586E-1,-6.45599E-1
5.89447E-1,-7.00927E-1
5.03784E-1,-7.78472E-1
4.07348E-1,-7.91381E-1
3.45916E-1,-8.19885E-1
2.46521E-1,-8.38226E-1
1.91741E-1,-8.15979E-1
1.37725E-1,-8.45642E-1
0.43396E-1,-8.30291E-1
-0.00976E-1,-8.05786E-1
-0.69824E-1,-8.01391E-1
-1.14318E-1,-7.64007E-1
-1.39984E-1,-7.83905E-1
-2.23846E-1,-7.86407E-1
-2.81189E-1,-7.58606E-1
-3.58581E-1,-7.34283E-1
-4.09820E-1,-6.57470E-1
-4.19006E-1,-6.42364E-1
-4.99420E-1,-6.29211E-1
-5.36590E-1,-5.61981E-1
-5.66803E-1,-5.36773E-1
-6.11816E-1,-4.66705E-1
-5.92224E-1,-4.25262E-1
-6.45935E-1,-4.29016E-1
-7.06481E-1,-3.55835E-1
-7.21984E-1,-3.09967E-1
-7.70782E-1,-2.49206E-1
-7.54760E-1,-1.7099E-1
-7.67425E-1,-1.50421E-1
-8.09692E-1,-0.57617E-1
-7.77008E-1,0.14007E-1
-7.96905E-1,0.58105E-1
-7.69714E-1,1.50909E-1
-7.24487E-1,1.54022E-1
-7.56439E-1,1.90094E-1
-7.30896E-1,2.65808E-1
-7.31903E-1,3.00689E-1
-7.30346E-1,4.05548E-1
-6.61712E-1,4.55078E-1
-6.60339E-1,4.81079E-1
-6.18347E-1,5.57678E-1
-5.75103E-1,5.83648E-1
-5.46447E-1,6.70440E-1
-4.34265E-1,7.14172E-1
-4.08508E-1,7.02758E-1
-3.77410E-1,7.73742E-1
-3.04229E-1,7.87384E-1
-2.84118E-1,8.33435E-1
-1.67785E-1,8.97033E-1
-0.83526E-1,8.69293E-1
-0.27679E-1,9.09515E-1
0.84991E-1,9.03778E-1
1.30371E-1,8.83972E-1
2.26654E-1,9.05639E-1
3.16864E-1,8.39141E-1
3.58581E-1,8.06457E-1
4.36248E-1,7.70965E-1
4.67712E-1,7.20916E-1
5.21240E-1,7.32238E-1
6.19140E-1,6.72180E-1
6.49169E-1,6.11846E-1
7.12158E-1,5.64849E-1
7.45056E-1,4.81811E-1
7.67181E-1,4.45526E-1
8.41278E-1,3.75274E-1
8.50830E-1,2.86315E-1
8.69354E-1,2.35534E-1
8.92272E-1,1.53869E-1
8.81805E-1,0.84045E-1
9.06707E-1,0.25299E-1
8.99719E-1,-0.76171E-1
8.72345E-1,-1.33300E-1
8.78387E-1,-2.05474E-1
8.46191E-1,-2.82012E-1
8.21441E-1,-3.26599E-1
8.00994E-1,-4.02984E-1
7.49969E-1,-4.61639E-1
7.25158E-1,-5.03570E-1
7.02636E-1,-5.67230E-1
6.49658E-1,-6.44775E-1
5.99670E-1,-6.98150E-1
5.17150E-1,-7.55615E-1
4.46868E-1,-7.60894E-1
4.05365E-1,-7.93853E-1
3.38409E-1,-8.43017E-1
2.71820E-1,-8.60931E-1
1.87072E-1,-8.95355E-1
END
BEGIN
-7.45025E-1,1.33972E-1
-7.63122E-1,2.04223E-1
-6.78100E-1,3.00964E-1
-6.51123E-1,2.66479E-1
-7.21984E-1,3.55621E-1
-6.42669E-1,4.68017E-1
-6.17187E-1,5.10437E-1
-5.34698E-1,6.18560E-1
-4.48059E-1,5.89996E-1
-4.91119E-1,6.33331E-1
-4.03686E-1,7.61901E-1
-3.04840E-1,7.79541E-1
-2.00286E-1,8.31268E-1
-0.84533E-1,7.76062E-1
-0.97564E-1,7.66296E-1
-0.07782E-1,8.50891E-1
1.01348E-1,8.21991E-1
1.86492E-1,8.34075E-1
3.19488E-1,7.43530E-1
2.88574E-1,6.57714E-1
3.14544E-1,7.13684E-1
4.22363E-1,6.79992E-1
4.63531E-1,6.56768E-1
5.83282E-1,6.09985E-1
5.88623E-1,4.89196E-1
5.80749E-1,5.03723E-1
6.81701E-1,4.73663E-1
7.21344E-1,4.03228E-1
8.10302E-1,3.36547E-1
8.14605E-1,1.73706E-1
7.51495E-1,1.45446E-1
8.03741E-1,1.25824E-1
8.28338E-1,0.53833E-1
8.92974E-1,-0.17517E-1
8.73901E-1,-2.12280E-1
7.37609E-1,-2.48687E-1
7.52838E-1,-2.34771E-1
7.68310E-1,-3.13995E-1
7.85034E-1,-3.84918E-1
7.53936E-1,-5.65124E-1
5.65734E-1,-6.09710E-1
5.34912E-1,-5.52642E-1
5.38940E-1,-6.00952E-1
5.19165E-1,-6.46026E-1
4.98626E-1,-7.82165E-1
2.98767E-1,-8.58520E-1
2.22808E-1,-7.70172E-1
2.18475E-1,-7.92205E-1
1.62078E-1,-8.13507E-1
1.34307E-1,-8.81164E-1
-0.55297E-1,-9.54345E-1
-1.84417E-1,-8.28369E-1
-1.83654E-1,-7.88970E-1
-2.34588E-1,-7.80792E-1
-2.50183E-1,-7.84393E-1
-3.72253E-1,-8.46984E-1
-5.25909E-1,-7.22168E-1
-5.11779E-1,-6.29425E-1
-5.46661E-1,-6.06994E-1
-5.61218E-1,-5.73211E-1
-6.32080E-1,-6.11877E-1
-7.85247E-1,-5.05249E-1
-7.64099E-1,-3.59863E-1
-7.53265E-1,-3.21350E-1
-7.56347E-1,-2.64923E-1
-7.74169E-1,-2.77160E-1
-9.10278E-1,-2.16552E-1
-9.09210E-1,-0.32043E-1
-8.50402E-1,0.17150E-1
-8.48602E-1,0.73455E-1
-8.33770E-1,1.04766E-1
-9.12048E-1,1.58813E-1
-9.10827E-1,3.51013E-1
-7.93365E-1,4.30694E-1
-7.5177E-1,4.66186E-1
-6.97357E-1,5.09491E-1
-6.95861E-1,5.37323E-1
-6.82861E-1,6.58386E-1
-5.62866E-1,7.42706E-1
-4.74975E-1,7.58758E-1
-3.99292E-1,7.66998E-1
-3.78997E-1,7.64862E-1
-3.54370E-1,8.51562E-1
-2.21221E-1,9.13330E-1
-1.32080E-1,8.91601E-1
-0.45776E-1,8.99505E-1
0.29388E-1,8.47961E-1
0.32379E-1,8.53576E-1
1.16210E-1,9.15557E-1
2.33856E-1,8.95141E-1
3.13018E-1,8.69415E-1
3.94744E-1,8.06488E-1
4.09149E-1,7.63244E-1
4.69085E-1,7.83630E-1
5.85083E-1,7.54821E-1
6.76269E-1,6.84265E-1
7.47558E-1,5.7901E-1
7.28881E-1,4.86511E-1
7.43225E-1,4.88616E-1
8.36395E-1,4.38201E-1
8.90350E-1,3.29620E-1
9.24560E-1,2.20703E-1
8.92639E-1,1.05926E-1
8.66699E-1,0.93689E-1
9.24743E-1,0.38024E-1
9.27276E-1,-0.70434E-1
9.24621E-1,-1.55273E-1
8.85192E-1,-2.84240E-1
7.98736E-1,-3.20861E-1
8.10974E-1,-3.46008E-1
8.03802E-1,-4.41192E-1
7.60864E-1,-5.26397E-1
6.80450E-1,-6.2323E-1
5.58441E-1,-6.33483E-1
5.43518E-1,-6.22680E-1
5.22735E-1,-6.90460E-1
4.61090E-1,-7.47528E-1
3.75915E-1,-8.09570E-1
2.49694E-1,-8.00659E-1
2.16552E-1,-7.52044E-1
2.02545E-1,-7.84393E-1
1.43981E-1,-8.24310E-1
0.61279E-1,-8.66546E-1
-0.70190E-1,-8.46069E-1
-1.13220E-1,-7.63855E-1
-1.21124E-1,-7.69348E-1
-1.80542E-1,-7.80090E-1
-2.46490E-1,-7.96722E-1
-3.71063E-1,-7.72033E-1
-4.17785E-1,-6.52160E-1
-3.89434E-1,-6.23779E-1
-4.33532E-1,-6.39129E-1
-4.99755E-1,-6.26525E-1
-5.97686E-1,-5.92773E-1
-6.45599E-1,-4.80163E-1
-6.15570E-1,-4.31182E-1
-6.42486E-1,-4.21661E-1
-6.80175E-1,-3.78570E-1
-7.35687E-1,-3.43780E-1
-7.99194E-1,-2.41058E-1
-7.64007E-1,-1.52893E-1
-7.54333E-1,-1.34704E-1
-7.70568E-1,-0.92559E-1
-7.92083E-1,-0.54016E-1
-8.41095E-1,0.33142E-1
-8.08288E-1,1.39923E-1
-7.78625E-1,1.73187E-1
-7.77160E-1,2.19848E-1
-7.68524E-1,2.58850E-1
-7.97973E-1,3.34899E-1
-7.47955E-1,4.77294E-1
-6.41418E-1,5.09857E-1
-6.22619E-1,5.23803E-1
-5.97106E-1,5.63568E-1
-5.88348E-1,6.06323E-1
-5.46691E-1,7.13043E-1
-4.19250E-1,7.63031E-1
-3.55377E-1,7.62573E-1
-3.01910E-1,7.88787E-1
-2.57446E-1,8.01361E-1
-2.09747E-1,8.52783E-1
-0.91003E-1,8.76342E-1
-0.09826E-1,8.38897E-1
0.43365E-1,8.27606E-1
0.91949E-1,8.21167E-1
1.38885E-1,8.34075E-1
2.20062E-1,8.44574E-1
2.99041E-1,8.05297E-1
3.56872E-1,7.65960E-1
4.02221E-1,7.28576E-1
4.50653E-1,7.14141E-1
5.20660E-1,7.04895E-1
5.98083E-1,6.48986E-1
6.37329E-1,5.84167E-1
6.66473E-1,5.27252E-1
7.04467E-1,4.83917E-1
7.48840E-1,4.37927E-1
8.07556E-1,3.76495E-1
8.34838E-1,3.00109E-1
8.45794E-1,2.33001E-1
8.62213E-1,1.77337E-1
8.77044E-1,1.00219E-1
8.93341E-1,0.31982E-1
9.02832E-1,-0.54748E-1
8.90747E-1,-1.28082E-1
8.80340E-1,-1.90246E-1
8.61938E-1,-2.72552E-1
8.24798E-1,-3.34777E-1
8.03680E-1,-4.07257E-1
7.6297E-1,-4.74731E-1
7.35443E-1,-5.26825E-1
7.07000E-1,-5.94787E-1
6.35284E-1,-6.53595E-1
5.78735E-1,-6.91894E-1
5.13153E-1,-7.40997E-1
4.62310E-1,-7.78411E-1
4.13696E-1,-8.36883E-1
3.19793E-1,-8.81927E-1
2.44384E-1,-8.71856E-1
1.76391E-1,-8.83209E-1
1.02386E-1,-8.75549E-1
END
BEGIN
-5.60180E-1,-1.33697E-1
-5.81420E-1,-0.72113E-1
-5.91583E-1,-0.07537E-1
-5.96618E-1,0.45074E-1
-5.93933E-1,1.16455E-1
-5.75775E-1,1.83624E-1
-5.53924E-1,2.57782E-1
-5.25909E-1,3.16680E-1
-4.97894E-1,3.78295E-1
-4.56878E-1,4.28787E-1
-4.16702E-1,4.71557E-1
-3.63403E-1,5.15319E-1
-3.08349E-1,5.49346E-1
-2.46765E-1,5.90972E-1
-1.85272E-1,6.09252E-1
-1.26068E-1,6.26190E-1
-0.58685E-1,6.36810E-1
0.07843E-1,6.34735E-1
0.75195E-1,6.37664E-1
1.4505E-1,6.14288E-1
1.98028E-1,5.92620E-1
2.55432E-1,5.67230E-1
3.11279E-1,5.31524E-1
3.66424E-1,4.84298E-1
4.15176E-1,4.28634E-1
4.55978E-1,3.79165E-1
4.91241E-1,3.21868E-1
5.20996E-1,2.61596E-1
5.34545E-1,1.86981E-1
5.46234E-1,1.29455E-1
5.59021E-1,0.57586E-1
5.54321E-1,-0.08667E-1
5.47393E-1,-0.58593E-1
5.29815E-1,-1.08734E-1
5.16571E-1,-1.46728E-1
4.85824E-1,-2.17453E-1
4.38278E-1,-2.59414E-1
4.07882E-1,-2.95745E-1
3.78372E-1,-3.35632E-1
3.30444E-1,-3.63983E-1
2.79876E-1,-3.92227E-1
2.24060E-1,-4.05304E-1
1.69815E-1,-4.21218E-1
1.25946E-1,-4.35058E-1
0.73577E-1,-4.46212E-1
0.35842E-1,-4.48349E-1
-0.19897E-1,-4.35821E-1
-0.68252E-1,-4.19097E-1
-1.13937E-1,-4.00833E-1
-1.57730E-1,-3.92456E-1
-1.99539E-1,-3.58718E-1
-2.31201E-1,-3.36868E-1
-2.69714E-1,-3.09204E-1
-3.06823E-1,-2.73696E-1
-3.33572E-1,-2.42004E-1
-3.52645E-1,-2.08435E-1
-3.69262E-1,-1.84127E-1
-3.85849E-1,-1.39938E-1
-3.96347E-1,-0.87585E-1
-3.95568E-1,-0.39138E-1
-4.05883E-1,-0.04989E-1
-4.01245E-1,0.34393E-1
-3.97064E-1,0.70159E-1
-3.90243E-1,1.19903E-1
-3.70132E-1,1.74789E-1
-3.49853E-1,2.14065E-1
-3.31939E-1,2.42385E-1
-3.29055E-1,2.71072E-1
-2.94723E-1,3.05358E-1
-2.49282E-1,3.26324E-1
-2.03826E-1,3.38989E-1
-1.64245E-1,3.63555E-1
-1.26998E-1,3.82476E-1
-0.80001E-1,4.01168E-1
-0.28656E-1,4.08401E-1
0.21865E-1,4.08493E-1
0.79299E-1,4.00360E-1
1.11511E-1,3.79699E-1
1.50634E-1,3.91952E-1
2.03018E-1,3.79989E-1
2.46810E-1,3.52645E-1
2.72323E-1,3.07907E-1
2.82974E-1,2.76504E-1
3.19641E-1,2.58987E-1
3.55041E-1,2.10037E-1
3.76403E-1,1.67358E-1
3.99292E-1,1.13754E-1
4.00177E-1,0.60821E-1
3.88183E-1,0.31356E-1
4.08248E-1,-0.06271E-1
4.02435E-1,-0.52978E-1
3.99719E-1,-0.95596E-1
3.70117E-1,-1.40304E-1
3.41110E-1,-1.69494E-1
3.33663E-1,-2.04528E-1
3.04763E-1,-2.52960E-1
2.80868E-1,-2.84561E-1
2.38723E-1,-3.25088E-1
1.82449E-1,-3.41812E-1
1.55563E-1,-3.43215E-1
1.30035E-1,-3.82247E-1
1.00906E-1,-4.03121E-1
0.68344E-1,-4.32022E-1
0.24612E-1,-4.16488E-1
0.06530E-1,-3.98834E-1
-0.30883E-1,-4.10049E-1
-0.80184E-1,-4.02923E-1
-1.19094E-1,-4.02847E-1
-1.63894E-1,-3.86413E-1
-1.86599E-1,-3.61770E-1
-2.07763E-1,-3.49243E-1
-2.45269E-1,-3.28659E-1
-2.69393E-1,-3.08624E-1
-3.06396E-1,-2.95074E-1
-3.27026E-1,-2.65716E-1
-3.37142E-1,-2.44552E-1
-3.53698E-1,-2.23388E-1
-3.67263E-1,-1.96868E-1
-3.8591E-1,-1.70089E-1
-3.93478E-1,-1.36840E-1
-4.07272E-1,-1.06872E-1
-4.16336E-1,-0.75714E-1
-4.29382E-1,-0.45288E-1
-4.40338E-1,-0.20721E-1
-4.55856E-1,0.06698E-1
-4.70230E-1,0.37628E-1
-4.62402E-1,0.77331E-1
-4.54620E-1,0.98663E-1
-4.57717E-1,1.22283E-1
-4.64126E-1,1.61666E-1
-4.62768E-1,1.92382E-1
-4.51232E-1,2.38235E-1
-4.25842E-1,2.59964E-1
-4.17999E-1,2.85034E-1
-4.10675E-1,3.27026E-1
-3.90457E-1,3.65234E-1
-3.78875E-1,4.05700E-1
-3.40972E-1,4.35409E-1
-3.20587E-1,4.38293E-1
-3.10424E-1,4.64614E-1
-2.78442E-1,4.97268E-1
-2.5177E-1,5.16021E-1
-2.10693E-1,5.43182E-1
-1.68396E-1,5.38055E-1
-1.39282E-1,5.49682E-1
-0.93048E-1,5.71350E-1
-0.44372E-1,5.83038E-1
0.09796E-1,6.02447E-1
0.71929E-1,5.82153E-1
0.94421E-1,5.62103E-1
1.23504E-1,5.70861E-1
1.88659E-1,5.76660E-1
2.32147E-1,5.67871E-1
2.87384E-1,5.47729E-1
3.01513E-1,5.01342E-1
3.14621E-1,4.82055E-1
3.70559E-1,4.64782E-1
4.25354E-1,4.16702E-1
4.73373E-1,3.80065E-1
4.99832E-1,3.19213E-1
4.95742E-1,2.91702E-1
5.28259E-1,2.70141E-1
5.65368E-1,1.97998E-1
5.78887E-1,1.53991E-1
6.09588E-1,0.95764E-1
5.82428E-1,0.50842E-1
5.75042E-1,0.40741E-1
5.80078E-1,-0.13092E-1
5.49041E-1,-0.67047E-1
5.40466E-1,-1.19537E-1
5.01556E-1,-1.83105E-1
4.64614E-1,-2.04055E-1
4.45144E-1,-2.35717E-1
4.00604E-1,-2.78808E-1
3.74847E-1,-3.15155E-1
3.24813E-1,-3.78982E-1
2.70278E-1,-3.80920E-1
2.53738E-1,-3.83361E-1
2.14233E-1,-3.95797E-1
1.70364E-1,-3.91738E-1
1.17523E-1,-4.19006E-1
0.42633E-1,-4.13116E-1
0.17150E-1,-3.99887E-1
-0.17746E-1,-3.96469E-1
-0.46798E-1,-3.65097E-1
-0.79620E-1,-3.64486E-1
-1.65100E-1,-3.49487E-1
-1.93481E-1,-3.16604E-1
-2.12905E-1,-3.20236E-1
-2.20382E-1,-2.87979E-1
-2.02621E-1,-2.67974E-1
-2.46414E-1,-2.53509E-1
-2.92190E-1,-1.85836E-1
-2.99438E-1,-1.54663E-1
-3.06198E-1,-1.27700E-1
-2.75711E-1,-1.11694E-1
-2.89245E-1,-0.99380E-1
-3.27499E-1,-0.17578E-1
-3.20175E-1,0.38833E-1
-3.34732E-1,0.63415E-1
-3.01437E-1,0.65322E-1
END
