CITIFILE A.01.01
#NA VERSION HP8510C.08.10
NAME DATA
#NA REGISTER 4
VAR FREQ MAG 201
DATA S[1,1] RI
DATA S[2,1] RI
DATA S[1,2] RI
DATA S[2,2] RI
SEG_LIST_BEGIN
SEG 8000000000 12000000000 201
SEG_LIST_END
COMMENT       YEAR MONTH DAY HOUR MINUTE SECONDS
CONSTANT TIME 2013   09   26  18    48    07.0
BEGIN
-5.36041E-1,-1.74682E-1
-5.51086E-1,-1.19323E-1
-5.57830E-1,-0.54443E-1
-5.64209E-1,-0.01800E-1
-5.64849E-1,0.62622E-1
-5.49896E-1,1.13555E-1
-5.35980E-1,1.66839E-1
-5.13153E-1,2.13287E-1
-4.93042E-1,2.72537E-1
-4.59960E-1,3.25607E-1
-4.27764E-1,3.63555E-1
-3.89129E-1,4.01275E-1
-3.50112E-1,4.30984E-1
-3.04885E-1,4.73358E-1
-2.50793E-1,5.01129E-1
-2.01660E-1,5.24231E-1
-1.48834E-1,5.40618E-1
-0.99548E-1,5.45837E-1
-0.50476E-1,5.60699E-1
0.15136E-1,5.54260E-1
0.70678E-1,5.47302E-1
1.23687E-1,5.37689E-1
1.71386E-1,5.22979E-1
2.14599E-1,5.01831E-1
2.55981E-1,4.74563E-1
2.96432E-1,4.50866E-1
3.39157E-1,4.18746E-1
3.80493E-1,3.86581E-1
4.13360E-1,3.41018E-1
4.36157E-1,3.12454E-1
4.66766E-1,2.68951E-1
4.85733E-1,2.14996E-1
5.03173E-1,1.67877E-1
5.15472E-1,1.12335E-1
5.24475E-1,0.76385E-1
5.30548E-1,0.11932E-1
5.13336E-1,-0.34393E-1
5.07720E-1,-0.75225E-1
5.09338E-1,-1.30981E-1
4.82025E-1,-1.85592E-1
4.59121E-1,-2.26944E-1
4.30801E-1,-2.55966E-1
4.03366E-1,-2.92114E-1
3.76678E-1,-3.29681E-1
3.33252E-1,-3.75671E-1
3.01422E-1,-3.97338E-1
2.60131E-1,-4.15481E-1
2.22702E-1,-4.28192E-1
1.83029E-1,-4.40109E-1
1.38198E-1,-4.71984E-1
0.76293E-1,-4.71969E-1
0.46646E-1,-4.71145E-1
0.16235E-1,-4.72137E-1
-0.24993E-1,-4.66064E-1
-0.70907E-1,-4.57687E-1
-1.27227E-1,-4.47357E-1
-1.64321E-1,-4.37835E-1
-1.95709E-1,-4.21402E-1
-2.21374E-1,-3.98635E-1
-2.42477E-1,-3.65814E-1
-2.86651E-1,-3.46954E-1
-3.22479E-1,-3.06076E-1
-3.38668E-1,-2.8508E-1
-3.54095E-1,-2.68844E-1
-3.66149E-1,-2.35717E-1
-3.78448E-1,-1.99173E-1
-4.00070E-1,-1.47171E-1
-4.15176E-1,-1.16867E-1
-4.21768E-1,-0.88760E-1
-4.14947E-1,-0.61492E-1
-3.98986E-1,-0.35049E-1
-4.04602E-1,0.12237E-1
-3.93005E-1,0.55816E-1
-3.90243E-1,0.73516E-1
-3.89495E-1,0.84396E-1
-3.76586E-1,1.01425E-1
-3.56735E-1,1.37496E-1
-3.29879E-1,1.71112E-1
-3.33526E-1,2.03369E-1
-3.34426E-1,2.29339E-1
-3.22113E-1,2.46551E-1
-2.79495E-1,2.55294E-1
-2.41058E-1,2.70095E-1
-2.16812E-1,3.03894E-1
-1.99279E-1,3.38623E-1
-1.89788E-1,3.51974E-1
-1.70181E-1,3.48327E-1
-1.34735E-1,3.44070E-1
-0.89233E-1,3.4552E-1
-0.48461E-1,3.74496E-1
-0.13732E-1,3.94439E-1
0.0383E-1,3.98941E-1
0.22262E-1,3.75595E-1
0.55160E-1,3.53164E-1
1.01196E-1,3.45062E-1
1.57486E-1,3.43689E-1
1.84158E-1,3.41461E-1
2.00271E-1,3.36792E-1
2.22839E-1,3.07189E-1
2.43667E-1,2.66708E-1
2.93151E-1,2.36923E-1
3.38394E-1,2.06359E-1
3.73443E-1,1.79122E-1
3.73275E-1,1.36123E-1
3.65829E-1,0.89798E-1
3.73168E-1,0.34576E-1
3.91662E-1,-0.27694E-1
3.95370E-1,-0.79376E-1
3.80493E-1,-1.10275E-1
3.55484E-1,-1.40991E-1
3.22570E-1,-1.85653E-1
2.98172E-1,-2.46154E-1
2.72247E-1,-2.97226E-1
2.50167E-1,-3.30566E-1
2.14157E-1,-3.43078E-1
1.61102E-1,-3.55102E-1
0.97015E-1,-3.77044E-1
0.36880E-1,-4.09240E-1
-0.04119E-1,-4.25415E-1
-0.21072E-1,-4.23843E-1
-0.58517E-1,-4.15237E-1
-1.18713E-1,-3.89038E-1
-1.92199E-1,-3.72894E-1
-2.46231E-1,-3.65951E-1
-2.79342E-1,-3.69796E-1
-3.01116E-1,-3.53485E-1
-3.30795E-1,-3.09265E-1
-3.71826E-1,-2.39746E-1
-4.19433E-1,-1.92733E-1
-4.62326E-1,-1.66336E-1
-4.73877E-1,-1.56311E-1
-4.77523E-1,-1.25595E-1
-4.75219E-1,-0.56915E-1
-4.72763E-1,0.21667E-1
-4.95239E-1,0.73608E-1
-5.17852E-1,1.04553E-1
-5.15472E-1,1.21276E-1
-4.91409E-1,1.63345E-1
-4.43679E-1,2.28012E-1
-4.19952E-1,2.93960E-1
-4.16824E-1,3.53698E-1
-4.09652E-1,3.70620E-1
-3.91540E-1,3.80355E-1
-3.31481E-1,4.09927E-1
-2.58026E-1,4.5047E-1
-2.17208E-1,4.95147E-1
-1.99157E-1,5.24871E-1
-1.90795E-1,5.21026E-1
-1.59454E-1,5.21484E-1
-0.65002E-1,5.21118E-1
0.08209E-1,5.22155E-1
0.60119E-1,5.58868E-1
0.77484E-1,5.68847E-1
0.82763E-1,5.60333E-1
1.36962E-1,5.22583E-1
2.10067E-1,4.60800E-1
2.75528E-1,4.46823E-1
3.27667E-1,4.46838E-1
3.37616E-1,4.45098E-1
3.45916E-1,4.20898E-1
3.75320E-1,3.44696E-1
4.10553E-1,2.80624E-1
4.74411E-1,2.39379E-1
5.09674E-1,2.19696E-1
5.16235E-1,1.98669E-1
4.92614E-1,1.44744E-1
4.75662E-1,0.65322E-1
4.79766E-1,-0.20416E-1
4.91699E-1,-0.75180E-1
4.96582E-1,-0.98846E-1
4.68643E-1,-1.05453E-1
4.30542E-1,-1.37542E-1
3.76556E-1,-2.00241E-1
3.47778E-1,-2.58392E-1
3.48648E-1,-3.01635E-1
3.37783E-1,-3.12622E-1
3.14224E-1,-3.09082E-1
2.43835E-1,-3.28567E-1
1.67038E-1,-3.51638E-1
1.31851E-1,-3.88015E-1
1.13006E-1,-4.13681E-1
1.11938E-1,-3.99810E-1
0.77377E-1,-3.90075E-1
0.02929E-1,-3.59878E-1
-0.55374E-1,-3.59130E-1
-0.99838E-1,-3.88900E-1
-1.09069E-1,-3.93798E-1
-1.02630E-1,-3.84170E-1
-1.39831E-1,-3.37326E-1
-1.95205E-1,-2.81478E-1
-2.60131E-1,-2.69210E-1
-2.97561E-1,-2.66952E-1
-2.77099E-1,-2.78259E-1
-2.75482E-1,-2.54516E-1
-2.76046E-1,-1.72210E-1
-3.12286E-1,-1.12258E-1
-3.70742E-1,-0.75805E-1
-3.77121E-1,-0.92956E-1
-3.65325E-1,-1.26251E-1
-3.33160E-1,-0.92605E-1
-3.12896E-1,-0.13198E-1
END
BEGIN
-8.75335E-1,1.36871E-1
-7.87963E-1,2.23083E-1
-7.90069E-1,2.56134E-1
-7.7005E-1,3.87146E-1
-6.98333E-1,4.51751E-1
-6.47399E-1,5.51422E-1
-5.07659E-1,5.89263E-1
-4.67285E-1,5.48248E-1
-4.62921E-1,6.00616E-1
-4.04205E-1,6.38214E-1
-3.71337E-1,6.93695E-1
-2.50946E-1,7.30682E-1
-2.12677E-1,6.77887E-1
-2.24029E-1,7.40295E-1
-1.12731E-1,7.98278E-1
-0.49896E-1,8.04321E-1
0.69915E-1,8.34564E-1
1.51031E-1,7.46093E-1
1.34918E-1,7.48046E-1
2.28088E-1,7.90405E-1
2.99865E-1,7.68005E-1
4.09423E-1,7.91290E-1
5.3479E-1,6.81427E-1
5.33630E-1,6.22100E-1
6.27197E-1,6.09588E-1
6.82678E-1,5.01159E-1
7.30011E-1,4.63409E-1
8.10913E-1,3.13903E-1
7.24762E-1,2.03857E-1
7.09838E-1,2.12249E-1
7.27539E-1,1.59332E-1
7.29797E-1,1.50238E-1
8.07556E-1,0.85662E-1
7.63366E-1,-0.25329E-1
7.50457E-1,-0.07751E-1
8.30963E-1,-0.56701E-1
8.61480E-1,-1.44287E-1
9.29473E-1,-2.76947E-1
8.237E-1,-4.84954E-1
6.93878E-1,-4.78088E-1
7.07122E-1,-5.23620E-1
6.30401E-1,-6.06414E-1
6.04156E-1,-6.42883E-1
5.19378E-1,-7.62878E-1
3.85833E-1,-7.34985E-1
4.00177E-1,-7.33062E-1
3.30413E-1,-8.21197E-1
2.64770E-1,-8.28826E-1
1.99737E-1,-9.27917E-1
-0.03509E-1,-9.27612E-1
-0.59173E-1,-8.33221E-1
-1.06201E-1,-8.32336E-1
-1.63818E-1,-7.87475E-1
-1.82159E-1,-8.04443E-1
-2.96539E-1,-8.09265E-1
-3.48236E-1,-7.34649E-1
-3.80920E-1,-7.33215E-1
-4.48303E-1,-6.98791E-1
-4.83123E-1,-7.03247E-1
-6.28875E-1,-6.98608E-1
-7.13104E-1,-5.45806E-1
-7.07183E-1,-4.75952E-1
-7.43316E-1,-3.96423E-1
-7.09259E-1,-3.40667E-1
-7.61016E-1,-3.51287E-1
-8.29376E-1,-2.44171E-1
-8.00659E-1,-1.78497E-1
-8.36669E-1,-1.45019E-1
-8.49853E-1,-0.69427E-1
-8.94348E-1,-0.25268E-1
-9.42596E-1,1.25E-1
-8.60504E-1,2.42462E-1
-8.33190E-1,2.94433E-1
-7.67272E-1,3.82995E-1
-7.07794E-1,3.86718E-1
-7.10815E-1,4.40551E-1
-6.47003E-1,4.93377E-1
-6.39099E-1,5.11230E-1
-6.11541E-1,5.91705E-1
-5.56121E-1,6.10137E-1
-5.74127E-1,6.69158E-1
-4.98779E-1,7.79174E-1
-4.14306E-1,8.19244E-1
-3.21441E-1,8.89373E-1
-1.96655E-1,8.66027E-1
-1.86706E-1,8.58184E-1
-0.98938E-1,9.24499E-1
-0.00610E-1,8.85894E-1
0.35247E-1,9.04418E-1
1.45599E-1,9.06127E-1
1.82617E-1,8.73779E-1
2.59368E-1,9.38415E-1
4.16381E-1,8.94043E-1
4.74151E-1,8.21228E-1
5.66253E-1,7.80822E-1
6.16607E-1,6.74804E-1
6.37817E-1,6.45477E-1
7.14111E-1,5.79071E-1
7.10418E-1,5.09094E-1
7.57873E-1,5.02929E-1
8.25592E-1,4.22485E-1
8.36944E-1,3.70086E-1
9.17144E-1,3.20648E-1
9.46868E-1,2.03949E-1
9.70001E-1,1.41693E-1
1.02368E0,0.09826E-1
9.69268E-1,-1.22222E-1
9.37377E-1,-1.83380E-1
9.13055E-1,-2.80212E-1
8.61602E-1,-3.38592E-1
8.45031E-1,-4.15222E-1
7.67822E-1,-5.00061E-1
7.14599E-1,-5.13916E-1
6.97998E-1,-5.76538E-1
6.41326E-1,-6.34460E-1
6.03973E-1,-6.90002E-1
5.22094E-1,-7.68920E-1
4.26666E-1,-7.86712E-1
3.65905E-1,-8.15643E-1
2.67272E-1,-8.38073E-1
2.08007E-1,-8.18115E-1
1.55517E-1,-8.46221E-1
0.62011E-1,-8.35296E-1
0.13824E-1,-8.12133E-1
-0.55633E-1,-8.08746E-1
-1.02569E-1,-7.72888E-1
-1.28753E-1,-7.90130E-1
-2.08831E-1,-7.94372E-1
-2.69043E-1,-7.69073E-1
-3.47106E-1,-7.47589E-1
-4.01245E-1,-6.72149E-1
-4.12017E-1,-6.54235E-1
-4.89288E-1,-6.43615E-1
-5.32226E-1,-5.78643E-1
-5.64117E-1,-5.52917E-1
-6.12243E-1,-4.84527E-1
-5.96130E-1,-4.37683E-1
-6.46759E-1,-4.39605E-1
-7.08557E-1,-3.69232E-1
-7.25769E-1,-3.21991E-1
-7.74902E-1,-2.62817E-1
-7.63855E-1,-1.81335E-1
-7.74231E-1,-1.57318E-1
-8.15918E-1,-0.65643E-1
-7.85461E-1,0.07659E-1
-8.03833E-1,0.52795E-1
-7.79571E-1,1.45660E-1
-7.32299E-1,1.54602E-1
-7.59155E-1,1.89575E-1
-7.33947E-1,2.63427E-1
-7.33978E-1,2.98431E-1
-7.33551E-1,3.99475E-1
-6.67907E-1,4.53369E-1
-6.61804E-1,4.80346E-1
-6.19659E-1,5.54504E-1
-5.75897E-1,5.81512E-1
-5.48187E-1,6.63147E-1
-4.40094E-1,7.11303E-1
-4.10369E-1,7.01232E-1
-3.79608E-1,7.66632E-1
-3.07708E-1,7.81372E-1
-2.86987E-1,8.237E-1
-1.76116E-1,8.87939E-1
-0.91735E-1,8.64502E-1
-0.36346E-1,9.01519E-1
0.72937E-1,8.97705E-1
1.19964E-1,8.77410E-1
2.12188E-1,8.98498E-1
3.02337E-1,8.37341E-1
3.45031E-1,8.04351E-1
4.20654E-1,7.71362E-1
4.54223E-1,7.22625E-1
5.04608E-1,7.31811E-1
6.01226E-1,6.76879E-1
6.34796E-1,6.17065E-1
6.95770E-1,5.71685E-1
7.31597E-1,4.92095E-1
7.53662E-1,4.56146E-1
8.28369E-1,3.8974E-1
8.39843E-1,3.01055E-1
8.58093E-1,2.49908E-1
8.82659E-1,1.70257E-1
8.75396E-1,1.01837E-1
8.98803E-1,0.43273E-1
8.96484E-1,-0.55847E-1
8.71612E-1,-1.14074E-1
8.78204E-1,-1.85363E-1
8.49304E-1,-2.62481E-1
8.24707E-1,-3.08807E-1
8.06793E-1,-3.84796E-1
7.57598E-1,-4.45068E-1
7.32391E-1,-4.87518E-1
7.10754E-1,-5.51208E-1
6.59454E-1,-6.28997E-1
6.11328E-1,-6.82037E-1
5.31158E-1,-7.41058E-1
4.59289E-1,-7.49237E-1
4.18853E-1,-7.81982E-1
3.55072E-1,-8.31237E-1
2.87689E-1,-8.51562E-1
2.05688E-1,-8.87634E-1
END
BEGIN
-7.54119E-1,1.18682E-1
-7.73559E-1,1.89544E-1
-6.88385E-1,2.88055E-1
-6.63177E-1,2.5354E-1
-7.37823E-1,3.44360E-1
-6.58874E-1,4.59564E-1
-6.35101E-1,5.04516E-1
-5.51513E-1,6.14257E-1
-4.64386E-1,5.87677E-1
-5.09246E-1,6.31866E-1
-4.21264E-1,7.63946E-1
-3.21167E-1,7.84149E-1
-2.14843E-1,8.37158E-1
-0.97351E-1,7.83935E-1
-1.09619E-1,7.73407E-1
-0.20538E-1,8.60107E-1
0.90362E-1,8.33007E-1
1.77307E-1,8.45794E-1
3.12957E-1,7.57141E-1
2.84637E-1,6.68212E-1
3.09692E-1,7.24212E-1
4.19097E-1,6.91436E-1
4.61395E-1,6.67785E-1
5.81909E-1,6.21978E-1
5.90484E-1,4.99572E-1
5.80902E-1,5.11871E-1
6.81366E-1,4.82635E-1
7.21283E-1,4.12414E-1
8.11828E-1,3.47442E-1
8.19366E-1,1.83776E-1
7.55310E-1,1.51855E-1
8.06152E-1,1.33178E-1
8.3078E-1,0.61828E-1
8.95690E-1,-0.08361E-1
8.81744E-1,-2.02667E-1
7.44567E-1,-2.44720E-1
7.55859E-1,-2.29705E-1
7.71820E-1,-3.07220E-1
7.88970E-1,-3.77044E-1
7.63031E-1,-5.56762E-1
5.74127E-1,-6.07177E-1
5.39367E-1,-5.49713E-1
5.42694E-1,-5.96160E-1
5.24139E-1,-6.39465E-1
5.08453E-1,-7.74139E-1
3.10272E-1,-8.56903E-1
2.29919E-1,-7.68341E-1
2.25708E-1,-7.87902E-1
1.70105E-1,-8.09387E-1
1.45568E-1,-8.76007E-1
-0.41748E-1,-9.55963E-1
-1.75781E-1,-8.30474E-1
-1.74011E-1,-7.88543E-1
-2.24365E-1,-7.80395E-1
-2.37823E-1,-7.84362E-1
-3.57788E-1,-8.51623E-1
-5.16876E-1,-7.28668E-1
-5.02166E-1,-6.32904E-1
-5.36163E-1,-6.12182E-1
-5.49316E-1,-5.77819E-1
-6.17858E-1,-6.21704E-1
-7.78228E-1,-5.16967E-1
-7.56164E-1,-3.66973E-1
-7.42584E-1,-3.31176E-1
-7.44384E-1,-2.75634E-1
-7.61901E-1,-2.92175E-1
-9.04266E-1,-2.35931E-1
-9.05609E-1,-0.47210E-1
-8.45306E-1,0.01220E-1
-8.44726E-1,0.56243E-1
-8.29986E-1,0.84320E-1
-9.14856E-1,1.35040E-1
-9.1745E-1,3.34381E-1
-7.96966E-1,4.13818E-1
-7.57537E-1,4.47509E-1
-7.05017E-1,4.90264E-1
-7.08252E-1,5.15594E-1
-6.99981E-1,6.41998E-1
-5.76965E-1,7.29370E-1
-4.90631E-1,7.43988E-1
-4.16290E-1,7.53570E-1
-3.99047E-1,7.51251E-1
-3.78265E-1,8.42956E-1
-2.42370E-1,9.08844E-1
-1.54083E-1,8.86901E-1
-0.67749E-1,8.97003E-1
0.05523E-1,8.45794E-1
0.07537E-1,8.55896E-1
0.92437E-1,9.21569E-1
2.11547E-1,9.03015E-1
2.91412E-1,8.78662E-1
3.73992E-1,8.17504E-1
3.87512E-1,7.76428E-1
4.50195E-1,8.00323E-1
5.69915E-1,7.71698E-1
6.62506E-1,7.02758E-1
7.34802E-1,5.97076E-1
7.16247E-1,5.06897E-1
7.34802E-1,5.112E-1
8.30993E-1,4.59503E-1
8.85803E-1,3.51257E-1
9.22241E-1,2.43438E-1
8.91204E-1,1.28784E-1
8.68988E-1,1.16424E-1
9.28436E-1,0.59570E-1
9.31335E-1,-0.49804E-1
9.30816E-1,-1.34918E-1
8.91693E-1,-2.62786E-1
8.09600E-1,-3.00170E-1
8.22570E-1,-3.27880E-1
8.15643E-1,-4.23828E-1
7.73895E-1,-5.08361E-1
6.94885E-1,-6.05346E-1
5.77392E-1,-6.17126E-1
5.63934E-1,-6.10168E-1
5.42938E-1,-6.80084E-1
4.80835E-1,-7.38616E-1
3.97033E-1,-8.00140E-1
2.73437E-1,-7.94677E-1
2.41058E-1,-7.50488E-1
2.25921E-1,-7.85003E-1
1.66595E-1,-8.26965E-1
0.82977E-1,-8.69079E-1
-0.46020E-1,-8.50616E-1
-0.90087E-1,-7.73284E-1
-1.00982E-1,-7.80242E-1
-1.62628E-1,-7.93609E-1
-2.29797E-1,-8.08105E-1
-3.53637E-1,-7.84729E-1
-4.01641E-1,-6.69586E-1
-3.77105E-1,-6.40869E-1
-4.20013E-1,-6.56097E-1
-4.89502E-1,-6.45416E-1
-5.87219E-1,-6.11236E-1
-6.39221E-1,-5.02594E-1
-6.14105E-1,-4.52026E-1
-6.41815E-1,-4.40368E-1
-6.82006E-1,-3.96423E-1
-7.36419E-1,-3.60290E-1
-8.00048E-1,-2.60009E-1
-7.69897E-1,-1.70562E-1
-7.60406E-1,-1.48223E-1
-7.76397E-1,-1.06048E-1
-7.97302E-1,-0.66467E-1
-8.45581E-1,0.19317E-1
-8.16406E-1,1.26800E-1
-7.86895E-1,1.62536E-1
-7.83691E-1,2.10022E-1
-7.75207E-1,2.49359E-1
-8.02642E-1,3.23089E-1
-7.57690E-1,4.61761E-1
-6.54449E-1,5.00610E-1
-6.31866E-1,5.16082E-1
-6.06048E-1,5.56182E-1
-5.95916E-1,5.98022E-1
-5.55938E-1,7.01049E-1
-4.34356E-1,7.54211E-1
-3.68652E-1,7.56469E-1
-3.15002E-1,7.81677E-1
-2.69073E-1,7.94891E-1
-2.22961E-1,8.44940E-1
-1.09893E-1,8.70422E-1
-0.27740E-1,8.37402E-1
0.28381E-1,8.26141E-1
0.77209E-1,8.20648E-1
1.23016E-1,8.32000E-1
2.01690E-1,8.43170E-1
2.80670E-1,8.07098E-1
3.38623E-1,7.68920E-1
3.85223E-1,7.31597E-1
4.31549E-1,7.17498E-1
4.99908E-1,7.08648E-1
5.76812E-1,6.56280E-1
6.17401E-1,5.94451E-1
6.47857E-1,5.38940E-1
6.84906E-1,4.98046E-1
7.30773E-1,4.5401E-1
7.88726E-1,3.94989E-1
8.19549E-1,3.21014E-1
8.32214E-1,2.54852E-1
8.48358E-1,2.00561E-1
8.66729E-1,1.26525E-1
8.84948E-1,0.58197E-1
8.96026E-1,-0.25360E-1
8.88000E-1,-0.99090E-1
8.79852E-1,-1.61499E-1
8.65936E-1,-2.41821E-1
8.32336E-1,-3.06335E-1
8.13690E-1,-3.78143E-1
7.75970E-1,-4.47021E-1
7.50457E-1,-5.00335E-1
7.22900E-1,-5.69488E-1
6.54846E-1,-6.30981E-1
5.98571E-1,-6.71783E-1
5.36254E-1,-7.21710E-1
4.86877E-1,-7.59857E-1
4.39666E-1,-8.20831E-1
3.48388E-1,-8.68164E-1
2.71362E-1,-8.62762E-1
2.03002E-1,-8.75030E-1
1.30340E-1,-8.69720E-1
END
BEGIN
-5.43518E-1,-1.63024E-1
-5.67596E-1,-1.02722E-1
-5.80596E-1,-0.39245E-1
-5.87066E-1,0.13793E-1
-5.89386E-1,0.84106E-1
-5.74768E-1,1.51641E-1
-5.57495E-1,2.25219E-1
-5.31494E-1,2.85400E-1
-5.04669E-1,3.48541E-1
-4.65545E-1,4.01184E-1
-4.26773E-1,4.46411E-1
-3.74450E-1,4.93209E-1
-3.21716E-1,5.29174E-1
-2.61383E-1,5.73486E-1
-1.98944E-1,5.93658E-1
-1.38916E-1,6.12457E-1
-0.71258E-1,6.25305E-1
-0.04455E-1,6.25396E-1
0.63201E-1,6.30279E-1
1.33606E-1,6.08215E-1
1.88476E-1,5.86486E-1
2.47436E-1,5.61187E-1
3.04077E-1,5.26001E-1
3.60336E-1,4.80041E-1
4.10415E-1,4.25018E-1
4.52026E-1,3.75762E-1
4.87762E-1,3.18557E-1
5.17578E-1,2.57965E-1
5.32012E-1,1.83441E-1
5.45166E-1,1.26525E-1
5.57312E-1,0.54687E-1
5.52429E-1,-0.12298E-1
5.44952E-1,-0.62164E-1
5.26397E-1,-1.13403E-1
5.12817E-1,-1.52221E-1
4.81384E-1,-2.24884E-1
4.34158E-1,-2.68127E-1
4.03488E-1,-3.04840E-1
3.72955E-1,-3.45031E-1
3.23577E-1,-3.73428E-1
2.73101E-1,-4.01535E-1
2.18139E-1,-4.15100E-1
1.64108E-1,-4.31091E-1
1.19522E-1,-4.44625E-1
0.65826E-1,-4.54101E-1
0.28060E-1,-4.54437E-1
-0.28564E-1,-4.42123E-1
-0.76980E-1,-4.26055E-1
-1.2323E-1,-4.08203E-1
-1.67282E-1,-3.99536E-1
-2.08282E-1,-3.64288E-1
-2.39654E-1,-3.42575E-1
-2.78091E-1,-3.15872E-1
-3.16055E-1,-2.81387E-1
-3.42544E-1,-2.49084E-1
-3.60656E-1,-2.14889E-1
-3.75991E-1,-1.89605E-1
-3.92730E-1,-1.45385E-1
-4.05517E-1,-0.92742E-1
-4.05838E-1,-0.44128E-1
-4.16366E-1,-0.12374E-1
-4.13009E-1,0.24261E-1
-4.10354E-1,0.62393E-1
-4.04449E-1,1.12594E-1
-3.86520E-1,1.68853E-1
-3.67614E-1,2.07901E-1
-3.49716E-1,2.36221E-1
-3.46694E-1,2.63076E-1
-3.13461E-1,2.98111E-1
-2.68264E-1,3.22250E-1
-2.23510E-1,3.38424E-1
-1.87530E-1,3.65539E-1
-1.51550E-1,3.84964E-1
-1.05651E-1,4.04022E-1
-0.55496E-1,4.14123E-1
-0.05096E-1,4.17770E-1
0.51834E-1,4.14520E-1
0.85327E-1,3.95950E-1
1.22604E-1,4.08523E-1
1.74652E-1,3.98712E-1
2.21054E-1,3.73901E-1
2.51022E-1,3.31436E-1
2.64801E-1,3.01940E-1
3.02917E-1,2.86834E-1
3.39645E-1,2.40417E-1
3.63449E-1,1.99554E-1
3.90670E-1,1.47537E-1
3.97155E-1,0.96069E-1
3.89144E-1,0.64437E-1
4.09942E-1,0.28747E-1
4.06860E-1,-0.17715E-1
4.05517E-1,-0.61142E-1
3.78860E-1,-1.08017E-1
3.54248E-1,-1.40350E-1
3.49502E-1,-1.7659E-1
3.25347E-1,-2.26532E-1
3.02627E-1,-2.58407E-1
2.64007E-1,-3.00140E-1
2.09640E-1,-3.21762E-1
1.82159E-1,-3.26980E-1
1.58645E-1,-3.66836E-1
1.30737E-1,-3.89083E-1
0.99533E-1,-4.19082E-1
0.55252E-1,-4.06326E-1
0.34698E-1,-3.90853E-1
-0.03402E-1,-4.04037E-1
-0.53085E-1,-4.00726E-1
-0.91827E-1,-4.03060E-1
-1.36627E-1,-3.89190E-1
-1.59912E-1,-3.66424E-1
-1.82800E-1,-3.54965E-1
-2.21267E-1,-3.36303E-1
-2.46154E-1,-3.18359E-1
-2.81860E-1,-3.06961E-1
-3.03176E-1,-2.79495E-1
-3.13995E-1,-2.58651E-1
-3.31802E-1,-2.37289E-1
-3.46923E-1,-2.11257E-1
-3.6763E-1,-1.86447E-1
-3.76388E-1,-1.54739E-1
-3.90335E-1,-1.28036E-1
-4.00604E-1,-0.98007E-1
-4.13818E-1,-0.67916E-1
-4.26605E-1,-0.44113E-1
-4.44000E-1,-0.18768E-1
-4.59915E-1,0.09872E-1
-4.54559E-1,0.47256E-1
-4.46029E-1,0.69076E-1
-4.49890E-1,0.92666E-1
-4.58587E-1,1.32797E-1
-4.58511E-1,1.64444E-1
-4.49600E-1,2.06298E-1
-4.26376E-1,2.25875E-1
-4.20227E-1,2.48733E-1
-4.16442E-1,2.89886E-1
-3.99139E-1,3.30566E-1
-3.90869E-1,3.70819E-1
-3.58078E-1,4.02664E-1
-3.37997E-1,4.05822E-1
-3.29849E-1,4.30069E-1
-2.99911E-1,4.65362E-1
-2.73208E-1,4.86099E-1
-2.34924E-1,5.15930E-1
-1.94458E-1,5.15075E-1
-1.68090E-1,5.27221E-1
-1.25152E-1,5.49896E-1
-0.76782E-1,5.63751E-1
-0.25787E-1,5.85479E-1
0.3479E-1,5.72387E-1
0.58319E-1,5.54046E-1
0.85052E-1,5.62469E-1
1.46881E-1,5.70861E-1
1.90979E-1,5.62652E-1
2.46002E-1,5.47302E-1
2.64343E-1,5.03692E-1
2.77252E-1,4.85229E-1
3.30352E-1,4.71740E-1
3.84841E-1,4.27261E-1
4.32663E-1,3.93264E-1
4.62356E-1,3.37387E-1
4.61486E-1,3.09249E-1
4.91317E-1,2.91000E-1
5.29815E-1,2.25036E-1
5.43487E-1,1.81854E-1
5.74798E-1,1.27410E-1
5.52887E-1,0.81451E-1
5.45532E-1,0.69305E-1
5.52398E-1,0.19317E-1
5.24841E-1,-0.33477E-1
5.17608E-1,-0.83770E-1
4.83749E-1,-1.46240E-1
4.49722E-1,-1.69235E-1
4.32525E-1,-1.99462E-1
3.93737E-1,-2.41363E-1
3.68972E-1,-2.76306E-1
3.24783E-1,-3.36578E-1
2.73086E-1,-3.43246E-1
2.55371E-1,-3.46298E-1
2.19146E-1,-3.60046E-1
1.76239E-1,-3.57269E-1
1.26953E-1,-3.82843E-1
0.56228E-1,-3.81546E-1
0.30090E-1,-3.70666E-1
-0.02700E-1,-3.68438E-1
-0.32028E-1,-3.40332E-1
-0.62225E-1,-3.39553E-1
-1.41769E-1,-3.28369E-1
-1.71737E-1,-2.99545E-1
-1.90399E-1,-3.02932E-1
-2.00027E-1,-2.72491E-1
-1.85043E-1,-2.50473E-1
-2.24700E-1,-2.36175E-1
-2.71133E-1,-1.74087E-1
-2.80914E-1,-1.44256E-1
-2.88650E-1,-1.18682E-1
-2.60421E-1,-1.01821E-1
-2.71331E-1,-0.90133E-1
-3.10089E-1,-0.15289E-1
-3.05709E-1,0.39764E-1
-3.20602E-1,0.62377E-1
-2.89718E-1,0.66909E-1
END
