CITIFILE A.01.01
#NA VERSION HP8510C.08.10
NAME DATA
#NA REGISTER 1
VAR FREQ MAG 201
DATA S[1,1] RI
DATA S[2,1] RI
DATA S[1,2] RI
DATA S[2,2] RI
SEG_LIST_BEGIN
SEG 8000000000 12000000000 201
SEG_LIST_END
COMMENT       YEAR MONTH DAY HOUR MINUTE SECONDS
CONSTANT TIME 2013   09   26  18    34    34.0
BEGIN
-5.49346E-1,-1.62658E-1
-5.62988E-1,-1.06597E-1
-5.67718E-1,-0.40466E-1
-5.71685E-1,0.13641E-1
-5.71411E-1,0.79711E-1
-5.55664E-1,1.30767E-1
-5.40435E-1,1.84234E-1
-5.14862E-1,2.30621E-1
-4.92340E-1,2.89901E-1
-4.56497E-1,3.41888E-1
-4.22561E-1,3.80752E-1
-3.83361E-1,4.18365E-1
-3.43414E-1,4.47036E-1
-2.94937E-1,4.87869E-1
-2.39013E-1,5.13122E-1
-1.87255E-1,5.35461E-1
-1.33239E-1,5.51574E-1
-0.84533E-1,5.55084E-1
-0.33935E-1,5.68695E-1
0.32623E-1,5.58502E-1
0.87829E-1,5.48645E-1
1.42395E-1,5.37750E-1
1.89697E-1,5.21637E-1
2.32315E-1,4.99267E-1
2.71835E-1,4.70397E-1
3.11126E-1,4.44686E-1
3.53286E-1,4.10293E-1
3.94332E-1,3.77288E-1
4.25720E-1,3.31192E-1
4.47143E-1,3.03009E-1
4.77066E-1,2.57461E-1
4.93408E-1,2.03247E-1
5.09094E-1,1.54876E-1
5.20538E-1,0.99548E-1
5.29296E-1,0.63079E-1
5.33477E-1,-0.01068E-1
5.14373E-1,-0.4776E-1
5.07354E-1,-0.88470E-1
5.06774E-1,-1.44012E-1
4.77722E-1,-1.97677E-1
4.53628E-1,-2.38662E-1
4.24484E-1,-2.66464E-1
3.95568E-1,-3.02261E-1
3.67416E-1,-3.40026E-1
3.22509E-1,-3.83850E-1
2.90878E-1,-4.03701E-1
2.48809E-1,-4.20669E-1
2.11059E-1,-4.32434E-1
1.70867E-1,-4.43450E-1
1.26159E-1,-4.74044E-1
0.65444E-1,-4.71450E-1
0.36285E-1,-4.69696E-1
0.04745E-1,-4.70581E-1
-0.36132E-1,-4.63851E-1
-0.81756E-1,-4.55322E-1
-1.37085E-1,-4.43862E-1
-1.73187E-1,-4.33380E-1
-2.05154E-1,-4.15878E-1
-2.31414E-1,-3.92593E-1
-2.54074E-1,-3.59191E-1
-2.98385E-1,-3.38653E-1
-3.29605E-1,-2.92877E-1
-3.40789E-1,-2.73986E-1
-3.56918E-1,-2.57934E-1
-3.69979E-1,-2.25189E-1
-3.83041E-1,-1.88858E-1
-4.03518E-1,-1.37344E-1
-4.16595E-1,-1.07589E-1
-4.22164E-1,-0.78872E-1
-4.15298E-1,-0.50796E-1
-4.00039E-1,-0.23345E-1
-4.05380E-1,0.22430E-1
-3.91494E-1,0.64529E-1
-3.86444E-1,0.81268E-1
-3.85635E-1,0.92315E-1
-3.72924E-1,1.11053E-1
-3.54110E-1,1.47018E-1
-3.27514E-1,1.79962E-1
-3.30154E-1,2.10876E-1
-3.29071E-1,2.35656E-1
-3.15216E-1,2.54440E-1
-2.72125E-1,2.64587E-1
-2.34695E-1,2.79571E-1
-2.0961E-1,3.11447E-1
-1.91406E-1,3.42437E-1
-1.80603E-1,3.54827E-1
-1.59179E-1,3.53210E-1
-1.24801E-1,3.49121E-1
-0.79849E-1,3.51104E-1
-0.39306E-1,3.77410E-1
-0.05050E-1,3.94866E-1
0.13961E-1,3.99063E-1
0.34561E-1,3.76129E-1
0.65887E-1,3.54888E-1
1.10885E-1,3.46359E-1
1.64276E-1,3.41873E-1
1.90475E-1,3.37692E-1
2.07275E-1,3.30719E-1
2.31140E-1,3.01971E-1
2.52502E-1,2.63397E-1
2.99881E-1,2.33383E-1
3.42132E-1,2.02407E-1
3.76327E-1,1.72058E-1
3.75946E-1,1.27533E-1
3.70147E-1,0.80917E-1
3.77075E-1,0.26626E-1
3.91647E-1,-0.34515E-1
3.92746E-1,-0.85647E-1
3.75228E-1,-1.17477E-1
3.50906E-1,-1.49337E-1
3.19061E-1,-1.94015E-1
2.94189E-1,-2.52151E-1
2.67379E-1,-3.00140E-1
2.42157E-1,-3.3284E-1
2.04040E-1,-3.46176E-1
1.50116E-1,-3.60046E-1
0.87921E-1,-3.81393E-1
0.29556E-1,-4.10476E-1
-0.13168E-1,-4.23904E-1
-0.33935E-1,-4.20394E-1
-0.74142E-1,-4.11636E-1
-1.33972E-1,-3.86901E-1
-2.03216E-1,-3.70636E-1
-2.55264E-1,-3.62106E-1
-2.89505E-1,-3.61663E-1
-3.14788E-1,-3.42025E-1
-3.45626E-1,-2.97012E-1
-3.84079E-1,-2.30285E-1
-4.28878E-1,-1.83639E-1
-4.68383E-1,-1.52938E-1
-4.79721E-1,-1.36261E-1
-4.85290E-1,-1.01394E-1
-4.82177E-1,-0.33142E-1
-4.78302E-1,0.41107E-1
-4.96109E-1,0.91949E-1
-5.12207E-1,1.26434E-1
-5.07720E-1,1.49444E-1
-4.80789E-1,1.92672E-1
-4.34982E-1,2.52731E-1
-4.09622E-1,3.12133E-1
-4.00039E-1,3.67080E-1
-3.87085E-1,3.85482E-1
-3.64212E-1,3.97598E-1
-3.06747E-1,4.23751E-1
-2.39151E-1,4.57473E-1
-1.98974E-1,4.94781E-1
-1.79321E-1,5.20263E-1
-1.66320E-1,5.17425E-1
-1.33758E-1,5.18371E-1
-0.50750E-1,5.16052E-1
0.12573E-1,5.16815E-1
0.61798E-1,5.48675E-1
0.84350E-1,5.56304E-1
0.94268E-1,5.48614E-1
1.46423E-1,5.15289E-1
2.11242E-1,4.62524E-1
2.71362E-1,4.49432E-1
3.21975E-1,4.45922E-1
3.36990E-1,4.41299E-1
3.51577E-1,4.18289E-1
3.80462E-1,3.49319E-1
4.15664E-1,2.91824E-1
4.76028E-1,2.49023E-1
5.10894E-1,2.22564E-1
5.22460E-1,1.96014E-1
5.05493E-1,1.41052E-1
4.92446E-1,0.64193E-1
4.94415E-1,-0.18493E-1
5.00701E-1,-0.76049E-1
5.01647E-1,-1.03881E-1
4.76577E-1,-1.18576E-1
4.39300E-1,-1.53884E-1
3.87863E-1,-2.12188E-1
3.55697E-1,-2.69317E-1
3.48892E-1,-3.10928E-1
3.33007E-1,-3.26644E-1
3.05374E-1,-3.29086E-1
2.39120E-1,-3.48571E-1
1.64657E-1,-3.68881E-1
1.25442E-1,-3.97995E-1
1.01272E-1,-4.19281E-1
0.92346E-1,-4.07699E-1
0.56518E-1,-3.98819E-1
-0.12939E-1,-3.70986E-1
-0.68145E-1,-3.64898E-1
-1.10839E-1,-3.85223E-1
-1.24572E-1,-3.85589E-1
-1.26388E-1,-3.74572E-1
-1.64016E-1,-3.32321E-1
-2.13989E-1,-2.80395E-1
-2.69668E-1,-2.63427E-1
-3.02932E-1,-2.556E-1
-2.89596E-1,-2.58209E-1
-2.91214E-1,-2.31658E-1
-2.92617E-1,-1.56433E-1
-3.22845E-1,-1.00616E-1
-3.69323E-1,-0.65719E-1
-3.75E-1,-0.76065E-1
-3.64944E-1,-0.97534E-1
-3.37646E-1,-0.65139E-1
-3.19625E-1,0.06713E-1
END
BEGIN
-8.68133E-1,1.54144E-1
-7.78900E-1,2.38006E-1
-7.81890E-1,2.71057E-1
-7.58270E-1,4.02832E-1
-6.86157E-1,4.64843E-1
-6.33026E-1,5.63842E-1
-4.93164E-1,5.96069E-1
-4.54162E-1,5.54748E-1
-4.48333E-1,6.06567E-1
-3.90716E-1,6.42150E-1
-3.56811E-1,6.97937E-1
-2.35046E-1,7.32757E-1
-1.99493E-1,6.79565E-1
-2.09777E-1,7.43103E-1
-0.98327E-1,7.98034E-1
-0.36193E-1,8.04260E-1
0.85296E-1,8.32641E-1
1.64611E-1,7.41668E-1
1.48284E-1,7.45239E-1
2.42218E-1,7.85705E-1
3.13385E-1,7.62512E-1
4.23919E-1,7.83966E-1
5.48156E-1,6.71203E-1
5.45471E-1,6.12182E-1
6.38855E-1,5.97930E-1
6.92810E-1,4.87731E-1
7.39502E-1,4.50225E-1
8.17352E-1,2.98584E-1
7.28179E-1,1.89758E-1
7.14538E-1,1.98486E-1
7.30560E-1,1.45263E-1
7.32696E-1,1.36932E-1
8.10363E-1,0.70251E-1
7.63397E-1,-0.39154E-1
7.50640E-1,-0.21606E-1
8.31298E-1,-0.72448E-1
8.60046E-1,-1.61407E-1
9.25476E-1,-2.96630E-1
8.15277E-1,-5.01495E-1
6.86126E-1,-4.92279E-1
6.97753E-1,-5.39123E-1
6.19171E-1,-6.19567E-1
5.90942E-1,-6.55181E-1
5.06713E-1,-7.71972E-1
3.72924E-1,-7.43743E-1
3.87664E-1,-7.42492E-1
3.15338E-1,-8.29528E-1
2.48962E-1,-8.36364E-1
1.81091E-1,-9.33593E-1
-0.21423E-1,-9.29748E-1
-0.75378E-1,-8.35083E-1
-1.23016E-1,-8.33129E-1
-1.80572E-1,-7.87262E-1
-1.98883E-1,-8.02734E-1
-3.14025E-1,-8.04748E-1
-3.63372E-1,-7.30285E-1
-3.97705E-1,-7.27569E-1
-4.64538E-1,-6.91589E-1
-5.0E-1,-6.93542E-1
-6.44622E-1,-6.85668E-1
-7.24090E-1,-5.30517E-1
-7.16186E-1,-4.63989E-1
-7.54180E-1,-3.84735E-1
-7.20367E-1,-3.26965E-1
-7.71545E-1,-3.36181E-1
-8.37066E-1,-2.28057E-1
-8.07159E-1,-1.63238E-1
-8.43017E-1,-1.28021E-1
-8.55255E-1,-0.50384E-1
-8.97796E-1,-0.03936E-1
-9.41680E-1,1.46759E-1
-8.58154E-1,2.60833E-1
-8.28674E-1,3.13751E-1
-7.62298E-1,4.00177E-1
-7.01873E-1,4.03625E-1
-7.02972E-1,4.56573E-1
-6.38183E-1,5.09063E-1
-6.29303E-1,5.27069E-1
-6.02111E-1,6.06201E-1
-5.45745E-1,6.25091E-1
-5.59478E-1,6.84936E-1
-4.82086E-1,7.92907E-1
-3.96850E-1,8.30810E-1
-3.03588E-1,8.98010E-1
-1.78039E-1,8.73199E-1
-1.67205E-1,8.66241E-1
-0.78430E-1,9.29718E-1
0.19378E-1,8.88977E-1
0.57006E-1,9.05700E-1
1.66198E-1,9.05609E-1
2.02087E-1,8.74115E-1
2.82012E-1,9.34875E-1
4.38476E-1,8.87085E-1
4.94537E-1,8.13385E-1
5.86395E-1,7.68890E-1
6.32812E-1,6.63665E-1
6.55670E-1,6.33117E-1
7.28881E-1,5.63446E-1
7.25067E-1,4.94934E-1
7.71759E-1,4.85961E-1
8.36822E-1,4.04357E-1
8.48693E-1,3.52722E-1
9.27429E-1,2.99926E-1
9.55139E-1,1.83258E-1
9.76776E-1,1.18499E-1
1.02618E0,-0.13610E-1
9.69177E-1,-1.44043E-1
9.3573E-1,-2.05444E-1
9.09851E-1,-3.00781E-1
8.57360E-1,-3.58947E-1
8.37493E-1,-4.35485E-1
7.59582E-1,-5.18096E-1
7.05658E-1,-5.32959E-1
6.87896E-1,-5.94299E-1
6.30065E-1,-6.53015E-1
5.88531E-1,-7.07214E-1
5.06805E-1,-7.83203E-1
4.11743E-1,-8.00354E-1
3.48358E-1,-8.28674E-1
2.50427E-1,-8.50036E-1
1.88049E-1,-8.29528E-1
1.33331E-1,-8.52935E-1
0.41503E-1,-8.41064E-1
-0.07049E-1,-8.17230E-1
-0.75958E-1,-8.11828E-1
-1.23138E-1,-7.77465E-1
-1.51855E-1,-7.89337E-1
-2.29919E-1,-7.91229E-1
-2.90557E-1,-7.66113E-1
-3.67981E-1,-7.42584E-1
-4.23553E-1,-6.68243E-1
-4.36248E-1,-6.46392E-1
-5.09857E-1,-6.30279E-1
-5.50659E-1,-5.66680E-1
-5.82733E-1,-5.38848E-1
-6.29974E-1,-4.69238E-1
-6.15661E-1,-4.21325E-1
-6.63055E-1,-4.19036E-1
-7.21283E-1,-3.50524E-1
-7.40020E-1,-3.01666E-1
-7.85888E-1,-2.39654E-1
-7.75238E-1,-1.59057E-1
-7.83905E-1,-1.28387E-1
-8.18389E-1,-0.38665E-1
-7.88604E-1,0.34271E-1
-8.02520E-1,0.81726E-1
-7.76153E-1,1.71936E-1
-7.28790E-1,1.85150E-1
-7.47894E-1,2.21191E-1
-7.22320E-1,2.88848E-1
-7.19543E-1,3.26110E-1
-7.14080E-1,4.22851E-1
-6.47186E-1,4.77356E-1
-6.34674E-1,5.04150E-1
-5.90942E-1,5.69824E-1
-5.48980E-1,5.95611E-1
-5.16326E-1,6.71417E-1
-4.13177E-1,7.14172E-1
-3.80493E-1,7.06298E-1
-3.48297E-1,7.63885E-1
-2.80456E-1,7.77893E-1
-2.56439E-1,8.18481E-1
-1.52160E-1,8.74969E-1
-0.69580E-1,8.54644E-1
-0.12481E-1,8.85253E-1
0.88592E-1,8.80859E-1
1.36962E-1,8.61877E-1
2.23968E-1,8.78784E-1
3.10791E-1,8.21685E-1
3.54766E-1,7.89001E-1
4.26910E-1,7.55310E-1
4.61151E-1,7.09228E-1
5.11413E-1,7.14965E-1
6.03210E-1,6.62689E-1
6.38092E-1,6.04187E-1
6.97113E-1,5.57128E-1
7.33215E-1,4.79400E-1
7.56774E-1,4.40795E-1
8.25897E-1,3.75579E-1
8.40026E-1,2.90741E-1
8.58947E-1,2.36633E-1
8.81500E-1,1.58325E-1
8.75640E-1,0.89294E-1
8.96087E-1,0.28747E-1
8.93249E-1,-0.66192E-1
8.71643E-1,-1.26983E-1
8.74237E-1,-1.97570E-1
8.46771E-1,-2.72644E-1
8.20312E-1,-3.237E-1
7.98858E-1,-3.95752E-1
7.52807E-1,-4.56146E-1
7.25372E-1,-5.00793E-1
7.03949E-1,-5.63629E-1
6.53137E-1,-6.42181E-1
5.97686E-1,-6.94091E-1
5.21942E-1,-7.49389E-1
4.49951E-1,-7.61535E-1
4.08111E-1,-7.90985E-1
3.44268E-1,-8.44024E-1
2.68890E-1,-8.63250E-1
1.89453E-1,-8.90716E-1
END
BEGIN
-7.47283E-1,1.30523E-1
-7.66784E-1,2.02392E-1
-6.79107E-1,2.96722E-1
-6.57897E-1,2.60894E-1
-7.31170E-1,3.55377E-1
-6.49383E-1,4.68017E-1
-6.26373E-1,5.13031E-1
-5.39123E-1,6.20483E-1
-4.55047E-1,5.91003E-1
-5.00549E-1,6.40014E-1
-4.08447E-1,7.69439E-1
-3.09570E-1,7.87933E-1
-2.00775E-1,8.38378E-1
-0.86853E-1,7.81433E-1
-1.00616E-1,7.74658E-1
-0.07751E-1,8.60382E-1
1.02142E-1,8.30627E-1
1.89636E-1,8.42895E-1
3.22174E-1,7.49084E-1
2.90100E-1,6.64093E-1
3.17993E-1,7.22106E-1
4.27795E-1,6.86889E-1
4.69726E-1,6.64062E-1
5.91339E-1,6.14807E-1
5.95336E-1,4.92462E-1
5.88134E-1,5.08270E-1
6.89544E-1,4.75860E-1
7.29156E-1,4.05487E-1
8.19274E-1,3.37371E-1
8.22662E-1,1.72729E-1
7.58514E-1,1.44226E-1
8.10089E-1,1.23992E-1
8.34259E-1,0.52185E-1
8.99871E-1,-0.20813E-1
8.79913E-1,-2.15972E-1
7.42157E-1,-2.52899E-1
7.56012E-1,-2.38861E-1
7.71392E-1,-3.17321E-1
7.87963E-1,-3.88397E-1
7.57476E-1,-5.70098E-1
5.67596E-1,-6.15539E-1
5.35003E-1,-5.56549E-1
5.38024E-1,-6.03790E-1
5.20019E-1,-6.47277E-1
5.01129E-1,-7.85736E-1
2.99560E-1,-8.63433E-1
2.21984E-1,-7.73284E-1
2.17742E-1,-7.94036E-1
1.62170E-1,-8.15490E-1
1.35498E-1,-8.82659E-1
-0.54748E-1,-9.59106E-1
-1.85821E-1,-8.30352E-1
-1.83654E-1,-7.89276E-1
-2.34100E-1,-7.80853E-1
-2.47558E-1,-7.85675E-1
-3.71154E-1,-8.50555E-1
-5.27526E-1,-7.23358E-1
-5.10772E-1,-6.28723E-1
-5.44097E-1,-6.07849E-1
-5.56640E-1,-5.74279E-1
-6.27227E-1,-6.16729E-1
-7.84698E-1,-5.09460E-1
-7.61779E-1,-3.62091E-1
-7.49847E-1,-3.25317E-1
-7.51922E-1,-2.70080E-1
-7.69928E-1,-2.85980E-1
-9.12262E-1,-2.25952E-1
-9.10125E-1,-0.36193E-1
-8.48327E-1,0.10620E-1
-8.47930E-1,0.65399E-1
-8.34014E-1,0.93566E-1
-9.18090E-1,1.47338E-1
-9.17358E-1,3.46069E-1
-7.95074E-1,4.24591E-1
-7.56073E-1,4.57336E-1
-7.03369E-1,5.00396E-1
-7.06176E-1,5.25573E-1
-6.95678E-1,6.52832E-1
-5.70190E-1,7.38922E-1
-4.8349E-1,7.50976E-1
-4.09912E-1,7.59857E-1
-3.93005E-1,7.58636E-1
-3.71551E-1,8.49639E-1
-2.34527E-1,9.14428E-1
-1.46087E-1,8.90777E-1
-0.60791E-1,9.00848E-1
0.13031E-1,8.49456E-1
0.14679E-1,8.59832E-1
1.01409E-1,9.26147E-1
2.21466E-1,9.04968E-1
3.01055E-1,8.78967E-1
3.83514E-1,8.17260E-1
3.97186E-1,7.76489E-1
4.59899E-1,8.00689E-1
5.80108E-1,7.70263E-1
6.71905E-1,6.99615E-1
7.42981E-1,5.93963E-1
7.24487E-1,5.02410E-1
7.42797E-1,5.06622E-1
8.39050E-1,4.53918E-1
8.92334E-1,3.44146E-1
9.26239E-1,2.36999E-1
8.96453E-1,1.22253E-1
8.73779E-1,1.08734E-1
9.32495E-1,0.51086E-1
9.35699E-1,-0.57983E-1
9.33013E-1,-1.42730E-1
8.94165E-1,-2.70019E-1
8.11584E-1,-3.07708E-1
8.24035E-1,-3.35815E-1
8.16711E-1,-4.31976E-1
7.73315E-1,-5.16754E-1
6.94305E-1,-6.13037E-1
5.76873E-1,-6.24877E-1
5.62439E-1,-6.17889E-1
5.41229E-1,-6.87439E-1
4.77478E-1,-7.47070E-1
3.92974E-1,-8.07464E-1
2.70507E-1,-8.01452E-1
2.37762E-1,-7.57995E-1
2.21832E-1,-7.93335E-1
1.61041E-1,-8.35693E-1
0.75347E-1,-8.75E-1
-0.53558E-1,-8.55316E-1
-0.98083E-1,-7.79083E-1
-1.09039E-1,-7.85522E-1
-1.70684E-1,-7.98736E-1
-2.41210E-1,-8.12469E-1
-3.63494E-1,-7.84942E-1
-4.09484E-1,-6.70776E-1
-3.87207E-1,-6.43859E-1
-4.31915E-1,-6.58783E-1
-5.03906E-1,-6.45996E-1
-6.00158E-1,-6.06323E-1
-6.48040E-1,-4.97772E-1
-6.25E-1,-4.48181E-1
-6.52832E-1,-4.34875E-1
-6.93145E-1,-3.90960E-1
-7.48535E-1,-3.50708E-1
-8.06732E-1,-2.48626E-1
-7.76245E-1,-1.61468E-1
-7.67486E-1,-1.36810E-1
-7.82653E-1,-0.94604E-1
-8.04870E-1,-0.52124E-1
-8.47045E-1,0.35949E-1
-8.15918E-1,1.39648E-1
-7.86438E-1,1.77612E-1
-7.80395E-1,2.26074E-1
-7.71423E-1,2.67791E-1
-7.92785E-1,3.43017E-1
-7.42889E-1,4.73175E-1
-6.43981E-1,5.09613E-1
-6.18011E-1,5.25573E-1
-5.90301E-1,5.62591E-1
-5.77789E-1,6.05621E-1
-5.34362E-1,7.01049E-1
-4.20593E-1,7.49725E-1
-3.54919E-1,7.52258E-1
-3.00842E-1,7.73223E-1
-2.56683E-1,7.87078E-1
-2.08953E-1,8.33526E-1
-1.01043E-1,8.55743E-1
-0.23559E-1,8.26019E-1
0.31768E-1,8.14361E-1
0.77270E-1,8.06610E-1
1.22467E-1,8.18512E-1
1.98822E-1,8.26873E-1
2.73193E-1,7.94616E-1
3.31512E-1,7.59399E-1
3.76495E-1,7.23907E-1
4.21539E-1,7.11395E-1
4.90295E-1,7.02179E-1
5.62774E-1,6.52130E-1
6.06384E-1,5.95001E-1
6.38610E-1,5.41137E-1
6.74987E-1,5.01281E-1
7.22625E-1,4.57702E-1
7.78503E-1,3.99414E-1
8.10089E-1,3.29223E-1
8.27636E-1,2.63641E-1
8.45428E-1,2.07672E-1
8.65600E-1,1.35772E-1
8.83606E-1,0.66772E-1
8.95660E-1,-0.14587E-1
8.90991E-1,-0.88958E-1
8.83789E-1,-1.55212E-1
8.70575E-1,-2.36267E-1
8.37493E-1,-3.02307E-1
8.18298E-1,-3.72467E-1
7.84118E-1,-4.41833E-1
7.57537E-1,-4.97802E-1
7.28515E-1,-5.68481E-1
6.61895E-1,-6.31073E-1
6.05346E-1,-6.73461E-1
5.43304E-1,-7.22412E-1
4.94079E-1,-7.62451E-1
4.45831E-1,-8.23120E-1
3.53973E-1,-8.71856E-1
2.73651E-1,-8.69079E-1
2.05535E-1,-8.79058E-1
1.33758E-1,-8.75885E-1
END
BEGIN
-5.52215E-1,-1.59668E-1
-5.75622E-1,-0.98815E-1
-5.88775E-1,-0.33447E-1
-5.95550E-1,0.19989E-1
-5.97381E-1,0.90393E-1
-5.81665E-1,1.58935E-1
-5.62316E-1,2.32757E-1
-5.35980E-1,2.93762E-1
-5.08697E-1,3.58032E-1
-4.68734E-1,4.10369E-1
-4.30404E-1,4.55337E-1
-3.76739E-1,5.00244E-1
-3.22174E-1,5.35888E-1
-2.60253E-1,5.79498E-1
-1.97906E-1,6.00402E-1
-1.37786E-1,6.19598E-1
-0.69274E-1,6.31347E-1
-0.03326E-1,6.29699E-1
0.64849E-1,6.33850E-1
1.36413E-1,6.10687E-1
1.91375E-1,5.90179E-1
2.49847E-1,5.65277E-1
3.05938E-1,5.29235E-1
3.61770E-1,4.81613E-1
4.11911E-1,4.25781E-1
4.53949E-1,3.75289E-1
4.91470E-1,3.17382E-1
5.21667E-1,2.56225E-1
5.34668E-1,1.81915E-1
5.46661E-1,1.24176E-1
5.59143E-1,0.51055E-1
5.54443E-1,-0.16052E-1
5.47241E-1,-0.66375E-1
5.28717E-1,-1.16516E-1
5.14679E-1,-1.55242E-1
4.81124E-1,-2.27127E-1
4.32846E-1,-2.69775E-1
4.01825E-1,-3.07205E-1
3.70269E-1,-3.47259E-1
3.21365E-1,-3.74496E-1
2.69821E-1,-4.01687E-1
2.13989E-1,-4.13452E-1
1.59179E-1,-4.29306E-1
1.16378E-1,-4.41787E-1
0.63446E-1,-4.52163E-1
0.26382E-1,-4.52850E-1
-0.28869E-1,-4.39147E-1
-0.76995E-1,-4.23400E-1
-1.24191E-1,-4.05044E-1
-1.69418E-1,-3.95690E-1
-2.09823E-1,-3.60595E-1
-2.40524E-1,-3.38577E-1
-2.78244E-1,-3.11782E-1
-3.16055E-1,-2.77389E-1
-3.43154E-1,-2.45895E-1
-3.61770E-1,-2.10739E-1
-3.76709E-1,-1.86187E-1
-3.93081E-1,-1.42684E-1
-4.04937E-1,-0.91125E-1
-4.05365E-1,-0.42724E-1
-4.16503E-1,-0.07476E-1
-4.09347E-1,0.33844E-1
-4.04495E-1,0.66986E-1
-4.00497E-1,1.15753E-1
-3.83194E-1,1.70135E-1
-3.64761E-1,2.08770E-1
-3.46725E-1,2.38494E-1
-3.42422E-1,2.65960E-1
-3.10043E-1,2.99911E-1
-2.67059E-1,3.23013E-1
-2.23526E-1,3.37768E-1
-1.85302E-1,3.65188E-1
-1.45706E-1,3.84750E-1
-1.00006E-1,4.03884E-1
-0.50842E-1,4.14917E-1
-0.01571E-1,4.19082E-1
0.54519E-1,4.14947E-1
0.89691E-1,3.95797E-1
1.28372E-1,4.06967E-1
1.80206E-1,3.98269E-1
2.25418E-1,3.74389E-1
2.52624E-1,3.33236E-1
2.66387E-1,3.03527E-1
3.04458E-1,2.84835E-1
3.41354E-1,2.36969E-1
3.66439E-1,1.95907E-1
3.92410E-1,1.45492E-1
3.98391E-1,0.95993E-1
3.91616E-1,0.63385E-1
4.10491E-1,0.25451E-1
4.07333E-1,-0.22064E-1
4.07165E-1,-0.65200E-1
3.81820E-1,-1.08902E-1
3.57040E-1,-1.40594E-1
3.49624E-1,-1.79061E-1
3.22189E-1,-2.29797E-1
2.98049E-1,-2.63809E-1
2.60818E-1,-3.0336E-1
2.09762E-1,-3.25088E-1
1.81030E-1,-3.31298E-1
1.5448E-1,-3.69232E-1
1.25076E-1,-3.91372E-1
0.93246E-1,-4.21218E-1
0.52185E-1,-4.08828E-1
0.33126E-1,-3.94653E-1
-0.05050E-1,-4.04602E-1
-0.55389E-1,-3.99231E-1
-0.96756E-1,-3.99231E-1
-1.39831E-1,-3.85025E-1
-1.61788E-1,-3.65737E-1
-1.84738E-1,-3.54156E-1
-2.21511E-1,-3.33663E-1
-2.47192E-1,-3.13430E-1
-2.82394E-1,-3.00231E-1
-3.02581E-1,-2.75848E-1
-3.14315E-1,-2.57492E-1
-3.30490E-1,-2.36969E-1
-3.44558E-1,-2.09701E-1
-3.62396E-1,-1.82540E-1
-3.70666E-1,-1.52603E-1
-3.86459E-1,-1.28051E-1
-3.98712E-1,-0.98281E-1
-4.11407E-1,-0.68313E-1
-4.22485E-1,-0.43823E-1
-4.38766E-1,-0.18798E-1
-4.55612E-1,0.08865E-1
-4.53247E-1,0.44418E-1
-4.47143E-1,0.66970E-1
-4.49035E-1,0.90286E-1
-4.55688E-1,1.27121E-1
-4.55368E-1,1.56616E-1
-4.48989E-1,1.98089E-1
-4.29199E-1,2.22030E-1
-4.22256E-1,2.47848E-1
-4.16961E-1,2.87246E-1
-4.00543E-1,3.26110E-1
-3.91235E-1,3.65676E-1
-3.60519E-1,3.97323E-1
-3.41384E-1,4.05151E-1
-3.32046E-1,4.29412E-1
-3.03695E-1,4.62814E-1
-2.76535E-1,4.81918E-1
-2.39929E-1,5.09094E-1
-1.99462E-1,5.11016E-1
-1.69586E-1,5.25238E-1
-1.27533E-1,5.46569E-1
-0.81146E-1,5.60455E-1
-0.30578E-1,5.79071E-1
0.28198E-1,5.67962E-1
0.55999E-1,5.52856E-1
0.84381E-1,5.59722E-1
1.42547E-1,5.67535E-1
1.83563E-1,5.59997E-1
2.32513E-1,5.44403E-1
2.53662E-1,5.05310E-1
2.69943E-1,4.85229E-1
3.21029E-1,4.69986E-1
3.74038E-1,4.28695E-1
4.19128E-1,3.95401E-1
4.48669E-1,3.43978E-1
4.51400E-1,3.14468E-1
4.81353E-1,2.94342E-1
5.20202E-1,2.33612E-1
5.36682E-1,1.90521E-1
5.64117E-1,1.41235E-1
5.48126E-1,0.99639E-1
5.41961E-1,0.84411E-1
5.47912E-1,0.36315E-1
5.24566E-1,-0.17028E-1
5.15197E-1,-0.66833E-1
4.86648E-1,-1.23855E-1
4.56314E-1,-1.50573E-1
4.38354E-1,-1.83013E-1
4.01992E-1,-2.27752E-1
3.75381E-1,-2.64648E-1
3.36013E-1,-3.1987E-1
2.90466E-1,-3.31741E-1
2.71240E-1,-3.38409E-1
2.33627E-1,-3.52218E-1
1.89407E-1,-3.52325E-1
1.41464E-1,-3.74771E-1
0.77728E-1,-3.78402E-1
0.48309E-1,-3.70941E-1
0.14831E-1,-3.68194E-1
-0.19180E-1,-3.42834E-1
-0.52383E-1,-3.39035E-1
-1.25030E-1,-3.31802E-1
-1.57806E-1,-3.08303E-1
-1.76055E-1,-3.09982E-1
-1.86950E-1,-2.83218E-1
-1.78115E-1,-2.58270E-1
-2.13409E-1,-2.41752E-1
-2.58483E-1,-1.87088E-1
-2.69989E-1,-1.57714E-1
-2.78625E-1,-1.34063E-1
-2.57904E-1,-1.13449E-1
-2.66281E-1,-0.95596E-1
-3.02124E-1,-0.29052E-1
-3.02459E-1,0.23605E-1
-3.17840E-1,0.44082E-1
-2.95257E-1,0.52093E-1
END
