CITIFILE A.01.01
#NA VERSION HP8510C.08.10
NAME DATA
#NA REGISTER 1
VAR FREQ MAG 201
DATA S[1,1] RI
DATA S[2,1] RI
DATA S[1,2] RI
DATA S[2,2] RI
SEG_LIST_BEGIN
SEG 8000000000 12000000000 201
SEG_LIST_END
COMMENT       YEAR MONTH DAY HOUR MINUTE SECONDS
CONSTANT TIME 2013   09   26  20    03    58.0
BEGIN
-4.22546E-1,-2.25891E-1
-4.41940E-1,-1.81442E-1
-4.60693E-1,-1.25E-1
-4.73312E-1,-0.83145E-1
-4.87533E-1,-0.34256E-1
-4.80148E-1,0.09323E-1
-4.72961E-1,0.55511E-1
-4.60113E-1,1.03714E-1
-4.57092E-1,1.60888E-1
-4.41589E-1,2.11868E-1
-4.20166E-1,2.45788E-1
-3.87496E-1,2.79678E-1
-3.52813E-1,3.10775E-1
-3.20083E-1,3.61114E-1
-2.77481E-1,3.97262E-1
-2.44216E-1,4.22988E-1
-2.02117E-1,4.40094E-1
-1.57669E-1,4.44381E-1
-1.14151E-1,4.66629E-1
-0.46768E-1,4.78591E-1
-0.00167E-1,4.82330E-1
0.42373E-1,4.81567E-1
0.81314E-1,4.65744E-1
1.23764E-1,4.48059E-1
1.72683E-1,4.28497E-1
2.12554E-1,4.14184E-1
2.51251E-1,3.97598E-1
2.80044E-1,3.72894E-1
3.08639E-1,3.34823E-1
3.31649E-1,3.06686E-1
3.72146E-1,2.72155E-1
4.02084E-1,2.30270E-1
4.17999E-1,1.97692E-1
4.25216E-1,1.55197E-1
4.29290E-1,1.22604E-1
4.50500E-1,0.58990E-1
4.43786E-1,0.07385E-1
4.46807E-1,-0.22384E-1
4.47036E-1,-0.55694E-1
4.28314E-1,-0.96313E-1
4.10095E-1,-1.41906E-1
3.82415E-1,-1.80221E-1
3.71307E-1,-2.17285E-1
3.58337E-1,-2.47940E-1
3.35113E-1,-2.76748E-1
3.08105E-1,-2.94693E-1
2.60406E-1,-3.21884E-1
2.28057E-1,-3.41095E-1
2.00195E-1,-3.65417E-1
1.78436E-1,-3.85757E-1
1.35635E-1,-3.89282E-1
1.00662E-1,-3.85665E-1
0.65979E-1,-3.87390E-1
0.28060E-1,-3.98468E-1
-0.06301E-1,-4.04022E-1
-0.37551E-1,-4.03472E-1
-0.65856E-1,-3.94592E-1
-1.04095E-1,-3.73016E-1
-1.3974E-1,-3.58169E-1
-1.73568E-1,-3.40866E-1
-1.94549E-1,-3.37570E-1
-2.21557E-1,-3.15292E-1
-2.28363E-1,-2.78076E-1
-2.41516E-1,-2.61154E-1
-2.74383E-1,-2.40783E-1
-2.95761E-1,-2.19284E-1
-3.13308E-1,-2.01583E-1
-3.19931E-1,-1.82128E-1
-3.20846E-1,-1.43814E-1
-3.26950E-1,-1.08139E-1
-3.32382E-1,-0.74096E-1
-3.43643E-1,-0.60684E-1
-3.43872E-1,-0.39001E-1
-3.20602E-1,-0.18768E-1
-3.09371E-1,-0.05676E-1
-3.09997E-1,0.26702E-1
-3.13644E-1,0.53512E-1
-3.15429E-1,0.71365E-1
-3.14559E-1,0.80734E-1
-3.00888E-1,0.92605E-1
-2.87857E-1,1.23260E-1
-2.60025E-1,1.57608E-1
-2.62954E-1,1.77658E-1
-2.53067E-1,2.04681E-1
-2.36763E-1,1.95259E-1
-2.25181E-1,2.00935E-1
-1.92901E-1,2.23991E-1
-1.70524E-1,2.36999E-1
-1.60064E-1,2.61749E-1
-1.49353E-1,2.75436E-1
-1.38519E-1,2.79907E-1
-1.09664E-1,2.91305E-1
-0.63934E-1,2.86377E-1
-0.45547E-1,2.94479E-1
-0.21026E-1,3.10272E-1
-0.05889E-1,3.07235E-1
0.08911E-1,3.06610E-1
0.44998E-1,2.93762E-1
0.74508E-1,2.88406E-1
1.13281E-1,2.93212E-1
1.41342E-1,2.91961E-1
1.59301E-1,2.88711E-1
1.97479E-1,2.68692E-1
2.27462E-1,2.17857E-1
2.57232E-1,1.87622E-1
2.91961E-1,1.62857E-1
3.02246E-1,1.38717E-1
3.11965E-1,1.1203E-1
3.08319E-1,0.57266E-1
3.09402E-1,0.14038E-1
3.27850E-1,-0.33371E-1
3.32992E-1,-0.67993E-1
3.31695E-1,-0.89279E-1
3.14804E-1,-1.30233E-1
2.7565E-1,-1.80099E-1
2.48878E-1,-2.31971E-1
2.27096E-1,-2.76413E-1
2.10174E-1,-2.98767E-1
1.77291E-1,-3.15506E-1
1.21658E-1,-3.18435E-1
0.73974E-1,-3.40652E-1
0.22399E-1,-3.70971E-1
-0.11383E-1,-3.89144E-1
-0.38177E-1,-3.92257E-1
-0.79391E-1,-3.79364E-1
-1.37802E-1,-3.65203E-1
-2.07870E-1,-3.51501E-1
-2.52502E-1,-3.42742E-1
-2.83615E-1,-3.34289E-1
-3.11843E-1,-3.00888E-1
-3.38211E-1,-2.48947E-1
-3.84918E-1,-1.97906E-1
-4.22042E-1,-1.59530E-1
-4.44809E-1,-1.40945E-1
-4.55963E-1,-1.13281E-1
-4.54193E-1,-0.60882E-1
-4.62173E-1,0.06683E-1
-4.73007E-1,0.76812E-1
-4.87426E-1,1.11846E-1
-4.91424E-1,1.38778E-1
-4.68200E-1,1.74194E-1
-4.27246E-1,2.31658E-1
-3.88031E-1,2.99850E-1
-3.71505E-1,3.48465E-1
-3.65707E-1,3.81225E-1
-3.41552E-1,3.96133E-1
-2.88864E-1,4.11254E-1
-2.22442E-1,4.39666E-1
-1.62414E-1,4.82177E-1
-1.37268E-1,5.08178E-1
-1.28631E-1,5.23223E-1
-0.95489E-1,5.22613E-1
-0.23162E-1,5.08026E-1
0.58944E-1,4.97863E-1
1.16622E-1,4.99816E-1
1.45996E-1,5.12298E-1
1.72515E-1,5.11657E-1
2.09930E-1,4.69314E-1
2.48306E-1,4.17541E-1
3.02566E-1,3.82049E-1
3.40347E-1,3.62319E-1
3.66622E-1,3.64807E-1
3.91937E-1,3.33953E-1
4.06921E-1,2.71301E-1
4.27887E-1,2.06741E-1
4.59503E-1,1.51123E-1
4.80575E-1,1.12335E-1
4.87457E-1,0.80505E-1
4.69940E-1,0.29312E-1
4.35165E-1,-0.23483E-1
4.24972E-1,-0.76843E-1
4.13467E-1,-1.21643E-1
4.13833E-1,-1.36825E-1
3.99215E-1,-1.62185E-1
3.56536E-1,-1.88736E-1
3.21243E-1,-2.29126E-1
2.87719E-1,-2.78915E-1
2.70980E-1,-3.02337E-1
2.63015E-1,-3.22311E-1
2.22335E-1,-3.26309E-1
1.74209E-1,-3.19137E-1
1.20239E-1,-3.41415E-1
0.73349E-1,-3.56643E-1
0.69992E-1,-3.75137E-1
0.54626E-1,-3.79669E-1
0.34133E-1,-3.50509E-1
-0.05874E-1,-3.40011E-1
-0.77377E-1,-3.36624E-1
-1.17294E-1,-3.41796E-1
-1.39144E-1,-3.61175E-1
-1.47232E-1,-3.44314E-1
-1.48407E-1,-3.16162E-1
-2.02041E-1,-2.78778E-1
-2.50351E-1,-2.24578E-1
-2.76535E-1,-2.26242E-1
-2.95425E-1,-2.27523E-1
-2.74871E-1,-2.14172E-1
-2.79525E-1,-1.92077E-1
-3.125E-1,-1.13784E-1
-3.23944E-1,-0.69244E-1
-3.57650E-1,-0.62698E-1
END
BEGIN
-9.20929E-1,0.18371E-1
-8.54095E-1,1.20391E-1
-8.54431E-1,1.61987E-1
-8.51837E-1,2.91168E-1
-7.89947E-1,3.68896E-1
-7.54333E-1,4.70428E-1
-6.27533E-1,5.38482E-1
-5.72876E-1,5.13946E-1
-5.69854E-1,5.66589E-1
-5.112E-1,6.14959E-1
-4.81445E-1,6.69128E-1
-3.72833E-1,7.29248E-1
-3.13049E-1,6.90094E-1
-3.24920E-1,7.40997E-1
-2.25982E-1,8.12957E-1
-1.58386E-1,8.23822E-1
-0.51879E-1,8.70544E-1
0.52307E-1,8.04077E-1
0.48675E-1,7.92663E-1
1.29730E-1,8.43505E-1
2.07305E-1,8.26995E-1
2.97790E-1,8.59314E-1
4.41772E-1,7.86132E-1
4.60083E-1,7.16064E-1
5.44738E-1,7.18505E-1
6.29608E-1,6.23687E-1
6.73797E-1,5.85479E-1
7.84576E-1,4.73358E-1
7.39837E-1,3.31665E-1
7.15057E-1,3.22998E-1
7.45971E-1,2.68798E-1
7.40081E-1,2.38922E-1
8.125E-1,1.99127E-1
8.02612E-1,0.79162E-1
7.73254E-1,0.76080E-1
8.45489E-1,0.48278E-1
8.82049E-1,-0.35949E-1
9.53857E-1,-1.33819E-1
9.21234E-1,-3.40637E-1
7.90924E-1,-3.87451E-1
7.98187E-1,-4.21142E-1
7.43743E-1,-5.24475E-1
7.03704E-1,-5.63690E-1
6.57836E-1,-6.81488E-1
5.19928E-1,-7.05871E-1
5.12085E-1,-6.92169E-1
4.68231E-1,-7.83508E-1
3.89007E-1,-8.06518E-1
3.50738E-1,-8.89373E-1
1.73614E-1,-9.51904E-1
0.75561E-1,-8.77533E-1
0.29510E-1,-8.80737E-1
-0.52337E-1,-8.53759E-1
-0.76995E-1,-8.48053E-1
-1.72882E-1,-8.73565E-1
-2.51953E-1,-8.15002E-1
-2.84973E-1,-8.05877E-1
-3.61022E-1,-7.88024E-1
-4.00878E-1,-7.75634E-1
-5.11901E-1,-7.92419E-1
-6.32934E-1,-6.80786E-1
-6.47522E-1,-5.97198E-1
-6.96106E-1,-5.38421E-1
-6.97784E-1,-4.60815E-1
-7.24975E-1,-4.57092E-1
-8.04260E-1,-3.80737E-1
-7.96966E-1,-2.98034E-1
-8.25744E-1,-2.67486E-1
-8.60595E-1,-1.93176E-1
-8.92395E-1,-1.42639E-1
-9.54315E-1,-0.31341E-1
-9.14093E-1,1.00219E-1
-8.86444E-1,1.61651E-1
-8.52081E-1,2.55920E-1
-7.91320E-1,2.95776E-1
-7.86926E-1,3.40271E-1
-7.44995E-1,4.05365E-1
-7.21801E-1,4.32586E-1
-7.07702E-1,5.01709E-1
-6.60186E-1,5.46752E-1
-6.56829E-1,5.97991E-1
-6.14959E-1,6.97021E-1
-3.6203E-1,8.64898E-1
-2.53295E-1,8.79760E-1
-3.44818E-1,8.40362E-1
-3.10211E-1,8.38928E-1
-2.42675E-1,9.02923E-1
-1.41693E-1,8.99810E-1
-0.93505E-1,9.09301E-1
-0.07354E-1,9.22943E-1
0.43945E-1,9.11132E-1
1.15295E-1,9.62677E-1
2.57995E-1,9.55474E-1
3.42742E-1,9.02252E-1
4.31427E-1,8.63342E-1
4.90844E-1,7.85308E-1
5.28167E-1,7.55462E-1
6.06140E-1,7.02728E-1
6.33300E-1,6.39038E-1
6.79901E-1,6.18804E-1
7.42187E-1,5.64331E-1
7.79022E-1,5.18859E-1
8.53118E-1,4.70916E-1
9.06616E-1,3.77868E-1
9.47204E-1,3.01666E-1
1.00286E0,1.92443E-1
9.88769E-1,0.65734E-1
9.71649E-1,-0.09216E-1
9.65118E-1,-0.98999E-1
9.37072E-1,-1.80786E-1
9.16503E-1,-2.63549E-1
8.68835E-1,-3.46832E-1
8.27331E-1,-3.87847E-1
8.14025E-1,-4.49310E-1
7.78167E-1,-5.25878E-1
7.26745E-1,-5.9552E-1
6.64215E-1,-6.67511E-1
5.87188E-1,-7.14660E-1
5.26458E-1,-7.55584E-1
4.49920E-1,-8.03558E-1
3.65631E-1,-8.15521E-1
3.00903E-1,-8.25866E-1
2.29217E-1,-8.38623E-1
1.61529E-1,-8.39660E-1
0.98724E-1,-8.45123E-1
0.30456E-1,-8.43017E-1
-0.23803E-1,-8.28521E-1
-0.71044E-1,-8.32031E-1
-1.42395E-1,-8.3255E-1
-2.18231E-1,-8.20282E-1
-2.98309E-1,-7.87963E-1
-3.52264E-1,-7.40234E-1
-3.86657E-1,-7.13409E-1
-4.37439E-1,-6.86462E-1
-4.89166E-1,-6.48315E-1
-5.37292E-1,-6.04095E-1
-5.72784E-1,-5.50567E-1
-5.94940E-1,-5.12298E-1
-6.36444E-1,-4.89624E-1
-6.84356E-1,-4.40429E-1
-7.19421E-1,-3.89221E-1
-7.57995E-1,-3.25195E-1
-7.73681E-1,-2.53784E-1
-7.87170E-1,-1.99371E-1
-8.01178E-1,-1.35894E-1
-8.07434E-1,-0.75714E-1
-8.13446E-1,-0.06042E-1
-7.94555E-1,0.59143E-1
-7.72399E-1,1.06140E-1
-7.70202E-1,1.37359E-1
-7.82074E-1,1.91162E-1
-7.84454E-1,2.56408E-1
-7.69500E-1,3.37585E-1
-7.27111E-1,4.01458E-1
-6.90612E-1,4.37744E-1
-6.78466E-1,4.87762E-1
-6.42761E-1,5.5896E-1
-5.87341E-1,6.17126E-1
-5.35339E-1,6.56311E-1
-4.84405E-1,6.86187E-1
-4.53613E-1,7.21008E-1
-4.06829E-1,7.82806E-1
-3.40148E-1,8.25897E-1
-2.65167E-1,8.66790E-1
-1.78100E-1,8.91204E-1
-1.06689E-1,9.02221E-1
-0.33783E-1,9.18182E-1
0.56579E-1,9.21783E-1
1.41296E-1,9.06097E-1
2.19512E-1,8.78631E-1
2.88024E-1,8.46008E-1
3.31176E-1,8.17535E-1
4.00207E-1,8.11370E-1
4.68933E-1,7.80151E-1
5.39337E-1,7.41790E-1
6.02661E-1,6.78894E-1
6.41449E-1,6.24481E-1
6.99127E-1,5.83496E-1
7.48626E-1,5.14587E-1
7.89215E-1,4.54620E-1
8.23730E-1,3.82171E-1
8.39508E-1,3.14056E-1
8.61267E-1,2.57690E-1
8.87085E-1,1.71386E-1
8.89923E-1,1.09314E-1
9.10736E-1,0.30944E-1
8.94409E-1,-0.46691E-1
8.96698E-1,-1.02233E-1
8.86718E-1,-1.94427E-1
8.38409E-1,-2.50488E-1
8.31756E-1,-3.05847E-1
7.9776E-1,-3.77807E-1
7.85827E-1,-4.24224E-1
7.67150E-1,-5.13549E-1
6.91345E-1,-5.84289E-1
6.50116E-1,-6.14593E-1
5.89355E-1,-6.79840E-1
5.31341E-1,-6.92535E-1
5.10070E-1,-7.61230E-1
4.01245E-1,-8.28033E-1
3.27636E-1,-8.07098E-1
END
BEGIN
-8.16467E-1,0.35675E-1
-8.40698E-1,1.01715E-1
-7.76916E-1,2.22045E-1
-7.29217E-1,2.05749E-1
-8.00567E-1,2.71484E-1
-7.47009E-1,3.98803E-1
-7.19177E-1,4.46228E-1
-6.62353E-1,5.65490E-1
-5.59539E-1,5.66345E-1
-5.94635E-1,5.88317E-1
-5.39520E-1,7.24426E-1
-4.40460E-1,7.63122E-1
-3.50708E-1,8.30535E-1
-2.17010E-1,8.11462E-1
-2.12677E-1,7.89154E-1
-1.47857E-1,8.80004E-1
-0.29083E-1,8.75183E-1
0.50659E-1,8.96331E-1
2.03094E-1,8.46099E-1
2.09686E-1,7.44079E-1
2.19665E-1,7.87902E-1
3.33313E-1,7.77893E-1
3.78723E-1,7.51953E-1
4.97192E-1,7.33215E-1
5.41046E-1,6.13922E-1
5.28533E-1,6.09375E-1
6.25335E-1,5.98144E-1
6.79046E-1,5.30120E-1
7.67181E-1,4.86053E-1
8.19366E-1,3.33313E-1
7.63519E-1,2.71820E-1
8.06823E-1,2.61108E-1
8.44329E-1,1.90002E-1
9.04541E-1,1.34857E-1
9.39483E-1,-0.42297E-1
8.20800E-1,-1.32049E-1
8.14636E-1,-1.20819E-1
8.42987E-1,-1.92138E-1
8.59314E-1,-2.59277E-1
8.74054E-1,-4.19006E-1
7.15148E-1,-5.26123E-1
6.49597E-1,-4.85382E-1
6.56066E-1,-5.26702E-1
6.34033E-1,-5.75897E-1
6.40533E-1,-6.87042E-1
4.86419E-1,-8.16711E-1
3.69812E-1,-7.59307E-1
3.62793E-1,-7.68371E-1
3.07861E-1,-8.02612E-1
2.88482E-1,-8.55255E-1
1.48712E-1,-9.70459E-1
-0.20965E-1,-8.98712E-1
-0.41442E-1,-8.43383E-1
-0.94116E-1,-8.45581E-1
-1.19293E-1,-8.37341E-1
-1.99340E-1,-9.12200E-1
-3.81073E-1,-8.55041E-1
-4.08996E-1,-7.44873E-1
-4.38659E-1,-7.23968E-1
-4.69879E-1,-6.86248E-1
-5.11779E-1,-7.20001E-1
-6.75476E-1,-6.76391E-1
-7.08129E-1,-5.27465E-1
-7.01965E-1,-4.76562E-1
-7.22900E-1,-4.18243E-1
-7.24395E-1,-4.10644E-1
-8.42407E-1,-4.01733E-1
-9.10095E-1,-2.35290E-1
-8.59924E-1,-1.51886E-1
-8.66546E-1,-1.02356E-1
-8.56292E-1,-0.55511E-1
-9.17144E-1,-0.29968E-1
-9.79400E-1,1.29974E-1
-8.94622E-1,2.53418E-1
-8.55438E-1,2.96051E-1
-8.17627E-1,3.62609E-1
-7.95562E-1,3.87786E-1
-8.19183E-1,4.82849E-1
-7.39105E-1,6.06414E-1
-6.51916E-1,6.45629E-1
-5.87493E-1,6.83075E-1
-5.39825E-1,6.91894E-1
-5.37323E-1,7.47314E-1
-4.46350E-1,8.4729E-1
-3.42254E-1,8.58215E-1
-2.68737E-1,8.85894E-1
-1.70166E-1,8.78356E-1
-1.43585E-1,8.59314E-1
-0.99426E-1,9.20593E-1
0.15747E-1,9.38293E-1
0.95825E-1,9.25689E-1
1.92596E-1,9.06860E-1
2.44506E-1,8.57391E-1
2.80120E-1,8.70910E-1
3.83789E-1,8.76922E-1
4.74731E-1,8.35174E-1
5.71441E-1,7.80242E-1
6.18225E-1,6.78955E-1
6.20910E-1,6.47949E-1
7.01934E-1,6.32843E-1
7.77465E-1,5.53436E-1
8.32885E-1,4.78424E-1
8.69934E-1,3.66851E-1
8.47351E-1,3.00750E-1
8.85406E-1,2.72430E-1
9.30114E-1,1.84509E-1
9.44274E-1,1.04858E-1
9.64660E-1,-0.07049E-1
9.08142E-1,-1.05682E-1
8.89190E-1,-1.33789E-1
9.10614E-1,-2.12371E-1
8.92395E-1,-2.99804E-1
8.71124E-1,-3.99505E-1
7.76092E-1,-4.90905E-1
7.10083E-1,-4.95849E-1
7.04834E-1,-5.39550E-1
6.65588E-1,-6.15814E-1
6.12915E-1,-6.90673E-1
5.08270E-1,-7.51403E-1
4.25079E-1,-7.34893E-1
4.0271E-1,-7.35443E-1
3.65997E-1,-7.84576E-1
2.96112E-1,-8.32977E-1
1.94305E-1,-8.72436E-1
0.92376E-1,-8.40728E-1
0.63201E-1,-8.11248E-1
0.32836E-1,-8.30108E-1
-0.35736E-1,-8.57177E-1
-1.34246E-1,-8.64288E-1
-2.36938E-1,-8.06976E-1
-2.60620E-1,-7.48352E-1
-2.76062E-1,-7.45147E-1
-3.33679E-1,-7.60559E-1
-4.2276E-1,-7.41302E-1
-4.98291E-1,-6.76025E-1
-5.25360E-1,-6.10748E-1
-5.46051E-1,-5.74310E-1
-5.79925E-1,-5.58654E-1
-6.42822E-1,-5.30639E-1
-7.02423E-1,-4.62677E-1
-7.25158E-1,-3.82873E-1
-7.34069E-1,-3.24890E-1
-7.41638E-1,-2.86315E-1
-7.78686E-1,-2.58178E-1
-8.21319E-1,-1.89666E-1
-8.29711E-1,-1.07818E-1
-8.25317E-1,-0.41809E-1
-8.18389E-1,0.16784E-1
-8.34014E-1,0.58044E-1
-8.64074E-1,1.40441E-1
-8.46099E-1,2.32971E-1
-8.00659E-1,2.99102E-1
-7.61535E-1,3.49029E-1
-7.34314E-1,3.82019E-1
-7.41638E-1,4.48608E-1
-7.01934E-1,5.40985E-1
-6.44409E-1,5.99456E-1
-5.89294E-1,6.44989E-1
-5.26489E-1,6.73553E-1
-4.92065E-1,7.0755E-1
-4.25842E-1,7.79846E-1
-3.36975E-1,8.08410E-1
-2.77343E-1,8.25042E-1
-2.05688E-1,8.39996E-1
-1.56524E-1,8.28765E-1
-1.12182E-1,8.59466E-1
-0.19073E-1,8.72222E-1
0.48553E-1,8.60931E-1
1.18347E-1,8.61389E-1
1.80023E-1,8.38073E-1
2.25219E-1,8.33953E-1
3.07098E-1,8.2724E-1
3.75946E-1,7.89642E-1
4.41894E-1,7.59948E-1
5.03234E-1,7.14080E-1
5.41534E-1,6.75659E-1
5.99914E-1,6.51184E-1
6.56707E-1,5.89080E-1
6.95465E-1,5.36804E-1
7.43896E-1,4.80468E-1
7.82165E-1,4.15466E-1
8.10791E-1,3.63708E-1
8.48510E-1,2.96325E-1
8.62640E-1,2.27142E-1
8.85681E-1,1.57989E-1
8.99810E-1,0.76812E-1
8.97888E-1,-0.00946E-1
9.02038E-1,-0.67504E-1
8.89190E-1,-1.40472E-1
8.73962E-1,-1.99585E-1
8.58306E-1,-2.68585E-1
8.38256E-1,-3.51989E-1
7.99987E-1,-4.20898E-1
7.68920E-1,-4.87670E-1
7.24121E-1,-5.44311E-1
6.84600E-1,-5.87249E-1
6.51794E-1,-6.45385E-1
5.79467E-1,-7.14813E-1
5.04730E-1,-7.62023E-1
4.26513E-1,-7.91076E-1
3.74115E-1,-8.00994E-1
END
BEGIN
-4.42062E-1,-1.6008E-1
-4.66339E-1,-1.10443E-1
-4.80972E-1,-0.59967E-1
-4.89807E-1,-0.20294E-1
-4.96398E-1,0.38864E-1
-4.87014E-1,0.95657E-1
-4.80835E-1,1.60278E-1
-4.63226E-1,2.13882E-1
-4.51660E-1,2.64724E-1
-4.26452E-1,3.12164E-1
-3.96118E-1,3.49853E-1
-3.57666E-1,3.93188E-1
-3.15002E-1,4.28344E-1
-2.7388E-1,4.71084E-1
-2.26882E-1,4.96063E-1
-1.76666E-1,5.16784E-1
-1.21643E-1,5.34759E-1
-0.61706E-1,5.44891E-1
-0.08819E-1,5.56182E-1
0.51116E-1,5.51208E-1
0.98938E-1,5.41534E-1
1.48101E-1,5.24963E-1
1.99493E-1,5.04303E-1
2.56210E-1,4.69818E-1
3.02673E-1,4.32067E-1
3.42117E-1,4.01977E-1
3.79898E-1,3.54873E-1
4.10186E-1,3.07739E-1
4.40673E-1,2.40081E-1
4.54513E-1,1.89285E-1
4.78027E-1,1.36459E-1
4.89456E-1,0.80047E-1
4.87503E-1,0.36697E-1
4.80728E-1,-0.13702E-1
4.64721E-1,-0.51086E-1
4.56466E-1,-1.11511E-1
4.26803E-1,-1.57074E-1
4.02893E-1,-1.90033E-1
3.84323E-1,-2.25357E-1
3.36578E-1,-2.65274E-1
2.95059E-1,-2.90084E-1
2.54028E-1,-3.12057E-1
2.11074E-1,-3.36502E-1
1.7659E-1,-3.50341E-1
1.27807E-1,-3.73931E-1
0.85998E-1,-3.68515E-1
0.45166E-1,-3.67538E-1
0.05584E-1,-3.65570E-1
-0.32669E-1,-3.50524E-1
-0.68237E-1,-3.51470E-1
-1.28418E-1,-3.17276E-1
-1.50009E-1,-2.93335E-1
-1.82724E-1,-2.85949E-1
-2.17498E-1,-2.63855E-1
-2.39242E-1,-2.44033E-1
-2.71652E-1,-2.11578E-1
-2.79251E-1,-1.77398E-1
-2.97226E-1,-1.53701E-1
-3.16268E-1,-1.17095E-1
-3.15734E-1,-0.82153E-1
-3.31131E-1,-0.57693E-1
-3.28109E-1,0.00625E-1
-3.11706E-1,0.28915E-1
-3.22296E-1,0.59570E-1
-3.15002E-1,1.03775E-1
-3.09036E-1,1.32278E-1
-2.99911E-1,1.78421E-1
-2.80151E-1,1.97006E-1
-2.70309E-1,2.20962E-1
-2.40921E-1,2.44812E-1
-2.08396E-1,2.48985E-1
-1.86981E-1,2.82379E-1
-1.30630E-1,3.03741E-1
-1.02157E-1,3.09860E-1
-0.73532E-1,3.32199E-1
-0.32577E-1,3.33374E-1
0.03524E-1,3.36547E-1
0.56167E-1,3.31909E-1
0.89706E-1,3.28613E-1
1.22970E-1,3.35998E-1
1.56906E-1,3.27148E-1
1.74636E-1,3.01223E-1
2.02026E-1,2.99682E-1
2.38998E-1,2.42507E-1
2.57705E-1,2.17178E-1
2.93075E-1,1.85668E-1
3.05267E-1,1.48147E-1
3.16085E-1,1.25564E-1
3.28735E-1,0.80093E-1
3.33633E-1,0.40435E-1
3.44329E-1,0.05340E-1
3.45626E-1,-0.30715E-1
3.27087E-1,-0.52597E-1
3.21762E-1,-0.79177E-1
3.03390E-1,-1.21688E-1
2.83325E-1,-1.62704E-1
2.60314E-1,-2.01950E-1
2.30514E-1,-2.23403E-1
2.10441E-1,-2.45140E-1
1.71356E-1,-2.71148E-1
1.41006E-1,-2.92831E-1
1.21627E-1,-3.22158E-1
0.96496E-1,-3.4729E-1
0.75683E-1,-3.40286E-1
0.58456E-1,-3.36898E-1
0.21759E-1,-3.34030E-1
-0.17669E-1,-3.40072E-1
-0.72570E-1,-3.47717E-1
-1.02752E-1,-3.27423E-1
-1.09695E-1,-3.23684E-1
-1.41677E-1,-3.12042E-1
-1.73767E-1,-2.89520E-1
-2.17559E-1,-2.74856E-1
-2.50427E-1,-2.51800E-1
-2.56805E-1,-2.45178E-1
-2.71987E-1,-2.42416E-1
-2.84072E-1,-2.19802E-1
-3.02780E-1,-1.94549E-1
-3.20327E-1,-1.48345E-1
-3.13720E-1,-1.22161E-1
-3.28094E-1,-1.19232E-1
-3.48831E-1,-0.9552E-1
-3.62884E-1,-0.68298E-1
-3.73336E-1,-0.29434E-1
-3.67492E-1,-0.06057E-1
-3.77716E-1,0.02533E-1
-3.93234E-1,0.22155E-1
-4.02694E-1,0.50003E-1
-4.02862E-1,0.80535E-1
-3.87039E-1,1.05361E-1
-3.81637E-1,1.12701E-1
-3.88198E-1,1.33926E-1
-3.90457E-1,1.71295E-1
-3.79760E-1,2.11990E-1
-3.62228E-1,2.37350E-1
-3.58825E-1,2.56134E-1
-3.50006E-1,2.85644E-1
-3.41262E-1,3.13903E-1
-3.27987E-1,3.53546E-1
-3.07418E-1,3.77868E-1
-2.96676E-1,3.87237E-1
-2.80975E-1,4.02557E-1
-2.56164E-1,4.12231E-1
-2.34497E-1,4.37667E-1
-1.95465E-1,4.70291E-1
-1.63909E-1,4.80880E-1
-1.43234E-1,4.92294E-1
-1.05026E-1,4.97268E-1
-0.65460E-1,5.09613E-1
0.02807E-1,5.31158E-1
0.47699E-1,5.27740E-1
0.60913E-1,5.39856E-1
0.86486E-1,5.48309E-1
1.09832E-1,5.29602E-1
1.50146E-1,5.26123E-1
2.09014E-1,5.00305E-1
2.42172E-1,4.86343E-1
2.77130E-1,4.84207E-1
3.09509E-1,4.53201E-1
3.33908E-1,4.21310E-1
3.85711E-1,3.76663E-1
4.18823E-1,3.33419E-1
4.55688E-1,3.20983E-1
4.99633E-1,2.92709E-1
4.95361E-1,2.51602E-1
5.02533E-1,2.33001E-1
5.26489E-1,1.75354E-1
5.30212E-1,1.27197E-1
5.50140E-1,0.90332E-1
5.30731E-1,0.34210E-1
5.00427E-1,0.16418E-1
4.96307E-1,-0.37826E-1
4.68673E-1,-1.04034E-1
4.61578E-1,-1.57257E-1
4.42642E-1,-2.16491E-1
4.04800E-1,-2.22366E-1
4.02206E-1,-2.36785E-1
3.56918E-1,-2.82577E-1
3.08914E-1,-3.10577E-1
2.72247E-1,-3.52111E-1
2.25448E-1,-3.56582E-1
2.21740E-1,-3.46252E-1
1.79580E-1,-3.61160E-1
1.12518E-1,-3.50479E-1
0.55801E-1,-3.66485E-1
-0.15731E-1,-3.71688E-1
-0.23407E-1,-3.54415E-1
-0.37368E-1,-3.72772E-1
-0.78079E-1,-3.42376E-1
-1.02386E-1,-3.23394E-1
-1.67831E-1,-3.16162E-1
-1.94595E-1,-2.77969E-1
-1.87683E-1,-2.79464E-1
-2.03353E-1,-2.53707E-1
-2.03643E-1,-2.10250E-1
-2.50427E-1,-1.76803E-1
-2.90710E-1,-1.08551E-1
-2.77267E-1,-1.02340E-1
-2.94174E-1,-0.99792E-1
-2.76123E-1,-0.70678E-1
-2.92999E-1,-0.46463E-1
END
