CITIFILE A.01.01
#NA VERSION HP8510C.08.10
NAME DATA
#NA REGISTER 4
VAR FREQ MAG 201
DATA S[1,1] RI
DATA S[2,1] RI
DATA S[1,2] RI
DATA S[2,2] RI
SEG_LIST_BEGIN
SEG 8000000000 12000000000 201
SEG_LIST_END
COMMENT       YEAR MONTH DAY HOUR MINUTE SECONDS
CONSTANT TIME 2013   12   09  20    44    37.0
BEGIN
-6.95159E-1,-1.80969E-1
-7.10907E-1,-1.09466E-1
-7.19818E-1,-0.27496E-1
-7.24365E-1,0.47180E-1
-7.14843E-1,1.26861E-1
-6.97021E-1,1.98059E-1
-6.73278E-1,2.68524E-1
-6.49231E-1,3.35205E-1
-6.08978E-1,4.08416E-1
-5.62835E-1,4.68170E-1
-5.14495E-1,5.23651E-1
-4.57000E-1,5.69671E-1
-4.00451E-1,6.16973E-1
-3.23059E-1,6.57653E-1
-2.57080E-1,6.83380E-1
-1.86126E-1,7.06970E-1
-1.13403E-1,7.1521E-1
-0.44555E-1,7.23480E-1
0.38147E-1,7.25738E-1
1.0672E-1,7.05535E-1
1.78436E-1,6.93206E-1
2.44232E-1,6.65588E-1
3.04595E-1,6.37756E-1
3.63830E-1,6.00677E-1
4.11956E-1,5.59356E-1
4.70489E-1,5.17181E-1
5.15045E-1,4.61883E-1
5.55236E-1,4.09271E-1
5.85907E-1,3.47229E-1
6.14898E-1,2.91351E-1
6.35589E-1,2.24975E-1
6.42852E-1,1.57897E-1
6.50451E-1,0.99243E-1
6.49536E-1,0.37139E-1
6.53198E-1,-0.21850E-1
6.33117E-1,-0.86883E-1
6.19354E-1,-1.36718E-1
6.10199E-1,-1.93176E-1
5.88836E-1,-2.60742E-1
5.50537E-1,-3.06762E-1
5.19744E-1,-3.54278E-1
4.87106E-1,-4.01153E-1
4.43634E-1,-4.42504E-1
4.00268E-1,-4.88876E-1
3.39691E-1,-5.16296E-1
2.99377E-1,-5.44708E-1
2.46276E-1,-5.65185E-1
1.93115E-1,-5.83007E-1
1.42761E-1,-6.00952E-1
0.72723E-1,-6.13922E-1
0.26641E-1,-6.02539E-1
-0.23956E-1,-6.12548E-1
-0.84045E-1,-6.07391E-1
-1.36718E-1,-5.94329E-1
-1.92352E-1,-5.78857E-1
-2.40478E-1,-5.55725E-1
-2.92816E-1,-5.41473E-1
-3.39172E-1,-5.07293E-1
-3.77227E-1,-4.74807E-1
-4.15115E-1,-4.43588E-1
-4.62417E-1,-3.99810E-1
-4.90585E-1,-3.60321E-1
-5.23101E-1,-3.20831E-1
-5.50903E-1,-2.74322E-1
-5.69671E-1,-2.24639E-1
-5.88867E-1,-1.73828E-1
-6.02783E-1,-1.22192E-1
-6.23870E-1,-0.63629E-1
-6.19201E-1,-0.09002E-1
-6.16210E-1,0.40435E-1
-6.10778E-1,0.89843E-1
-5.98693E-1,1.52221E-1
-5.81390E-1,2.06176E-1
-5.63018E-1,2.48657E-1
-5.45440E-1,2.96020E-1
-5.17089E-1,3.46344E-1
-4.78744E-1,3.92883E-1
-4.44091E-1,4.37194E-1
-3.98025E-1,4.88815E-1
-3.48877E-1,5.21606E-1
-2.93182E-1,5.49072E-1
-2.39135E-1,5.61370E-1
-1.81732E-1,5.86608E-1
-1.10900E-1,5.99426E-1
-0.59845E-1,6.03698E-1
-0.02380E-1,6.06658E-1
0.55389E-1,5.92407E-1
1.16912E-1,5.82122E-1
1.81427E-1,5.62927E-1
2.45147E-1,5.35553E-1
2.97210E-1,5.05615E-1
3.42163E-1,4.62341E-1
3.74725E-1,4.19632E-1
4.18945E-1,3.67599E-1
4.53613E-1,3.08334E-1
4.75891E-1,2.54394E-1
4.96215E-1,2.06955E-1
5.11962E-1,1.53015E-1
5.17974E-1,0.82153E-1
5.14770E-1,0.21789E-1
5.12390E-1,-0.44158E-1
5.02288E-1,-1.05133E-1
4.76470E-1,-1.68060E-1
4.39117E-1,-2.15011E-1
4.00451E-1,-2.61871E-1
3.54919E-1,-3.07907E-1
3.11767E-1,-3.42193E-1
2.72354E-1,-3.67950E-1
2.30850E-1,-3.88534E-1
1.78405E-1,-4.08508E-1
1.25091E-1,-4.1922E-1
0.75622E-1,-4.29733E-1
0.35141E-1,-4.38507E-1
-0.15304E-1,-4.43313E-1
-0.63461E-1,-4.29931E-1
-1.09252E-1,-4.10797E-1
-1.54678E-1,-3.91983E-1
-1.93908E-1,-3.76083E-1
-2.26257E-1,-3.64425E-1
-2.56668E-1,-3.49029E-1
-2.92358E-1,-3.16162E-1
-3.19549E-1,-2.79815E-1
-3.48236E-1,-2.45971E-1
-3.77594E-1,-2.22381E-1
-4.03793E-1,-1.90658E-1
-4.16824E-1,-1.49063E-1
-4.18792E-1,-1.04629E-1
-4.22683E-1,-0.61859E-1
-4.33639E-1,-0.23910E-1
-4.41177E-1,0.11505E-1
-4.39071E-1,0.42617E-1
-4.25888E-1,0.76721E-1
-4.11178E-1,1.11465E-1
-3.99276E-1,1.53656E-1
-3.91738E-1,1.90582E-1
-3.79348E-1,2.19924E-1
-3.54812E-1,2.41210E-1
-3.26568E-1,2.58789E-1
-2.98156E-1,2.88223E-1
-2.67227E-1,3.17794E-1
-2.42935E-1,3.34518E-1
-2.20626E-1,3.42010E-1
-1.95663E-1,3.40637E-1
-1.60705E-1,3.48083E-1
-1.18835E-1,3.53439E-1
-0.92285E-1,3.62487E-1
-0.69564E-1,3.69003E-1
-0.53314E-1,3.59252E-1
-0.32623E-1,3.49578E-1
0.03585E-1,3.39386E-1
0.39672E-1,3.28659E-1
0.65322E-1,3.20953E-1
0.76919E-1,3.08624E-1
0.78582E-1,2.91305E-1
0.89553E-1,2.67562E-1
1.06178E-1,2.42614E-1
1.19720E-1,2.24792E-1
1.27151E-1,2.16354E-1
1.23519E-1,2.10929E-1
1.20811E-1,1.98242E-1
1.20262E-1,1.73217E-1
1.21360E-1,1.47216E-1
1.21040E-1,1.34109E-1
1.15036E-1,1.31446E-1
1.01593E-1,1.37260E-1
0.89912E-1,1.38374E-1
0.79238E-1,1.34201E-1
0.79841E-1,1.34941E-1
0.89256E-1,1.39755E-1
0.98831E-1,1.53877E-1
1.10382E-1,1.65931E-1
1.12518E-1,1.64375E-1
1.16821E-1,1.61529E-1
1.31286E-1,1.51229E-1
1.48460E-1,1.47842E-1
1.72668E-1,1.50817E-1
1.85485E-1,1.48925E-1
1.93450E-1,1.49650E-1
2.06497E-1,1.30806E-1
2.21405E-1,1.07727E-1
2.48733E-1,0.85594E-1
2.70523E-1,0.61004E-1
2.78320E-1,0.49469E-1
2.82150E-1,0.27145E-1
2.71820E-1,-0.04867E-1
2.65884E-1,-0.38848E-1
2.69332E-1,-0.70404E-1
2.7211E-1,-0.92330E-1
2.74353E-1,-1.06918E-1
2.62283E-1,-1.26098E-1
2.44239E-1,-1.52885E-1
2.29209E-1,-1.92863E-1
2.16903E-1,-2.33139E-1
2.06359E-1,-2.60650E-1
1.86340E-1,-2.81066E-1
1.44271E-1,-2.94494E-1
0.95855E-1,-3.10501E-1
0.49850E-1,-3.31451E-1
0.17105E-1,-3.44162E-1
-0.04745E-1,-3.48388E-1
-0.37475E-1,-3.37234E-1
END
BEGIN
-5.70343E-1,3.79180E-1
-4.97253E-1,3.71276E-1
-5.10955E-1,4.3396E-1
-4.14032E-1,5.12359E-1
-3.59375E-1,5.21148E-1
-2.73040E-1,5.67627E-1
-2.03521E-1,5.11352E-1
-2.40570E-1,5.10101E-1
-2.00927E-1,5.89935E-1
-1.4505E-1,6.07177E-1
-0.73638E-1,6.60766E-1
0.21972E-1,6.15661E-1
-0.03082E-1,6.15600E-1
0.87493E-1,7.14660E-1
2.14416E-1,6.65283E-1
2.71148E-1,6.52832E-1
3.76647E-1,5.82275E-1
3.55835E-1,5.17578E-1
4.04174E-1,5.71960E-1
5.25604E-1,5.10742E-1
5.70129E-1,4.56543E-1
6.69891E-1,3.64471E-1
6.38458E-1,2.34985E-1
6.38793E-1,2.29644E-1
6.94732E-1,1.31286E-1
6.50970E-1,0.57159E-1
6.76116E-1,-0.00061E-1
6.06079E-1,-1.04888E-1
5.42541E-1,-0.69824E-1
5.94116E-1,-0.72479E-1
5.95031E-1,-1.26403E-1
6.32568E-1,-1.53350E-1
6.36749E-1,-2.76855E-1
5.65704E-1,-2.96875E-1
6.23168E-1,-3.22357E-1
6.20636E-1,-4.68444E-1
5.61798E-1,-5.62103E-1
4.48303E-1,-6.99035E-1
2.6828E-1,-6.54846E-1
2.76550E-1,-6.01165E-1
2.38555E-1,-6.78741E-1
1.53686E-1,-6.69769E-1
1.17919E-1,-7.05963E-1
-0.08270E-1,-6.96075E-1
-0.09246E-1,-6.33270E-1
-0.29052E-1,-7.06939E-1
-1.52648E-1,-7.02179E-1
-1.93115E-1,-6.89056E-1
-3.32305E-1,-6.79382E-1
-3.69537E-1,-5.35430E-1
-3.33129E-1,-5.25756E-1
-3.85498E-1,-5.22674E-1
-3.97476E-1,-4.98779E-1
-4.67834E-1,-5.21514E-1
-5.47058E-1,-4.34631E-1
-5.38543E-1,-3.99200E-1
-6.07421E-1,-3.86779E-1
-6.47399E-1,-3.21807E-1
-7.22930E-1,-2.92236E-1
-7.87933E-1,-1.23687E-1
-6.89361E-1,-0.34118E-1
-6.87988E-1,-0.26397E-1
-6.72210E-1,0.34576E-1
-6.75170E-1,0.23101E-1
-7.61840E-1,1.04217E-1
-7.04162E-1,2.24853E-1
-6.87530E-1,2.34497E-1
-7.11914E-1,3.27697E-1
-6.67846E-1,4.03198E-1
-6.58691E-1,5.08331E-1
-5.15075E-1,6.14990E-1
-4.26055E-1,5.72235E-1
-3.98620E-1,6.02935E-1
-3.20129E-1,5.96923E-1
-3.30993E-1,5.91247E-1
-2.93090E-1,6.61529E-1
-2.36450E-1,6.63970E-1
-2.24212E-1,7.12860E-1
-1.29180E-1,7.60894E-1
-0.86242E-1,7.57415E-1
-0.18768E-1,8.37585E-1
1.30859E-1,8.33740E-1
2.10144E-1,7.95959E-1
3.18389E-1,7.47375E-1
3.32611E-1,6.56677E-1
3.50280E-1,6.85607E-1
4.63470E-1,6.52648E-1
4.80987E-1,5.79559E-1
5.35125E-1,5.81085E-1
5.98663E-1,5.05859E-1
6.14959E-1,4.89227E-1
7.31597E-1,4.52423E-1
7.72186E-1,3.04046E-1
7.55340E-1,2.40173E-1
7.74383E-1,1.56738E-1
7.35321E-1,0.97564E-1
7.55004E-1,0.72296E-1
7.59063E-1,-0.10559E-1
7.35900E-1,-0.36315E-1
7.79785E-1,-0.83068E-1
7.71148E-1,-1.75903E-1
7.66296E-1,-2.19543E-1
7.83477E-1,-3.18115E-1
7.32666E-1,-4.08630E-1
7.11181E-1,-4.78729E-1
6.35253E-1,-5.94512E-1
5.25787E-1,-6.12854E-1
4.89105E-1,-6.32659E-1
4.21142E-1,-6.76605E-1
3.67431E-1,-6.88262E-1
3.10455E-1,-7.29766E-1
2.30163E-1,-7.27539E-1
2.07489E-1,-7.31201E-1
1.53991E-1,-7.78381E-1
0.75988E-1,-7.94128E-1
0.04974E-1,-8.14666E-1
-0.96405E-1,-8.05725E-1
-1.55944E-1,-7.68310E-1
-2.18200E-1,-7.59582E-1
-2.83935E-1,-7.16064E-1
-3.13964E-1,-6.93450E-1
-3.79119E-1,-6.82769E-1
-4.31762E-1,-6.33178E-1
-4.67468E-1,-6.10961E-1
-5.23895E-1,-5.71929E-1
-5.56274E-1,-5.35003E-1
-6.14990E-1,-5.16021E-1
-6.84112E-1,-4.56054E-1
-7.28332E-1,-3.86749E-1
-7.63824E-1,-3.05481E-1
-7.60131E-1,-2.34375E-1
-7.84606E-1,-1.95800E-1
-8.19274E-1,-1.16790E-1
-8.18145E-1,-0.42572E-1
-8.28887E-1,0.26489E-1
-8.11431E-1,1.04126E-1
-8.04351E-1,1.46972E-1
-8.23425E-1,2.26806E-1
-7.93273E-1,3.23547E-1
-7.59857E-1,3.91937E-1
-7.14050E-1,4.69116E-1
-6.56341E-1,5.13855E-1
-6.22375E-1,5.68786E-1
-5.56091E-1,6.27960E-1
-5.01678E-1,6.56097E-1
-4.47723E-1,7.03979E-1
-3.79516E-1,7.26226E-1
-3.43841E-1,7.50183E-1
-2.85400E-1,7.98675E-1
-2.12524E-1,8.28765E-1
-1.35864E-1,8.62823E-1
-0.35827E-1,8.69476E-1
0.33508E-1,8.54309E-1
1.00250E-1,8.58184E-1
1.78772E-1,8.48388E-1
2.55554E-1,8.35266E-1
3.39538E-1,8.03680E-1
3.98803E-1,7.62847E-1
4.60540E-1,7.38647E-1
5.35980E-1,6.98120E-1
5.98724E-1,6.49688E-1
6.66870E-1,5.90423E-1
7.15240E-1,5.16204E-1
7.54730E-1,4.49493E-1
7.92175E-1,3.78753E-1
8.21472E-1,3.06274E-1
8.44848E-1,2.30194E-1
8.58947E-1,1.53991E-1
8.71124E-1,0.75653E-1
8.73260E-1,-0.03173E-1
8.70758E-1,-0.82641E-1
8.56994E-1,-1.65252E-1
8.32153E-1,-2.39532E-1
8.09051E-1,-3.11248E-1
7.73284E-1,-3.86566E-1
7.33398E-1,-4.53186E-1
6.82830E-1,-5.23803E-1
6.20513E-1,-5.74585E-1
5.73272E-1,-6.20117E-1
5.11871E-1,-6.77856E-1
4.39361E-1,-7.16888E-1
3.68225E-1,-7.56134E-1
2.80700E-1,-7.72827E-1
2.15148E-1,-7.74688E-1
1.50451E-1,-7.91595E-1
0.74005E-1,-7.92053E-1
0.08178E-1,-7.90435E-1
-0.68664E-1,-7.80975E-1
-1.28509E-1,-7.54180E-1
-1.83349E-1,-7.39807E-1
-2.50976E-1,-7.17010E-1
-3.05328E-1,-6.84417E-1
-3.65142E-1,-6.54907E-1
-4.15618E-1,-6.09069E-1
-4.57214E-1,-5.71655E-1
-5.06286E-1,-5.30334E-1
-5.48950E-1,-4.79431E-1
-5.85510E-1,-4.23492E-1
-6.12274E-1,-3.64929E-1
-6.38031E-1,-3.12377E-1
-6.63665E-1,-2.50762E-1
END
BEGIN
-5.53619E-1,3.22509E-1
-5.47271E-1,3.99047E-1
-4.30236E-1,4.49127E-1
-4.29092E-1,4.04632E-1
-4.61090E-1,5.23284E-1
-3.38531E-1,5.87066E-1
-3.01788E-1,6.13159E-1
-1.79931E-1,6.68182E-1
-1.26464E-1,5.99914E-1
-1.51336E-1,6.64825E-1
-0.09246E-1,7.35229E-1
0.77819E-1,6.96777E-1
1.85668E-1,6.86492E-1
2.40631E-1,5.81604E-1
2.18231E-1,5.89263E-1
3.34777E-1,6.15783E-1
3.99231E-1,5.34423E-1
4.65393E-1,5.04119E-1
5.06927E-1,3.67675E-1
4.319E-1,3.35693E-1
4.81964E-1,3.78372E-1
5.46386E-1,3.00262E-1
5.61096E-1,2.70782E-1
6.23596E-1,1.81671E-1
5.59753E-1,1.06445E-1
5.68695E-1,1.41601E-1
6.37725E-1,0.75775E-1
6.34216E-1,0.14495E-1
6.74499E-1,-0.70922E-1
5.93048E-1,-1.77032E-1
5.52978E-1,-1.43463E-1
6.05590E-1,-1.79199E-1
6.05224E-1,-2.44323E-1
6.35559E-1,-3.33984E-1
5.23742E-1,-4.70306E-1
4.22927E-1,-4.13986E-1
4.68429E-1,-4.15695E-1
4.5961E-1,-4.98397E-1
4.47601E-1,-5.74523E-1
3.28002E-1,-7.12036E-1
1.65069E-1,-6.34674E-1
1.97784E-1,-5.78033E-1
1.91192E-1,-6.39404E-1
1.59606E-1,-6.83837E-1
0.67993E-1,-8.06182E-1
-1.45690E-1,-7.52777E-1
-1.35742E-1,-6.40655E-1
-1.39923E-1,-6.79443E-1
-1.99707E-1,-6.82739E-1
-2.64160E-1,-7.43957E-1
-4.82635E-1,-6.97662E-1
-4.97192E-1,-5.10192E-1
-4.57946E-1,-5.02136E-1
-5.01647E-1,-4.85076E-1
-5.22308E-1,-4.96826E-1
-6.83746E-1,-4.87274E-1
-7.35046E-1,-2.73132E-1
-6.52618E-1,-2.20336E-1
-6.74377E-1,-2.01293E-1
-6.7276E-1,-1.73889E-1
-7.73651E-1,-1.72699E-1
-8.44024E-1,0.34606E-1
-7.09167E-1,1.30004E-1
-6.83654E-1,1.28601E-1
-6.63269E-1,1.62902E-1
-7.00836E-1,1.54510E-1
-7.94097E-1,3.05175E-1
-6.50146E-1,4.58679E-1
-5.78247E-1,4.32952E-1
-5.60089E-1,4.69451E-1
-5.41870E-1,4.80224E-1
-5.84198E-1,5.86029E-1
-4.32525E-1,7.44781E-1
-2.95074E-1,6.89331E-1
-2.68676E-1,6.83075E-1
-2.18689E-1,6.82739E-1
-2.22198E-1,7.11090E-1
-1.25793E-1,8.12042E-1
0.20935E-1,7.67059E-1
0.58715E-1,7.18994E-1
0.97961E-1,6.94519E-1
1.00006E-1,7.04406E-1
1.85974E-1,7.75695E-1
3.24432E-1,7.10052E-1
3.44726E-1,6.46820E-1
3.99780E-1,6.10687E-1
3.99749E-1,5.56427E-1
4.22546E-1,6.00494E-1
5.55938E-1,5.91430E-1
6.14502E-1,4.89746E-1
6.47949E-1,4.35119E-1
6.57531E-1,3.58581E-1
6.59759E-1,3.55499E-1
7.59765E-1,3.27362E-1
8.21472E-1,2.00134E-1
8.21777E-1,0.95336E-1
7.83721E-1,-0.04760E-1
7.36389E-1,-0.07720E-1
8.05633E-1,-0.28717E-1
8.37402E-1,-1.69952E-1
7.78625E-1,-2.7005E-1
7.27233E-1,-3.50463E-1
6.51855E-1,-3.71429E-1
6.75109E-1,-3.81012E-1
6.76910E-1,-4.96246E-1
5.92285E-1,-5.67901E-1
5.38787E-1,-6.26098E-1
4.25628E-1,-6.63208E-1
3.89099E-1,-6.30249E-1
3.91845E-1,-6.92382E-1
3.05175E-1,-7.65136E-1
2.15026E-1,-7.88269E-1
1.02905E-1,-7.84729E-1
0.57189E-1,-7.17529E-1
0.62194E-1,-7.38220E-1
-0.11383E-1,-7.88726E-1
-1.04858E-1,-7.89733E-1
-2.03369E-1,-7.68859E-1
-2.61993E-1,-6.87927E-1
-2.51464E-1,-6.67480E-1
-2.97515E-1,-6.98303E-1
-3.83606E-1,-6.90368E-1
-4.75128E-1,-6.52221E-1
-5.39123E-1,-5.56243E-1
-5.24841E-1,-4.97985E-1
-5.51879E-1,-5.01953E-1
-6.16088E-1,-4.76074E-1
-6.85119E-1,-4.26727E-1
-7.38586E-1,-3.23883E-1
-7.07885E-1,-2.38159E-1
-7.05841E-1,-2.28149E-1
-7.54486E-1,-1.94580E-1
-8.01330E-1,-1.28051E-1
-8.28155E-1,-0.29663E-1
-7.94433E-1,0.58441E-1
-7.75543E-1,0.93261E-1
-7.88238E-1,1.48590E-1
-7.88726E-1,2.19787E-1
-7.88818E-1,3.04321E-1
-7.45452E-1,3.97399E-1
-6.93908E-1,4.43573E-1
-6.69494E-1,4.92645E-1
-6.33667E-1,5.53741E-1
-5.95123E-1,6.21246E-1
-5.25787E-1,6.93512E-1
-4.51080E-1,7.29644E-1
-3.98986E-1,7.65472E-1
-3.34869E-1,8.05816E-1
-2.67211E-1,8.42468E-1
-1.75018E-1,8.78875E-1
-0.77789E-1,8.76434E-1
-0.10742E-1,8.70300E-1
0.62011E-1,8.79821E-1
1.43005E-1,8.78173E-1
2.32086E-1,8.64929E-1
3.17291E-1,8.24737E-1
3.81042E-1,7.84637E-1
4.48150E-1,7.50671E-1
5.15655E-1,7.09381E-1
5.79254E-1,6.61315E-1
6.38610E-1,6.02172E-1
6.82189E-1,5.39703E-1
7.27111E-1,4.78820E-1
7.65655E-1,4.11926E-1
8.02154E-1,3.42590E-1
8.29620E-1,2.68707E-1
8.46984E-1,1.94549E-1
8.61785E-1,1.18499E-1
8.67645E-1,0.37292E-1
8.64166E-1,-0.43029E-1
8.50189E-1,-1.16088E-1
8.41888E-1,-1.86889E-1
8.25744E-1,-2.67517E-1
7.94982E-1,-3.47747E-1
7.49694E-1,-4.23156E-1
6.93817E-1,-4.77386E-1
6.58813E-1,-5.27008E-1
6.15753E-1,-5.93627E-1
5.51605E-1,-6.55487E-1
4.75463E-1,-7.04467E-1
3.91723E-1,-7.28393E-1
3.38134E-1,-7.39898E-1
2.79022E-1,-7.77557E-1
1.98944E-1,-8.01208E-1
1.16607E-1,-8.14422E-1
0.28259E-1,-8.04138E-1
-0.34118E-1,-7.76123E-1
-0.89447E-1,-7.72277E-1
-1.59301E-1,-7.58880E-1
-2.23358E-1,-7.40356E-1
-2.94860E-1,-7.12554E-1
-3.50555E-1,-6.63238E-1
-3.90167E-1,-6.26464E-1
-4.41345E-1,-5.91583E-1
-4.89257E-1,-5.51422E-1
-5.40466E-1,-5.06408E-1
-5.79681E-1,-4.48516E-1
-6.08367E-1,-3.93371E-1
-6.37847E-1,-3.34167E-1
-6.57104E-1,-2.67852E-1
-6.68792E-1,-1.99768E-1
END
BEGIN
-6.71569E-1,3.18603E-1
-6.32324E-1,3.94653E-1
-5.7901E-1,4.73327E-1
-5.22522E-1,5.42022E-1
-4.47174E-1,6.03637E-1
-3.68682E-1,6.48529E-1
-2.88543E-1,6.88385E-1
-2.09014E-1,7.21832E-1
-1.16546E-1,7.41272E-1
-0.28656E-1,7.44812E-1
0.57403E-1,7.42584E-1
1.42028E-1,7.25647E-1
2.25952E-1,7.06207E-1
3.15338E-1,6.63970E-1
3.83575E-1,6.18164E-1
4.52758E-1,5.66894E-1
5.09765E-1,5.04730E-1
5.62774E-1,4.44122E-1
6.13647E-1,3.67614E-1
6.34155E-1,2.91870E-1
6.58111E-1,2.16033E-1
6.70562E-1,1.36444E-1
6.79077E-1,0.54748E-1
6.73675E-1,-0.32684E-1
6.58447E-1,-1.11022E-1
6.41357E-1,-1.91772E-1
6.08001E-1,-2.64465E-1
5.71655E-1,-3.32275E-1
5.21209E-1,-3.91571E-1
4.77066E-1,-4.47113E-1
4.19372E-1,-4.96627E-1
3.60168E-1,-5.30883E-1
3.08746E-1,-5.60272E-1
2.47650E-1,-5.84350E-1
1.89941E-1,-6.08825E-1
1.14196E-1,-6.13159E-1
0.55877E-1,-6.16577E-1
-0.07720E-1,-6.27960E-1
-0.85662E-1,-6.26434E-1
-1.47369E-1,-6.04858E-1
-2.09411E-1,-5.83496E-1
-2.67120E-1,-5.60119E-1
-3.25531E-1,-5.26733E-1
-3.85238E-1,-4.93072E-1
-4.34021E-1,-4.41345E-1
-4.80056E-1,-4.00894E-1
-5.15899E-1,-3.46862E-1
-5.51513E-1,-2.89428E-1
-5.83343E-1,-2.29187E-1
-6.11206E-1,-1.54632E-1
-6.11297E-1,-0.95764E-1
-6.27746E-1,-0.38909E-1
-6.34216E-1,0.27313E-1
-6.29974E-1,0.92193E-1
-6.19140E-1,1.55975E-1
-5.94848E-1,2.14508E-1
-5.74890E-1,2.75695E-1
-5.37384E-1,3.36395E-1
-4.93835E-1,3.94775E-1
-4.48852E-1,4.44442E-1
-3.93798E-1,5.01251E-1
-3.38317E-1,5.31555E-1
-2.87078E-1,5.66680E-1
-2.20397E-1,6.01623E-1
-1.48681E-1,6.17767E-1
-0.85449E-1,6.31378E-1
-0.20935E-1,6.31500E-1
0.45654E-1,6.34246E-1
1.13067E-1,6.16760E-1
1.80389E-1,5.88775E-1
2.42157E-1,5.61523E-1
3.18115E-1,5.18676E-1
3.67416E-1,4.73312E-1
4.16061E-1,4.38949E-1
4.68093E-1,3.87298E-1
5.05767E-1,3.30535E-1
5.33172E-1,2.66937E-1
5.45959E-1,2.15698E-1
5.70220E-1,1.57409E-1
5.82153E-1,0.93475E-1
5.77453E-1,0.24749E-1
5.65002E-1,-0.26458E-1
5.57891E-1,-0.82000E-1
5.41931E-1,-1.42852E-1
5.22369E-1,-1.98425E-1
4.94293E-1,-2.54333E-1
4.62295E-1,-3.00399E-1
4.29626E-1,-3.45413E-1
3.96865E-1,-3.71795E-1
3.62793E-1,-4.06784E-1
3.17474E-1,-4.31747E-1
2.69516E-1,-4.53857E-1
2.24121E-1,-4.72335E-1
1.72882E-1,-4.92172E-1
1.23199E-1,-5.07904E-1
0.72052E-1,-5.1297E-1
0.25878E-1,-5.17334E-1
-0.25238E-1,-5.16357E-1
-0.74859E-1,-5.05523E-1
-1.04248E-1,-5.01892E-1
-1.47094E-1,-5.00885E-1
-1.83349E-1,-4.91348E-1
-2.22503E-1,-4.73236E-1
-2.47345E-1,-4.49462E-1
-2.77084E-1,-4.33227E-1
-3.19412E-1,-4.04678E-1
-3.49884E-1,-3.68881E-1
-3.77273E-1,-3.35571E-1
-4.01947E-1,-3.02703E-1
-4.25720E-1,-2.71469E-1
-4.47189E-1,-2.40112E-1
-4.59594E-1,-2.02850E-1
-4.70657E-1,-1.71173E-1
-4.82360E-1,-1.30554E-1
-4.87304E-1,-0.93460E-1
-4.93042E-1,-0.57403E-1
-4.94140E-1,-0.19531E-1
-4.89135E-1,0.18508E-1
-4.81033E-1,0.56442E-1
-4.74594E-1,0.94848E-1
-4.64538E-1,1.40411E-1
-4.52575E-1,1.79290E-1
-4.39727E-1,2.14660E-1
-4.27475E-1,2.45224E-1
-4.07760E-1,2.76367E-1
-3.82232E-1,3.06655E-1
-3.51470E-1,3.29925E-1
-3.23471E-1,3.50555E-1
-2.92434E-1,3.73306E-1
-2.54043E-1,3.90838E-1
-2.21115E-1,4.08859E-1
-1.75872E-1,4.22561E-1
-1.39328E-1,4.29153E-1
-1.01303E-1,4.35363E-1
-0.62255E-1,4.38110E-1
-0.25177E-1,4.35180E-1
0.15686E-1,4.29336E-1
0.48996E-1,4.13375E-1
0.76278E-1,4.01092E-1
1.05606E-1,3.81347E-1
1.32431E-1,3.53530E-1
1.58218E-1,3.24157E-1
1.84036E-1,2.8862E-1
2.05505E-1,2.56042E-1
2.21893E-1,2.23159E-1
2.34436E-1,1.9384E-1
2.44209E-1,1.60469E-1
2.45193E-1,1.18774E-1
2.35839E-1,0.80642E-1
2.23594E-1,0.55275E-1
2.20840E-1,0.37704E-1
2.10296E-1,0.11932E-1
1.89582E-1,-0.07209E-1
1.61758E-1,-0.26069E-1
1.31317E-1,-0.39947E-1
1.10595E-1,-4.86946E-2
9.50126E-2,-6.52847E-2
7.45735E-2,-7.43293E-2
5.61943E-2,-7.55767E-2
3.64494E-2,-6.96144E-2
2.56767E-2,-5.63278E-2
1.6716E-2,-5.28755E-2
0.24375E-2,-4.10156E-2
-0.64306E-2,-2.40459E-2
-1.81694E-2,-0.54998E-2
-2.41069E-2,1.93090E-2
-2.61058E-2,3.75480E-2
-3.00750E-2,5.49430E-2
-3.03192E-2,7.25479E-2
-3.15895E-2,8.83483E-2
-2.93426E-2,1.09581E-1
-1.81274E-2,1.21093E-1
-0.08834E-1,1.25465E-1
0.04325E-1,1.28715E-1
0.20553E-1,1.33163E-1
0.41648E-1,1.42860E-1
0.70503E-1,1.47415E-1
0.91606E-1,1.46713E-1
1.08306E-1,1.44462E-1
1.24221E-1,1.39747E-1
1.42959E-1,1.35253E-1
1.67938E-1,1.23779E-1
1.86401E-1,1.05674E-1
2.03346E-1,0.89370E-1
2.15309E-1,0.68038E-1
2.24227E-1,0.45707E-1
2.36434E-1,0.20210E-1
2.45941E-1,-0.17181E-1
2.52731E-1,-0.53192E-1
2.60025E-1,-0.91003E-1
2.58041E-1,-1.23901E-1
2.53952E-1,-1.49688E-1
2.48329E-1,-1.82579E-1
2.27188E-1,-2.13424E-1
2.05871E-1,-2.40730E-1
1.76055E-1,-2.66098E-1
1.48574E-1,-2.77893E-1
1.22131E-1,-2.95639E-1
0.83633E-1,-3.15322E-1
0.43869E-1,-3.30642E-1
0.01342E-1,-3.42361E-1
END
