CITIFILE A.01.01
#NA VERSION HP8510C.08.10
NAME DATA
#NA REGISTER 4
VAR FREQ MAG 201
DATA S[1,1] RI
DATA S[2,1] RI
DATA S[1,2] RI
DATA S[2,2] RI
SEG_LIST_BEGIN
SEG 8000000000 12000000000 201
SEG_LIST_END
COMMENT       YEAR MONTH DAY HOUR MINUTE SECONDS
CONSTANT TIME 2013   12   09  20    55    23.0
BEGIN
-6.91558E-1,-1.02294E-1
-6.97937E-1,-0.31494E-1
-6.98089E-1,0.49316E-1
-6.94274E-1,1.22894E-1
-6.76055E-1,1.98211E-1
-6.49536E-1,2.64648E-1
-6.18255E-1,3.30596E-1
-5.87646E-1,3.92150E-1
-5.39001E-1,4.58038E-1
-4.87701E-1,5.09582E-1
-4.33502E-1,5.57189E-1
-3.71856E-1,5.93658E-1
-3.11889E-1,6.31652E-1
-2.31292E-1,6.59820E-1
-1.66626E-1,6.75567E-1
-0.94574E-1,6.88232E-1
-0.24963E-1,6.84478E-1
0.40832E-1,6.82525E-1
1.19384E-1,6.70806E-1
1.79809E-1,6.41937E-1
2.43835E-1,6.20513E-1
2.98858E-1,5.84808E-1
3.49029E-1,5.50476E-1
3.95080E-1,5.07598E-1
4.30358E-1,4.65072E-1
4.75036E-1,4.21875E-1
5.07019E-1,3.70880E-1
5.36773E-1,3.23181E-1
5.57189E-1,2.68951E-1
5.82366E-1,2.20123E-1
6.00402E-1,1.57074E-1
6.04644E-1,0.96466E-1
6.09802E-1,0.40924E-1
6.05529E-1,-0.19928E-1
6.04644E-1,-0.77514E-1
5.77545E-1,-1.38488E-1
5.61554E-1,-1.83868E-1
5.46386E-1,-2.37426E-1
5.15930E-1,-2.99652E-1
4.74411E-1,-3.35083E-1
4.39880E-1,-3.75747E-1
4.03656E-1,-4.16366E-1
3.58917E-1,-4.48913E-1
3.13095E-1,-4.86312E-1
2.55188E-1,-5.01495E-1
2.15789E-1,-5.24353E-1
1.64764E-1,-5.35522E-1
1.14440E-1,-5.44982E-1
0.67291E-1,-5.56182E-1
0.01556E-1,-5.59326E-1
-0.34606E-1,-5.44464E-1
-0.83343E-1,-5.48828E-1
-1.37725E-1,-5.36682E-1
-1.82891E-1,-5.19622E-1
-2.31445E-1,-4.98733E-1
-2.70690E-1,-4.72991E-1
-3.17794E-1,-4.5401E-1
-3.54126E-1,-4.16503E-1
-3.83834E-1,-3.83270E-1
-4.13665E-1,-3.52844E-1
-4.51461E-1,-3.07510E-1
-4.71557E-1,-2.69775E-1
-4.95132E-1,-2.31430E-1
-5.14007E-1,-1.87408E-1
-5.25817E-1,-1.41265E-1
-5.38726E-1,-0.94055E-1
-5.45043E-1,-0.46997E-1
-5.56304E-1,0.10314E-1
-5.44281E-1,0.56030E-1
-5.34210E-1,0.98968E-1
-5.24414E-1,1.42181E-1
-5.06012E-1,1.96594E-1
-4.84527E-1,2.39715E-1
-4.64721E-1,2.74642E-1
-4.43191E-1,3.15582E-1
-4.09545E-1,3.56277E-1
-3.68911E-1,3.93646E-1
-3.32992E-1,4.29702E-1
-2.82943E-1,4.68215E-1
-2.33734E-1,4.88815E-1
-1.79046E-1,5.01037E-1
-1.31347E-1,5.02807E-1
-0.76507E-1,5.16296E-1
-0.13763E-1,5.13916E-1
0.30456E-1,5.09582E-1
0.80352E-1,5.00122E-1
1.25274E-1,4.77645E-1
1.78100E-1,4.57138E-1
2.29400E-1,4.28451E-1
2.77572E-1,3.93203E-1
3.13476E-1,3.57070E-1
3.4021E-1,3.10668E-1
3.57681E-1,2.68158E-1
3.82736E-1,2.13882E-1
3.96133E-1,1.59332E-1
4.02694E-1,1.13235E-1
4.08126E-1,0.72311E-1
4.08111E-1,0.25802E-1
3.95263E-1,-0.33325E-1
3.80676E-1,-0.78384E-1
3.65921E-1,-1.30096E-1
3.44284E-1,-1.75582E-1
3.06991E-1,-2.17117E-1
2.64968E-1,-2.43331E-1
2.22244E-1,-2.69485E-1
1.77490E-1,-2.91656E-1
1.38610E-1,-3.04443E-1
1.05804E-1,-3.11782E-1
0.71594E-1,-3.15048E-1
0.28091E-1,-3.15918E-1
-0.10879E-1,-3.10760E-1
-0.45578E-1,-3.09066E-1
-0.75256E-1,-3.09036E-1
-1.13464E-1,-2.99209E-1
-1.43798E-1,-2.76336E-1
-1.72004E-1,-2.49496E-1
-1.97486E-1,-2.25708E-1
-2.18620E-1,-2.08702E-1
-2.35916E-1,-1.95434E-1
-2.51449E-1,-1.77932E-1
-2.64602E-1,-1.45034E-1
-2.74414E-1,-1.13830E-1
-2.88253E-1,-0.87783E-1
-3.04962E-1,-0.68176E-1
-3.13415E-1,-0.42205E-1
-3.08609E-1,-0.11001E-1
-2.95822E-1,0.2005E-1
-2.88726E-1,0.48736E-1
-2.88131E-1,0.74585E-1
-2.84668E-1,0.93872E-1
-2.75283E-1,1.08810E-1
-2.53585E-1,1.24527E-1
-2.36099E-1,1.43035E-1
-2.19604E-1,1.67060E-1
-2.08534E-1,1.85676E-1
-1.96968E-1,1.94679E-1
-1.75590E-1,1.96197E-1
-1.52015E-1,1.95060E-1
-1.24977E-1,2.04238E-1
-1.02211E-1,2.10495E-1
-0.94451E-1,2.08274E-1
-0.86700E-1,2.00164E-1
-0.78208E-1,1.85554E-1
-0.60409E-1,1.76307E-1
-0.42297E-1,1.69593E-1
-0.37429E-1,1.71714E-1
-0.37292E-1,1.75109E-1
-0.40069E-1,1.6642E-1
-0.34973E-1,1.54136E-1
-0.18501E-1,1.38473E-1
-1.21650E-2,1.23146E-1
-0.14907E-1,1.25099E-1
-2.60543E-2,1.23073E-1
-4.57763E-2,1.18034E-1
-5.80596E-2,1.10351E-1
-6.31446E-2,1.05190E-1
-6.41441E-2,1.138E-1
-0.65322E-1,1.27632E-1
-0.79185E-1,1.43859E-1
-0.90957E-1,1.55983E-1
-0.99136E-1,1.57562E-1
-1.00524E-1,1.66648E-1
-0.92285E-1,1.82022E-1
-0.89538E-1,2.07160E-1
-0.86868E-1,2.38929E-1
-0.82763E-1,2.61489E-1
-0.72784E-1,2.78045E-1
-0.49819E-1,2.91290E-1
-0.20645E-1,3.08593E-1
0.12588E-1,3.33282E-1
0.46112E-1,3.50738E-1
0.69946E-1,3.57940E-1
1.02951E-1,3.56277E-1
1.37954E-1,3.44238E-1
1.81579E-1,3.37448E-1
2.27371E-1,3.29971E-1
2.61673E-1,3.21960E-1
2.93777E-1,3.05267E-1
3.18191E-1,2.72262E-1
3.51547E-1,2.36450E-1
3.89694E-1,1.91360E-1
4.21157E-1,1.51748E-1
4.40887E-1,1.15463E-1
4.42138E-1,0.73379E-1
4.38522E-1,0.27755E-1
4.37774E-1,-0.28869E-1
4.41772E-1,-0.81436E-1
4.45007E-1,-1.30142E-1
4.36645E-1,-1.69921E-1
4.15847E-1,-2.09747E-1
3.83575E-1,-2.63382E-1
3.44329E-1,-3.20938E-1
3.07891E-1,-3.75015E-1
2.68753E-1,-4.09896E-1
2.23938E-1,-4.28299E-1
1.62063E-1,-4.40841E-1
0.94101E-1,-4.51690E-1
0.31784E-1,-4.64080E-1
-0.17547E-1,-4.69268E-1
-0.51406E-1,-4.59549E-1
-0.91568E-1,-4.41009E-1
END
BEGIN
-5.73242E-1,4.19097E-1
-4.97161E-1,4.09637E-1
-5.07019E-1,4.74395E-1
-4.04968E-1,5.52154E-1
-3.46618E-1,5.59875E-1
-2.56286E-1,6.04217E-1
-1.85424E-1,5.45532E-1
-2.19696E-1,5.45135E-1
-1.73614E-1,6.23840E-1
-1.14807E-1,6.39801E-1
-0.38726E-1,6.89086E-1
0.58502E-1,6.40014E-1
0.36377E-1,6.38732E-1
1.32873E-1,7.32543E-1
2.59613E-1,6.76910E-1
3.18878E-1,6.59423E-1
4.23217E-1,5.83190E-1
4.01550E-1,5.17395E-1
4.52941E-1,5.65216E-1
5.71655E-1,4.98199E-1
6.13922E-1,4.39971E-1
7.09655E-1,3.43566E-1
6.75781E-1,2.14111E-1
6.75872E-1,2.04772E-1
7.28393E-1,1.04248E-1
6.84112E-1,0.29846E-1
7.07916E-1,-0.29876E-1
6.37634E-1,-1.36047E-1
5.76263E-1,-1.03759E-1
6.27624E-1,-1.13555E-1
6.26312E-1,-1.73065E-1
6.59668E-1,-2.08221E-1
6.55944E-1,-3.36151E-1
5.79528E-1,-3.58215E-1
6.30859E-1,-3.90777E-1
6.14318E-1,-5.39215E-1
5.46752E-1,-6.30523E-1
4.21814E-1,-7.59491E-1
2.42248E-1,-7.09747E-1
2.48199E-1,-6.57775E-1
2.01080E-1,-7.32666E-1
1.12762E-1,-7.19574E-1
0.71868E-1,-7.53173E-1
-0.56823E-1,-7.35656E-1
-0.59082E-1,-6.74865E-1
-0.89080E-1,-7.44934E-1
-2.15332E-1,-7.30041E-1
-2.59979E-1,-7.12341E-1
-3.99658E-1,-6.90734E-1
-4.31091E-1,-5.47027E-1
-4.00024E-1,-5.36315E-1
-4.56298E-1,-5.26153E-1
-4.71283E-1,-4.98321E-1
-5.46386E-1,-5.09307E-1
-6.19140E-1,-4.13757E-1
-6.13433E-1,-3.76098E-1
-6.82434E-1,-3.51837E-1
-7.19421E-1,-2.80304E-1
-7.91503E-1,-2.35229E-1
-8.38409E-1,-0.62011E-1
-7.39959E-1,0.21240E-1
-7.38159E-1,0.37017E-1
-7.17651E-1,1.00189E-1
-7.23266E-1,0.97717E-1
-7.95257E-1,1.92291E-1
-7.27142E-1,3.08776E-1
-7.09198E-1,3.25378E-1
-7.17926E-1,4.25201E-1
-6.64123E-1,5.00305E-1
-6.36688E-1,6.04126E-1
-4.88647E-1,6.93908E-1
-4.03656E-1,6.53595E-1
-3.67309E-1,6.87133E-1
-2.87628E-1,6.79168E-1
-2.89398E-1,6.82037E-1
-2.35778E-1,7.47680E-1
-1.71630E-1,7.47741E-1
-1.42700E-1,7.95440E-1
-0.38208E-1,8.28796E-1
0.12603E-1,8.22296E-1
0.99945E-1,8.85559E-1
2.44720E-1,8.58398E-1
3.23242E-1,8.12591E-1
4.23187E-1,7.51373E-1
4.37652E-1,6.66717E-1
4.70886E-1,6.83319E-1
5.77026E-1,6.30218E-1
5.94482E-1,5.56701E-1
6.53045E-1,5.39611E-1
7.07458E-1,4.54742E-1
7.29217E-1,4.25689E-1
8.30841E-1,3.63952E-1
8.51715E-1,2.19665E-1
8.34869E-1,1.51855E-1
8.42529E-1,0.62683E-1
8.05481E-1,-0.00305E-1
8.18664E-1,-0.40405E-1
8.10150E-1,-1.27380E-1
7.83355E-1,-1.62567E-1
8.08013E-1,-2.22564E-1
7.82196E-1,-3.15033E-1
7.64526E-1,-3.66241E-1
7.56774E-1,-4.61792E-1
6.93450E-1,-5.43029E-1
6.55426E-1,-6.10015E-1
5.69976E-1,-7.05658E-1
4.64111E-1,-7.22259E-1
4.15618E-1,-7.41546E-1
3.40148E-1,-7.78320E-1
2.76031E-1,-7.87262E-1
2.07702E-1,-8.18847E-1
1.22924E-1,-8.10638E-1
0.85815E-1,-8.08410E-1
0.21698E-1,-8.39752E-1
-0.61309E-1,-8.43048E-1
-1.37603E-1,-8.48449E-1
-2.37274E-1,-8.26110E-1
-3.00964E-1,-7.80578E-1
-3.64471E-1,-7.56683E-1
-4.30786E-1,-7.04498E-1
-4.65179E-1,-6.67846E-1
-5.27740E-1,-6.39434E-1
-5.76690E-1,-5.79559E-1
-6.11816E-1,-5.41626E-1
-6.60827E-1,-4.89563E-1
-6.90338E-1,-4.39605E-1
-7.40814E-1,-4.00116E-1
-7.93884E-1,-3.27667E-1
-8.26873E-1,-2.49176E-1
-8.47656E-1,-1.60308E-1
-8.37554E-1,-0.83404E-1
-8.49243E-1,-0.29266E-1
-8.62640E-1,0.56701E-1
-8.48022E-1,1.33880E-1
-8.39691E-1,2.09533E-1
-8.08715E-1,2.85675E-1
-7.85675E-1,3.38439E-1
-7.72003E-1,4.18243E-1
-7.24090E-1,5.01190E-1
-6.74285E-1,5.64697E-1
-6.14837E-1,6.27533E-1
-5.49682E-1,6.69525E-1
-4.93530E-1,7.16033E-1
-4.18914E-1,7.60253E-1
-3.49395E-1,7.86682E-1
-2.77282E-1,8.16528E-1
-2.00317E-1,8.30810E-1
-1.38275E-1,8.42376E-1
-0.63964E-1,8.59191E-1
0.1474E-1,8.64074E-1
0.96466E-1,8.64044E-1
1.80786E-1,8.50006E-1
2.56866E-1,8.25256E-1
3.28796E-1,7.98675E-1
4.01306E-1,7.63610E-1
4.67712E-1,7.19970E-1
5.30242E-1,6.69952E-1
5.89355E-1,6.18866E-1
6.41571E-1,5.55694E-1
6.86981E-1,4.91455E-1
7.25006E-1,4.23645E-1
7.51068E-1,3.52508E-1
7.78350E-1,2.87231E-1
7.99804E-1,2.08068E-1
8.06915E-1,1.37146E-1
8.17810E-1,0.65216E-1
8.10089E-1,-0.12603E-1
8.03710E-1,-0.75531E-1
7.97729E-1,-1.56921E-1
7.69378E-1,-2.30712E-1
7.41882E-1,-2.99774E-1
6.94824E-1,-3.68927E-1
6.47796E-1,-4.09881E-1
6.16790E-1,-4.62921E-1
5.62835E-1,-5.18432E-1
5.13244E-1,-5.60333E-1
4.47326E-1,-6.06475E-1
3.83087E-1,-6.22039E-1
3.38684E-1,-6.49475E-1
2.70233E-1,-6.84356E-1
2.00408E-1,-6.94244E-1
1.31012E-1,-7.07122E-1
0.56549E-1,-6.93176E-1
0.07965E-1,-6.79321E-1
-0.50720E-1,-6.78344E-1
-1.14227E-1,-6.56280E-1
-1.63970E-1,-6.34613E-1
-2.19116E-1,-6.06262E-1
-2.59094E-1,-5.69488E-1
-2.96081E-1,-5.42358E-1
-3.39294E-1,-5.07782E-1
-3.69445E-1,-4.68734E-1
-4.01382E-1,-4.34158E-1
-4.30954E-1,-3.97155E-1
-4.60128E-1,-3.56933E-1
-4.88510E-1,-3.12057E-1
-5.09582E-1,-2.55249E-1
-5.12664E-1,-2.02758E-1
-5.18066E-1,-1.60430E-1
-5.27587E-1,-1.06658E-1
-5.18920E-1,-0.51086E-1
END
BEGIN
-5.51727E-1,3.58642E-1
-5.38177E-1,4.38476E-1
-4.20745E-1,4.76989E-1
-4.29534E-1,4.39636E-1
-4.44915E-1,5.69946E-1
-3.16284E-1,6.21185E-1
-2.77038E-1,6.49169E-1
-1.49566E-1,6.92077E-1
-1.05865E-1,6.25122E-1
-1.18255E-1,7.01995E-1
0.35888E-1,7.55493E-1
1.18866E-1,7.10968E-1
2.26196E-1,6.90673E-1
2.69226E-1,5.87188E-1
2.54150E-1,6.03881E-1
3.79333E-1,6.15753E-1
4.36431E-1,5.30517E-1
5.02746E-1,4.93713E-1
5.29907E-1,3.59619E-1
4.60189E-1,3.41323E-1
5.24749E-1,3.76983E-1
5.83343E-1,2.90741E-1
6.01837E-1,2.59307E-1
6.56616E-1,1.62384E-1
5.93627E-1,0.96557E-1
6.15600E-1,1.25061E-1
6.80542E-1,0.47058E-1
6.75506E-1,-0.17547E-1
7.09594E-1,-1.12579E-1
6.22833E-1,-2.13775E-1
5.90148E-1,-1.83319E-1
6.41174E-1,-2.33551E-1
6.33667E-1,-3.06915E-1
6.51031E-1,-4.09027E-1
5.19073E-1,-5.34179E-1
4.27093E-1,-4.69894E-1
4.72381E-1,-4.85519E-1
4.49157E-1,-5.73791E-1
4.22851E-1,-6.56372E-1
2.78076E-1,-7.76123E-1
1.30432E-1,-6.79931E-1
1.69586E-1,-6.36322E-1
1.47583E-1,-7.03643E-1
1.03912E-1,-7.48718E-1
-0.14984E-1,-8.56018E-1
-2.15637E-1,-7.70385E-1
-1.93267E-1,-6.70257E-1
-2.12249E-1,-7.12127E-1
-2.78503E-1,-7.08068E-1
-3.63250E-1,-7.57049E-1
-5.69458E-1,-6.72729E-1
-5.58837E-1,-4.95513E-1
-5.29144E-1,-4.94812E-1
-5.77789E-1,-4.69940E-1
-6.09222E-1,-4.75463E-1
-7.69348E-1,-4.30725E-1
-7.84912E-1,-2.18994E-1
-7.09259E-1,-1.80633E-1
-7.34588E-1,-1.52465E-1
-7.36846E-1,-1.20880E-1
-8.38592E-1,-0.90454E-1
-8.67401E-1,1.21856E-1
-7.33947E-1,1.92077E-1
-7.16491E-1,1.96441E-1
-6.96380E-1,2.35717E-1
-7.36755E-1,2.46490E-1
-7.92572E-1,4.14825E-1
-6.35345E-1,5.35858E-1
-5.7547E-1,5.14190E-1
-5.50262E-1,5.57189E-1
-5.28808E-1,5.76812E-1
-5.40100E-1,6.94854E-1
-3.68774E-1,8.14086E-1
-2.50824E-1,7.54394E-1
-2.19604E-1,7.54943E-1
-1.65069E-1,7.55401E-1
-1.51367E-1,7.91687E-1
-0.32409E-1,8.68988E-1
0.96862E-1,8.06060E-1
1.33270E-1,7.64312E-1
1.77887E-1,7.42034E-1
1.97265E-1,7.54608E-1
3.04992E-1,7.99408E-1
4.23736E-1,7.13897E-1
4.44793E-1,6.55975E-1
5.00885E-1,6.11419E-1
5.05462E-1,5.62805E-1
5.53344E-1,5.91735E-1
6.83075E-1,5.43579E-1
7.22473E-1,4.35913E-1
7.53875E-1,3.71917E-1
7.57141E-1,2.97149E-1
7.74505E-1,2.81982E-1
8.65509E-1,2.16522E-1
8.92395E-1,0.78521E-1
8.75976E-1,-0.23132E-1
8.27270E-1,-1.11053E-1
7.97149E-1,-1.19567E-1
8.56109E-1,-1.76422E-1
8.44390E-1,-3.22601E-1
7.69866E-1,-4.05334E-1
7.06756E-1,-4.75952E-1
6.39953E-1,-4.90570E-1
6.54663E-1,-5.25390E-1
6.15783E-1,-6.38977E-1
5.21392E-1,-6.88720E-1
4.55169E-1,-7.36816E-1
3.47320E-1,-7.52655E-1
3.17016E-1,-7.35015E-1
2.87658E-1,-8.02246E-1
1.81427E-1,-8.48083E-1
0.87341E-1,-8.52752E-1
-0.15045E-1,-8.28399E-1
-0.48461E-1,-7.74841E-1
-0.70861E-1,-8.01055E-1
-1.64306E-1,-8.24249E-1
-2.55157E-1,-8.00140E-1
-3.42651E-1,-7.58209E-1
-3.84857E-1,-6.84509E-1
-3.93035E-1,-6.70898E-1
-4.60266E-1,-6.77398E-1
-5.42785E-1,-6.39373E-1
-6.18042E-1,-5.75836E-1
-6.54388E-1,-4.81445E-1
-6.50299E-1,-4.33136E-1
-6.91925E-1,-4.14703E-1
-7.48565E-1,-3.59191E-1
-7.97149E-1,-2.85644E-1
-8.14941E-1,-1.85211E-1
-7.89154E-1,-1.18133E-1
-8.00628E-1,-0.85784E-1
-8.34320E-1,-0.20721E-1
-8.51013E-1,0.66253E-1
-8.41308E-1,1.5979E-1
-8.02337E-1,2.28912E-1
-7.85827E-1,2.79998E-1
-7.73407E-1,3.51379E-1
-7.44659E-1,4.27948E-1
-7.0401E-1,5.05554E-1
-6.44256E-1,5.67199E-1
-5.95733E-1,6.11358E-1
-5.49072E-1,6.67480E-1
-4.86206E-1,7.2229E-1
-4.11834E-1,7.72247E-1
-3.28826E-1,8.02063E-1
-2.59491E-1,8.23150E-1
-1.87805E-1,8.48877E-1
-1.07635E-1,8.63739E-1
-0.22827E-1,8.69354E-1
0.62896E-1,8.54339E-1
1.23840E-1,8.38195E-1
1.96533E-1,8.37341E-1
2.79388E-1,8.20556E-1
3.60900E-1,7.86987E-1
4.31030E-1,7.34222E-1
4.76959E-1,6.84417E-1
5.33569E-1,6.49231E-1
5.96557E-1,5.98419E-1
6.50848E-1,5.40954E-1
6.95953E-1,4.70489E-1
7.22808E-1,4.06341E-1
7.56805E-1,3.47961E-1
7.88879E-1,2.72796E-1
8.07708E-1,1.97631E-1
8.21899E-1,1.17981E-1
8.18603E-1,0.43762E-1
8.17413E-1,-0.20385E-1
8.14788E-1,-0.96740E-1
7.98278E-1,-1.73370E-1
7.74322E-1,-2.49572E-1
7.36572E-1,-3.15002E-1
7.09899E-1,-3.71978E-1
6.75811E-1,-4.43603E-1
6.22650E-1,-5.09918E-1
5.58837E-1,-5.64727E-1
4.88861E-1,-5.9729E-1
4.41345E-1,-6.27288E-1
3.83636E-1,-6.72027E-1
3.07952E-1,-7.06543E-1
2.26928E-1,-7.24670E-1
1.48437E-1,-7.19299E-1
0.96221E-1,-7.11883E-1
0.33783E-1,-7.21191E-1
-0.41839E-1,-7.13012E-1
-1.12731E-1,-6.92413E-1
-1.77520E-1,-6.54663E-1
-2.19543E-1,-6.12731E-1
-2.60162E-1,-5.87982E-1
-3.05511E-1,-5.54046E-1
-3.45306E-1,-5.17944E-1
-3.82232E-1,-4.75936E-1
-4.08065E-1,-4.30664E-1
-4.30831E-1,-3.91922E-1
-4.57443E-1,-3.51059E-1
-4.80209E-1,-3.07464E-1
-4.98733E-1,-2.60116E-1
-5.08544E-1,-2.15118E-1
-5.20477E-1,-1.66809E-1
-5.20172E-1,-1.10412E-1
-5.08728E-1,-0.59112E-1
-4.89913E-1,-0.12619E-1
END
BEGIN
-6.59484E-1,2.92999E-1
-6.22131E-1,3.67797E-1
-5.72143E-1,4.43878E-1
-5.18310E-1,5.12268E-1
-4.45648E-1,5.72845E-1
-3.71612E-1,6.17553E-1
-2.94586E-1,6.57135E-1
-2.19665E-1,6.91223E-1
-1.31164E-1,7.10540E-1
-0.46234E-1,7.14752E-1
0.36987E-1,7.13684E-1
1.18530E-1,6.99554E-1
1.99157E-1,6.83258E-1
2.85186E-1,6.42639E-1
3.50647E-1,6.00067E-1
4.17938E-1,5.51513E-1
4.73373E-1,4.93286E-1
5.26184E-1,4.35577E-1
5.75317E-1,3.62274E-1
5.94787E-1,2.91687E-1
6.18133E-1,2.2052E-1
6.30645E-1,1.44226E-1
6.40197E-1,0.64697E-1
6.34887E-1,-0.18615E-1
6.20819E-1,-0.92712E-1
6.05499E-1,-1.70562E-1
5.73364E-1,-2.38403E-1
5.39520E-1,-3.02764E-1
4.92279E-1,-3.57650E-1
4.51812E-1,-4.10217E-1
3.98712E-1,-4.56436E-1
3.44574E-1,-4.87869E-1
2.97943E-1,-5.16876E-1
2.41729E-1,-5.39459E-1
1.87194E-1,-5.65155E-1
1.15509E-1,-5.67871E-1
0.61401E-1,-5.72509E-1
0.00396E-1,-5.85022E-1
-0.75042E-1,-5.82244E-1
-1.31439E-1,-5.61676E-1
-1.89422E-1,-5.40893E-1
-2.43682E-1,-5.19073E-1
-2.97683E-1,-4.87228E-1
-3.53424E-1,-4.54284E-1
-3.96835E-1,-4.04251E-1
-4.40338E-1,-3.66104E-1
-4.72442E-1,-3.15689E-1
-5.04791E-1,-2.61810E-1
-5.32928E-1,-2.05383E-1
-5.56060E-1,-1.33514E-1
-5.53985E-1,-0.82733E-1
-5.69000E-1,-0.29541E-1
-5.73120E-1,0.32012E-1
-5.67413E-1,0.90423E-1
-5.55053E-1,1.46972E-1
-5.31311E-1,1.97479E-1
-5.10955E-1,2.53082E-1
-4.73587E-1,3.06366E-1
-4.31533E-1,3.57147E-1
-3.90274E-1,3.99810E-1
-3.38485E-1,4.48394E-1
-2.91275E-1,4.73098E-1
-2.44934E-1,5.04852E-1
-1.81671E-1,5.32714E-1
-1.17095E-1,5.42205E-1
-0.61187E-1,5.50262E-1
-0.07537E-1,5.47241E-1
0.51818E-1,5.46295E-1
1.08642E-1,5.26702E-1
1.64779E-1,4.97940E-1
2.16644E-1,4.71694E-1
2.80349E-1,4.29977E-1
3.19122E-1,3.91311E-1
3.61145E-1,3.61099E-1
4.04357E-1,3.14590E-1
4.33227E-1,2.63793E-1
4.50164E-1,2.11090E-1
4.59350E-1,1.70578E-1
4.77096E-1,1.19659E-1
4.82803E-1,0.63858E-1
4.72686E-1,0.07949E-1
4.60769E-1,-0.31723E-1
4.54711E-1,-0.76553E-1
4.38171E-1,-1.25656E-1
4.20242E-1,-1.69967E-1
3.94256E-1,-2.15026E-1
3.66500E-1,-2.50793E-1
3.39019E-1,-2.86438E-1
3.15979E-1,-3.05343E-1
2.88024E-1,-3.31802E-1
2.51388E-1,-3.48373E-1
2.11319E-1,-3.62869E-1
1.74469E-1,-3.75885E-1
1.32293E-1,-3.90152E-1
0.92346E-1,-4.02206E-1
0.54107E-1,-4.05334E-1
0.18112E-1,-4.09149E-1
-0.21728E-1,-4.06921E-1
-0.57891E-1,-3.96682E-1
-0.79284E-1,-3.98559E-1
-1.13632E-1,-3.98330E-1
-1.41143E-1,-3.93112E-1
-1.70517E-1,-3.77288E-1
-1.86813E-1,-3.60000E-1
-2.10037E-1,-3.49075E-1
-2.41149E-1,-3.24585E-1
-2.62130E-1,-2.97012E-1
-2.82547E-1,-2.72384E-1
-3.02154E-1,-2.48153E-1
-3.21212E-1,-2.26333E-1
-3.39340E-1,-2.04986E-1
-3.48556E-1,-1.80877E-1
-3.57788E-1,-1.61056E-1
-3.67538E-1,-1.30767E-1
-3.70880E-1,-1.02905E-1
-3.77288E-1,-0.76721E-1
-3.80340E-1,-0.48721E-1
-3.79684E-1,-0.21820E-1
-3.76571E-1,0.07385E-1
-3.72421E-1,0.36895E-1
-3.64349E-1,0.71853E-1
-3.57574E-1,1.02127E-1
-3.50967E-1,1.29684E-1
-3.4729E-1,1.55166E-1
-3.33816E-1,1.79351E-1
-3.15536E-1,2.00058E-1
-2.94448E-1,2.13577E-1
-2.76199E-1,2.26974E-1
-2.54623E-1,2.44751E-1
-2.25997E-1,2.57904E-1
-2.02270E-1,2.69302E-1
-1.72790E-1,2.76519E-1
-1.5065E-1,2.81829E-1
-1.28295E-1,2.86956E-1
-1.01806E-1,2.89108E-1
-0.78323E-1,2.83935E-1
-0.55618E-1,2.77435E-1
-0.40344E-1,2.67868E-1
-0.29449E-1,2.60620E-1
-0.16807E-1,2.49702E-1
-0.06446E-1,2.30850E-1
-0.00274E-1,2.12028E-1
0.07011E-1,1.92314E-1
0.12741E-1,1.77764E-1
0.18264E-1,1.67785E-1
0.22239E-1,1.58927E-1
0.20546E-1,1.51641E-1
0.16609E-1,1.44523E-1
0.11924E-1,1.40319E-1
0.11512E-1,1.41403E-1
0.16365E-1,1.41624E-1
0.13641E-1,1.39190E-1
0.06095E-1,1.43455E-1
-0.02639E-1,1.47705E-1
-0.09704E-1,1.53862E-1
-0.09681E-1,1.56776E-1
-0.07827E-1,1.57669E-1
-0.03692E-1,1.62017E-1
0.04356E-1,1.70028E-1
0.14274E-1,1.80679E-1
0.31448E-1,1.93275E-1
0.49690E-1,2.02934E-1
0.70114E-1,2.12547E-1
0.88806E-1,2.22633E-1
1.05712E-1,2.33108E-1
1.26396E-1,2.41760E-1
1.46156E-1,2.43362E-1
1.67991E-1,2.42141E-1
1.88842E-1,2.36312E-1
2.08038E-1,2.30308E-1
2.28965E-1,2.21946E-1
2.50045E-1,2.05429E-1
2.72201E-1,1.79840E-1
2.90847E-1,1.48300E-1
3.09356E-1,1.19552E-1
3.26538E-1,0.93307E-1
3.47717E-1,0.63720E-1
3.59817E-1,0.31509E-1
3.61373E-1,-0.02975E-1
3.56872E-1,-0.34927E-1
3.53073E-1,-0.64315E-1
3.51364E-1,-0.99060E-1
3.39859E-1,-1.36550E-1
3.24325E-1,-1.70608E-1
3.01910E-1,-2.01568E-1
2.81021E-1,-2.27249E-1
2.65579E-1,-2.56774E-1
2.43103E-1,-2.92831E-1
2.22793E-1,-3.23242E-1
1.99890E-1,-3.56140E-1
1.72866E-1,-3.78952E-1
1.47277E-1,-4.00054E-1
1.11801E-1,-4.26040E-1
0.64437E-1,-4.41116E-1
0.15289E-1,-4.51797E-1
-0.38696E-1,-4.5047E-1
-0.84854E-1,-4.41970E-1
-1.38488E-1,-4.34204E-1
-1.97113E-1,-4.17388E-1
-2.49252E-1,-3.94943E-1
-2.95288E-1,-3.66516E-1
END
