CITIFILE A.01.01
#NA VERSION HP8510C.08.10
NAME DATA
#NA REGISTER 4
VAR FREQ MAG 201
DATA S[1,1] RI
DATA S[2,1] RI
DATA S[1,2] RI
DATA S[2,2] RI
SEG_LIST_BEGIN
SEG 8000000000 12000000000 201
SEG_LIST_END
COMMENT       YEAR MONTH DAY HOUR MINUTE SECONDS
CONSTANT TIME 2013   12   09  20    47    35.0
BEGIN
-7.02545E-1,1.70227E-1
-6.68365E-1,2.51159E-1
-6.15142E-1,3.33099E-1
-5.54321E-1,3.94683E-1
-4.86068E-1,4.37408E-1
-4.22149E-1,4.57412E-1
-3.72467E-1,4.68277E-1
-3.39889E-1,4.78820E-1
-3.05328E-1,5.05065E-1
-2.69043E-1,5.29602E-1
-2.31201E-1,5.57342E-1
-1.79809E-1,5.80627E-1
-1.30035E-1,6.03332E-1
-0.62133E-1,6.23382E-1
-0.02075E-1,6.29608E-1
0.61981E-1,6.33697E-1
1.28265E-1,6.22222E-1
1.87133E-1,6.07116E-1
2.55798E-1,5.90057E-1
3.12439E-1,5.51544E-1
3.69140E-1,5.20324E-1
4.20257E-1,4.76715E-1
4.64050E-1,4.31869E-1
5.02136E-1,3.78112E-1
5.30059E-1,3.25592E-1
5.65399E-1,2.72460E-1
5.88073E-1,2.09777E-1
6.05224E-1,1.49169E-1
6.06872E-1,0.83129E-1
6.14349E-1,0.29937E-1
6.13830E-1,-0.39978E-1
5.95672E-1,-1.01898E-1
5.83740E-1,-1.60491E-1
5.55725E-1,-2.20275E-1
5.36407E-1,-2.71881E-1
4.91333E-1,-3.29422E-1
4.51965E-1,-3.66180E-1
4.17556E-1,-4.09805E-1
3.67965E-1,-4.60357E-1
3.11874E-1,-4.77645E-1
2.62908E-1,-5.04150E-1
2.14996E-1,-5.23712E-1
1.60522E-1,-5.38391E-1
1.04797E-1,-5.55572E-1
0.41748E-1,-5.50262E-1
-0.02655E-1,-5.54534E-1
-0.57678E-1,-5.42572E-1
-1.08703E-1,-5.31585E-1
-1.54815E-1,-5.18310E-1
-2.14035E-1,-4.99420E-1
-2.43454E-1,-4.66491E-1
-2.84194E-1,-4.50866E-1
-3.28765E-1,-4.21600E-1
-3.64883E-1,-3.85574E-1
-3.98132E-1,-3.46847E-1
-4.24377E-1,-3.06915E-1
-4.56192E-1,-2.71804E-1
-4.75372E-1,-2.21359E-1
-4.86419E-1,-1.72637E-1
-4.90570E-1,-1.30218E-1
-5.06988E-1,-0.83892E-1
-5.06805E-1,-0.39520E-1
-5.08850E-1,0.02105E-1
-5.04669E-1,0.48614E-1
-4.88052E-1,0.92804E-1
-4.79095E-1,1.32003E-1
-4.65408E-1,1.74209E-1
-4.52209E-1,2.21344E-1
-4.21478E-1,2.55523E-1
-3.89511E-1,2.82791E-1
-3.63876E-1,3.04199E-1
-3.34960E-1,3.43505E-1
-3.00781E-1,3.67385E-1
-2.74642E-1,3.85269E-1
-2.43530E-1,4.08035E-1
-2.05307E-1,4.26116E-1
-1.62872E-1,4.45938E-1
-1.23703E-1,4.61532E-1
-0.78064E-1,4.82620E-1
-0.2771E-1,4.88830E-1
0.23727E-1,4.82513E-1
0.67565E-1,4.69345E-1
1.19674E-1,4.68872E-1
1.77261E-1,4.52850E-1
2.20840E-1,4.34310E-1
2.63702E-1,4.04724E-1
2.98690E-1,3.67752E-1
3.43872E-1,3.32504E-1
3.81332E-1,2.87612E-1
4.17480E-1,2.42172E-1
4.40734E-1,1.93664E-1
4.53887E-1,1.39099E-1
4.61868E-1,0.88394E-1
4.73053E-1,0.18859E-1
4.67636E-1,-0.45440E-1
4.52377E-1,-0.98663E-1
4.37713E-1,-1.41387E-1
4.19693E-1,-1.89849E-1
3.84185E-1,-2.47741E-1
3.52523E-1,-2.84820E-1
3.23242E-1,-3.31878E-1
2.89123E-1,-3.70697E-1
2.40493E-1,-4.09423E-1
1.85089E-1,-4.34204E-1
1.28295E-1,-4.58145E-1
0.64437E-1,-4.76745E-1
0.05249E-1,-4.79156E-1
-0.41351E-1,-4.73724E-1
-0.89309E-1,-4.64767E-1
-1.46087E-1,-4.52255E-1
-1.987E-1,-4.31793E-1
-2.41577E-1,-4.09927E-1
-2.74459E-1,-3.95736E-1
-3.18954E-1,-3.74191E-1
-3.58169E-1,-3.36776E-1
-3.95492E-1,-2.93014E-1
-4.27246E-1,-2.47299E-1
-4.487E-1,-2.10266E-1
-4.65377E-1,-1.78161E-1
-4.76211E-1,-1.43371E-1
-4.91516E-1,-0.94879E-1
-4.97894E-1,-0.42236E-1
-5.02258E-1,0.01098E-1
-5.13153E-1,0.34393E-1
-5.14984E-1,0.75134E-1
-5.06561E-1,1.20483E-1
-4.89502E-1,1.72622E-1
-4.69543E-1,2.21511E-1
-4.57229E-1,2.62313E-1
-4.37789E-1,2.97836E-1
-4.15191E-1,3.21151E-1
-3.82583E-1,3.55377E-1
-3.40576E-1,3.87725E-1
-3.07632E-1,4.18762E-1
-2.78549E-1,4.49966E-1
-2.46765E-1,4.64996E-1
-2.0784E-1,4.79736E-1
-1.57135E-1,4.88555E-1
-1.10290E-1,4.98489E-1
-0.65033E-1,5.15258E-1
-0.23254E-1,5.13336E-1
0.07171E-1,5.05523E-1
0.48767E-1,4.91180E-1
0.96694E-1,4.75784E-1
1.50817E-1,4.65377E-1
1.91253E-1,4.51095E-1
2.16705E-1,4.35241E-1
2.45864E-1,4.08325E-1
2.76062E-1,3.67752E-1
3.12530E-1,3.31665E-1
3.52111E-1,2.97302E-1
3.73931E-1,2.59872E-1
3.84841E-1,2.28057E-1
3.88305E-1,1.80847E-1
3.93127E-1,1.26754E-1
3.99917E-1,0.71228E-1
4.01474E-1,0.23223E-1
3.93676E-1,-0.11138E-1
3.72238E-1,-0.48736E-1
3.44177E-1,-0.87432E-1
3.18481E-1,-1.33178E-1
2.96096E-1,-1.79931E-1
2.67517E-1,-2.10907E-1
2.34474E-1,-2.33169E-1
1.86355E-1,-2.45124E-1
1.38809E-1,-2.59872E-1
0.84365E-1,-2.75573E-1
0.41091E-1,-2.78854E-1
0.06607E-1,-2.74673E-1
-0.29296E-1,-2.57034E-1
-0.66688E-1,-2.33482E-1
-1.10672E-1,-2.11250E-1
-1.42532E-1,-1.88468E-1
-1.61636E-1,-1.74079E-1
-1.80534E-1,-1.51672E-1
-1.91963E-1,-1.12739E-1
-2.09137E-1,-0.73127E-1
-2.23358E-1,-0.27854E-1
-2.25891E-1,-0.02166E-1
-2.29431E-1,0.20301E-1
-2.13409E-1,0.54245E-1
-1.87202E-1,0.87669E-1
-1.67793E-1,1.25839E-1
-1.44920E-1,1.50146E-1
-1.36230E-1,1.56677E-1
-1.19911E-1,1.63742E-1
-0.90995E-1,1.69021E-1
-0.56396E-1,1.79649E-1
-0.22468E-1,1.94282E-1
-0.02265E-1,1.99485E-1
0.13816E-1,1.98867E-1
0.39466E-1,1.82792E-1
0.76042E-1,1.57165E-1
1.07711E-1,1.34262E-1
1.29409E-1,1.19155E-1
1.33277E-1,1.04881E-1
1.27052E-1,0.81871E-1
1.27029E-1,0.49118E-1
1.30149E-1,0.12214E-1
1.41708E-1,-0.09597E-1
1.45500E-1,-0.27786E-1
END
BEGIN
-5.63842E-1,2.80426E-1
-4.75616E-1,2.80242E-1
-4.91439E-1,2.92022E-1
-4.49844E-1,3.56750E-1
-4.26132E-1,3.62731E-1
-4.08737E-1,4.24301E-1
-3.48724E-1,4.36065E-1
-3.61984E-1,4.39071E-1
-3.58642E-1,5.23040E-1
-3.03314E-1,5.75042E-1
-2.58575E-1,6.47949E-1
-1.31897E-1,6.73095E-1
-1.06964E-1,6.34918E-1
-0.86486E-1,7.21344E-1
0.50323E-1,7.47955E-1
1.17431E-1,7.41760E-1
2.52136E-1,7.35778E-1
3.01483E-1,6.32751E-1
2.98889E-1,6.52496E-1
4.16015E-1,6.58874E-1
4.79126E-1,6.10656E-1
5.98541E-1,5.90393E-1
6.72302E-1,4.38201E-1
6.54266E-1,3.86444E-1
7.42462E-1,3.3078E-1
7.44689E-1,2.06634E-1
7.72552E-1,1.54602E-1
7.77923E-1,-0.07232E-1
6.59668E-1,-0.58075E-1
6.58905E-1,-0.42358E-1
6.57714E-1,-0.97625E-1
6.59210E-1,-1.05041E-1
7.06451E-1,-1.94274E-1
6.27990E-1,-2.68432E-1
6.33941E-1,-2.49023E-1
6.86767E-1,-3.37280E-1
6.71997E-1,-4.29473E-1
6.66717E-1,-5.78796E-1
4.75006E-1,-6.93603E-1
3.88580E-1,-6.24389E-1
3.85101E-1,-6.75537E-1
2.85217E-1,-7.07916E-1
2.56500E-1,-7.24700E-1
1.38000E-1,-7.85644E-1
0.58288E-1,-7.05108E-1
0.77667E-1,-7.26898E-1
-0.22583E-1,-7.78076E-1
-0.77362E-1,-7.58422E-1
-1.77703E-1,-8.20617E-1
-3.37341E-1,-7.17468E-1
-3.24462E-1,-6.30462E-1
-3.60351E-1,-6.24969E-1
-3.85650E-1,-5.73486E-1
-4.07470E-1,-5.94482E-1
-5.12268E-1,-5.58410E-1
-5.22491E-1,-4.85229E-1
-5.57495E-1,-4.86175E-1
-6.12426E-1,-4.35974E-1
-6.53808E-1,-4.32464E-1
-7.96051E-1,-3.59161E-1
-7.91961E-1,-1.83227E-1
-7.58819E-1,-1.40594E-1
-7.61566E-1,-0.58410E-1
-7.13165E-1,-0.37078E-1
-7.81677E-1,-0.31311E-1
-8.04046E-1,1.02630E-1
-7.52716E-1,1.43890E-1
-7.88421E-1,1.92108E-1
-7.76031E-1,2.78625E-1
-8.00018E-1,3.45214E-1
-7.72064E-1,5.17700E-1
-6.33850E-1,5.81176E-1
-5.86761E-1,6.14074E-1
-4.85046E-1,6.66870E-1
-4.32983E-1,6.42181E-1
-4.14856E-1,6.91986E-1
-3.34655E-1,7.17620E-1
-3.14483E-1,7.29827E-1
-2.53418E-1,7.94494E-1
-1.83868E-1,7.93762E-1
-1.59545E-1,8.48938E-1
-0.4245E-1,9.11743E-1
0.61187E-1,9.09515E-1
1.85272E-1,9.16656E-1
2.93975E-1,8.27026E-1
3.05084E-1,7.98065E-1
4.04327E-1,8.05877E-1
4.82116E-1,7.18566E-1
5.15655E-1,6.94824E-1
6.01348E-1,6.38244E-1
6.15325E-1,5.82336E-1
6.91864E-1,5.83587E-1
8.01727E-1,4.82543E-1
8.18145E-1,3.73352E-1
8.57574E-1,2.85156E-1
8.40911E-1,1.70196E-1
8.26263E-1,1.26312E-1
8.42987E-1,0.40557E-1
7.93487E-1,-0.23254E-1
8.01208E-1,-0.47943E-1
8.04687E-1,-1.29669E-1
7.79144E-1,-1.73980E-1
8.00445E-1,-2.33642E-1
7.77343E-1,-3.26385E-1
7.59460E-1,-3.79913E-1
7.45269E-1,-4.92431E-1
6.39617E-1,-5.79589E-1
5.76599E-1,-5.99090E-1
5.17395E-1,-6.53869E-1
4.43573E-1,-6.72454E-1
3.94989E-1,-7.08801E-1
2.99133E-1,-7.30133E-1
2.54058E-1,-7.03186E-1
2.31109E-1,-7.31964E-1
1.66900E-1,-7.60131E-1
1.14074E-1,-7.82165E-1
0.24871E-1,-8.07251E-1
-0.58075E-1,-7.78595E-1
-1.11633E-1,-7.71423E-1
-1.95526E-1,-7.45575E-1
-2.30194E-1,-6.99523E-1
-2.74078E-1,-6.94885E-1
-3.35113E-1,-6.54449E-1
-3.60168E-1,-6.23626E-1
-4.05944E-1,-6.00830E-1
-4.33258E-1,-5.62377E-1
-4.64080E-1,-5.58105E-1
-5.27191E-1,-5.38726E-1
-5.82366E-1,-4.98992E-1
-6.44043E-1,-4.43206E-1
-6.65252E-1,-3.62426E-1
-6.73309E-1,-3.29162E-1
-7.19879E-1,-2.83416E-1
-7.38952E-1,-2.16827E-1
-7.63153E-1,-1.67175E-1
-7.75207E-1,-0.87982E-1
-7.58667E-1,-0.45898E-1
-7.91351E-1,-0.08850E-1
-8.13446E-1,0.74523E-1
-8.11737E-1,1.45294E-1
-8.12988E-1,2.30133E-1
-7.73407E-1,3.07617E-1
-7.56012E-1,3.61145E-1
-7.25524E-1,4.52179E-1
-6.63757E-1,5.06561E-1
-6.31500E-1,5.62286E-1
-5.57952E-1,6.25427E-1
-5.04791E-1,6.35986E-1
-4.73815E-1,6.79321E-1
-4.17205E-1,7.19787E-1
-3.78479E-1,7.64373E-1
-3.01605E-1,8.28338E-1
-2.06573E-1,8.43017E-1
-1.43951E-1,8.55835E-1
-0.63720E-1,8.65875E-1
0.00701E-1,8.68896E-1
0.88409E-1,8.83483E-1
1.80999E-1,8.51348E-1
2.31262E-1,8.26110E-1
3.04931E-1,8.15277E-1
3.66272E-1,7.84240E-1
4.36065E-1,7.69348E-1
5.19439E-1,7.25280E-1
5.78308E-1,6.67541E-1
6.36901E-1,6.20147E-1
6.91558E-1,5.54351E-1
7.29675E-1,4.93835E-1
7.74780E-1,4.29382E-1
8.07495E-1,3.53424E-1
8.28643E-1,2.85461E-1
8.48877E-1,2.11364E-1
8.54583E-1,1.40228E-1
8.64471E-1,0.76965E-1
8.71612E-1,0.02197E-1
8.69354E-1,-0.71289E-1
8.62518E-1,-1.46270E-1
8.44055E-1,-2.25677E-1
8.1604E-1,-2.90618E-1
7.94097E-1,-3.52966E-1
7.67334E-1,-4.22699E-1
7.29370E-1,-4.90142E-1
6.87377E-1,-5.59082E-1
6.22283E-1,-6.19537E-1
5.6427E-1,-6.59515E-1
5.11596E-1,-7.03002E-1
4.5224E-1,-7.44445E-1
3.92028E-1,-7.79846E-1
3.19335E-1,-8.18054E-1
2.42248E-1,-8.33740E-1
1.79870E-1,-8.45886E-1
1.07879E-1,-8.65142E-1
0.38177E-1,-8.70636E-1
-0.35522E-1,-8.86596E-1
-1.31805E-1,-8.78845E-1
-2.07458E-1,-8.51379E-1
-2.75848E-1,-8.30993E-1
-3.45825E-1,-7.99957E-1
-4.05120E-1,-7.70416E-1
-4.78942E-1,-7.39227E-1
-5.45867E-1,-6.86279E-1
-5.98693E-1,-6.32476E-1
END
BEGIN
-4.90371E-1,2.26562E-1
-4.78164E-1,2.80868E-1
-4.01931E-1,2.82165E-1
-4.44000E-1,2.47329E-1
-4.77569E-1,3.49166E-1
-4.25094E-1,3.89846E-1
-4.34783E-1,4.43618E-1
-3.64715E-1,5.21240E-1
-3.37951E-1,5.18951E-1
-3.49273E-1,6.24939E-1
-2.13287E-1,7.14172E-1
-1.24023E-1,7.13928E-1
-0.11444E-1,7.29461E-1
0.53375E-1,6.61377E-1
0.56549E-1,6.94335E-1
1.92047E-1,7.28515E-1
2.69165E-1,6.64367E-1
3.53973E-1,6.42883E-1
4.06707E-1,5.23834E-1
3.54797E-1,5.08941E-1
4.36706E-1,5.57342E-1
5.18646E-1,4.78241E-1
5.58593E-1,4.51232E-1
6.362E-1,3.52935E-1
5.90850E-1,2.85034E-1
6.34460E-1,3.16864E-1
7.24670E-1,2.26867E-1
7.36328E-1,1.52221E-1
7.84057E-1,0.40374E-1
7.00042E-1,-0.68084E-1
6.82006E-1,-0.40100E-1
7.51678E-1,-1.07360E-1
7.51007E-1,-1.96319E-1
7.70538E-1,-3.20037E-1
6.29913E-1,-4.43542E-1
5.55847E-1,-3.80249E-1
6.15112E-1,-4.14215E-1
5.90667E-1,-5.20660E-1
5.61676E-1,-6.21673E-1
4.01733E-1,-7.37396E-1
2.76550E-1,-6.41326E-1
3.23944E-1,-6.20849E-1
2.98126E-1,-7.06329E-1
2.49359E-1,-7.66754E-1
1.09985E-1,-8.76129E-1
-0.71380E-1,-7.79357E-1
-0.41137E-1,-7.06695E-1
-0.70159E-1,-7.65319E-1
-1.42211E-1,-7.72552E-1
-2.44720E-1,-8.27911E-1
-4.37622E-1,-7.27630E-1
-4.14947E-1,-5.84014E-1
-4.02587E-1,-6.01013E-1
-4.60327E-1,-5.85144E-1
-5.08361E-1,-6.01715E-1
-6.72302E-1,-5.44189E-1
-6.70806E-1,-3.61511E-1
-6.19079E-1,-3.46923E-1
-6.61071E-1,-3.26873E-1
-6.84600E-1,-3.04931E-1
-8.04138E-1,-2.64892E-1
-8.19122E-1,-0.66925E-1
-7.20306E-1,-0.22583E-1
-7.30835E-1,-0.15411E-1
-7.34832E-1,0.23193E-1
-7.99804E-1,0.49316E-1
-8.44665E-1,2.28088E-1
-7.11975E-1,3.18725E-1
-6.91162E-1,3.09265E-1
-6.88324E-1,3.65417E-1
-6.92443E-1,4.05273E-1
-7.04376E-1,5.45745E-1
-5.49987E-1,6.46637E-1
-4.76226E-1,6.14807E-1
-4.57153E-1,6.50909E-1
-4.14978E-1,6.82373E-1
-3.98956E-1,7.52716E-1
-2.71911E-1,8.39294E-1
-1.62200E-1,7.97699E-1
-1.27807E-1,7.90435E-1
-0.80108E-1,7.97607E-1
-0.47424E-1,8.44909E-1
0.85510E-1,9.05944E-1
2.03094E-1,8.30474E-1
2.34375E-1,8.03802E-1
3.08685E-1,7.78015E-1
3.29895E-1,7.54608E-1
4.15802E-1,8.03436E-1
5.75164E-1,7.41668E-1
6.20147E-1,6.41082E-1
6.70806E-1,5.85937E-1
6.88842E-1,5.20416E-1
7.39013E-1,5.17761E-1
8.63952E-1,4.31854E-1
8.89831E-1,2.79296E-1
8.82812E-1,1.81182E-1
8.46313E-1,0.98938E-1
8.46557E-1,0.95672E-1
9.34753E-1,0.13244E-1
9.15039E-1,-1.54327E-1
8.44085E-1,-2.33947E-1
7.88024E-1,-3.06671E-1
7.35076E-1,-3.19183E-1
7.71514E-1,-3.66638E-1
7.34130E-1,-5.00579E-1
6.42272E-1,-5.48278E-1
5.84594E-1,-6.03668E-1
4.84680E-1,-6.15203E-1
4.77630E-1,-6.06262E-1
4.56726E-1,-6.96929E-1
3.47503E-1,-7.50671E-1
2.61413E-1,-7.59979E-1
1.67938E-1,-7.39013E-1
1.52923E-1,-6.94274E-1
1.44531E-1,-7.41058E-1
0.51696E-1,-7.81738E-1
-0.34545E-1,-7.68402E-1
-1.15875E-1,-7.38311E-1
-1.44744E-1,-6.78131E-1
-1.42395E-1,-6.89239E-1
-2.06512E-1,-7.23449E-1
-2.94708E-1,-7.06634E-1
-3.74603E-1,-6.59881E-1
-4.12078E-1,-5.77056E-1
-4.02191E-1,-5.50964E-1
-4.44061E-1,-5.64361E-1
-5.14709E-1,-5.37323E-1
-5.79162E-1,-4.87213E-1
-6.11358E-1,-3.96026E-1
-5.82244E-1,-3.48938E-1
-6.01318E-1,-3.54461E-1
-6.66595E-1,-3.27423E-1
-7.21252E-1,-2.60314E-1
-7.45544E-1,-1.70196E-1
-7.16552E-1,-1.08978E-1
-7.18353E-1,-0.90576E-1
-7.51403E-1,-0.46325E-1
-7.72247E-1,0.21301E-1
-7.86377E-1,1.05133E-1
-7.52807E-1,1.90826E-1
-7.22595E-1,2.19207E-1
-7.29919E-1,2.59979E-1
-7.31262E-1,3.22784E-1
-7.24762E-1,4.06433E-1
-6.72271E-1,5.01007E-1
-6.11206E-1,5.39337E-1
-5.89447E-1,5.82794E-1
-5.57098E-1,6.45416E-1
-5.13366E-1,7.18048E-1
-4.19342E-1,7.99438E-1
-3.02215E-1,7.96661E-1
-2.67181E-1,7.88757E-1
-2.25616E-1,8.30474E-1
-1.58752E-1,8.75E-1
-0.56610E-1,9.18579E-1
0.69030E-1,8.9328E-1
1.24603E-1,8.47747E-1
1.78558E-1,8.44146E-1
2.48413E-1,8.39904E-1
3.35510E-1,8.31298E-1
4.34082E-1,7.82287E-1
4.78790E-1,7.15332E-1
5.22827E-1,6.83197E-1
5.72326E-1,6.45874E-1
6.31652E-1,6.15478E-1
7.06665E-1,5.56243E-1
7.45086E-1,4.75372E-1
7.74200E-1,4.13391E-1
8.03619E-1,3.47869E-1
8.32611E-1,2.93273E-1
8.73107E-1,2.22930E-1
8.94409E-1,1.35681E-1
8.98254E-1,0.54718E-1
8.95721E-1,-0.25512E-1
8.88793E-1,-0.98693E-1
8.79943E-1,-1.74133E-1
8.67919E-1,-2.51800E-1
8.47839E-1,-3.31817E-1
8.1427E-1,-4.11285E-1
7.70141E-1,-4.84069E-1
7.15789E-1,-5.48675E-1
6.64306E-1,-5.97168E-1
6.22192E-1,-6.5802E-1
5.59021E-1,-7.21984E-1
4.87304E-1,-7.75421E-1
4.00482E-1,-8.14361E-1
3.19061E-1,-8.21777E-1
2.64679E-1,-8.39172E-1
1.90826E-1,-8.65936E-1
1.16882E-1,-8.83697E-1
0.26641E-1,-9.00390E-1
-0.69213E-1,-8.80310E-1
-1.30096E-1,-8.46771E-1
-1.88293E-1,-8.37188E-1
-2.54882E-1,-8.23425E-1
-3.32794E-1,-8.12377E-1
-4.19738E-1,-7.64984E-1
-4.67834E-1,-7.02179E-1
-5.03936E-1,-6.66656E-1
-5.54687E-1,-6.28936E-1
-6.10961E-1,-5.87951E-1
END
BEGIN
-7.27233E-1,0.33874E-1
-7.08892E-1,1.25518E-1
-6.68945E-1,2.18780E-1
-6.14318E-1,2.92633E-1
-5.45105E-1,3.49853E-1
-4.78881E-1,3.78631E-1
-4.30984E-1,3.96911E-1
-4.01702E-1,4.14047E-1
-3.76571E-1,4.43145E-1
-3.44421E-1,4.75128E-1
-3.10211E-1,5.09033E-1
-2.63702E-1,5.42266E-1
-2.15881E-1,5.75775E-1
-1.46789E-1,6.08429E-1
-0.83709E-1,6.21398E-1
-0.16784E-1,6.33148E-1
0.52795E-1,6.31286E-1
1.20056E-1,6.26983E-1
1.95739E-1,6.16851E-1
2.57141E-1,5.82672E-1
3.15033E-1,5.51727E-1
3.68866E-1,5.11169E-1
4.23019E-1,4.66903E-1
4.72457E-1,4.07806E-1
5.11169E-1,3.48053E-1
5.53039E-1,2.86377E-1
5.77728E-1,2.16491E-1
5.99426E-1,1.49139E-1
6.02020E-1,0.72876E-1
6.09100E-1,0.07995E-1
6.04309E-1,-0.67382E-1
5.85876E-1,-1.32293E-1
5.70922E-1,-1.85699E-1
5.45105E-1,-2.41455E-1
5.23773E-1,-2.91748E-1
4.75326E-1,-3.47000E-1
4.32449E-1,-3.83743E-1
3.98345E-1,-4.27398E-1
3.46756E-1,-4.80148E-1
2.88208E-1,-5.03021E-1
2.3349E-1,-5.27465E-1
1.78894E-1,-5.45105E-1
1.18713E-1,-5.55511E-1
0.59509E-1,-5.69427E-1
-0.07843E-1,-5.62744E-1
-0.58898E-1,-5.64636E-1
-1.17065E-1,-5.50079E-1
-1.72332E-1,-5.32440E-1
-2.26593E-1,-5.12542E-1
-2.92251E-1,-4.81765E-1
-3.26965E-1,-4.38613E-1
-3.72772E-1,-4.12124E-1
-4.16900E-1,-3.74038E-1
-4.5401E-1,-3.30383E-1
-4.84237E-1,-2.86163E-1
-5.04333E-1,-2.38067E-1
-5.29785E-1,-1.92077E-1
-5.41748E-1,-1.34491E-1
-5.48492E-1,-0.75744E-1
-5.48034E-1,-0.20202E-1
-5.54351E-1,0.43792E-1
-5.40832E-1,0.98205E-1
-5.30059E-1,1.49780E-1
-5.14343E-1,2.09137E-1
-4.81567E-1,2.64648E-1
-4.54361E-1,3.08563E-1
-4.22042E-1,3.51394E-1
-3.90976E-1,3.97354E-1
-3.4552E-1,4.27795E-1
-2.94326E-1,4.50775E-1
-2.47222E-1,4.65393E-1
-1.84341E-1,4.94949E-1
-1.21063E-1,5.02349E-1
-0.71441E-1,5.08117E-1
-0.13336E-1,5.17669E-1
0.44250E-1,5.12023E-1
0.98587E-1,4.97741E-1
1.41952E-1,4.79766E-1
1.93359E-1,4.64904E-1
2.40783E-1,4.41360E-1
2.83248E-1,4.03991E-1
3.06198E-1,3.71215E-1
3.40087E-1,3.43780E-1
3.74694E-1,2.99743E-1
3.99505E-1,2.59384E-1
4.26971E-1,2.10250E-1
4.41482E-1,1.61773E-1
4.61898E-1,1.17538E-1
4.69497E-1,0.75485E-1
4.78683E-1,0.31738E-1
4.75585E-1,-0.10940E-1
4.65362E-1,-0.54901E-1
4.53292E-1,-0.91491E-1
4.42871E-1,-1.41265E-1
4.24850E-1,-1.89819E-1
3.99658E-1,-2.31491E-1
3.75900E-1,-2.68035E-1
3.47473E-1,-3.05801E-1
3.07373E-1,-3.42742E-1
2.80654E-1,-3.66241E-1
2.51449E-1,-4.01351E-1
2.22137E-1,-4.30099E-1
1.85363E-1,-4.53613E-1
1.54830E-1,-4.62570E-1
1.26709E-1,-4.77142E-1
0.81802E-1,-4.92813E-1
0.34851E-1,-4.95956E-1
-0.08438E-1,-4.96444E-1
-0.52047E-1,-4.95651E-1
-0.96725E-1,-4.95529E-1
-1.40014E-1,-4.92446E-1
-1.80328E-1,-4.79934E-1
-2.14782E-1,-4.71893E-1
-2.59750E-1,-4.56298E-1
-2.96402E-1,-4.33395E-1
-3.31787E-1,-4.13467E-1
-3.66607E-1,-3.89999E-1
-3.97216E-1,-3.62258E-1
-4.26086E-1,-3.29498E-1
-4.50012E-1,-2.93899E-1
-4.78530E-1,-2.51510E-1
-5.01403E-1,-2.08587E-1
-5.22827E-1,-1.68609E-1
-5.45562E-1,-1.30950E-1
-5.59967E-1,-0.86151E-1
-5.67962E-1,-0.41717E-1
-5.66955E-1,0.0177E-1
-5.67108E-1,0.39001E-1
-5.70556E-1,0.8255E-1
-5.58044E-1,1.33392E-1
-5.46295E-1,1.70562E-1
-5.28656E-1,2.17773E-1
-5.09185E-1,2.56195E-1
-4.92141E-1,2.97699E-1
-4.66384E-1,3.43612E-1
-4.35623E-1,3.76571E-1
-4.06799E-1,4.12445E-1
-3.71795E-1,4.40139E-1
-3.47610E-1,4.60800E-1
-3.16024E-1,4.88906E-1
-2.71789E-1,5.03936E-1
-2.35931E-1,5.13031E-1
-1.92169E-1,5.23864E-1
-1.51855E-1,5.32928E-1
-1.04827E-1,5.46051E-1
-0.55206E-1,5.48828E-1
-0.11352E-1,5.45562E-1
0.38421E-1,5.37658E-1
0.84411E-1,5.18249E-1
1.24145E-1,5.03265E-1
1.66641E-1,4.97467E-1
2.07733E-1,4.74365E-1
2.34161E-1,4.54864E-1
2.61184E-1,4.26147E-1
2.84515E-1,3.94149E-1
3.09646E-1,3.57971E-1
3.40240E-1,3.15918E-1
3.58474E-1,2.74139E-1
3.75915E-1,2.38983E-1
3.86154E-1,2.02102E-1
3.91174E-1,1.70288E-1
4.03732E-1,1.36230E-1
4.03976E-1,0.98068E-1
4.01931E-1,0.71884E-1
3.98712E-1,0.44174E-1
3.88595E-1,0.20263E-1
3.75244E-1,-0.01510E-1
3.60443E-1,-0.26245E-1
3.42208E-1,-0.46722E-1
3.26782E-1,-0.68908E-1
3.02902E-1,-0.9198E-1
2.81707E-1,-1.09268E-1
2.66342E-1,-1.30584E-1
2.50213E-1,-1.52587E-1
2.36671E-1,-1.72431E-1
2.14744E-1,-1.86607E-1
1.97471E-1,-1.86729E-1
1.84944E-1,-1.91833E-1
1.66214E-1,-2.01965E-1
1.44950E-1,-2.11082E-1
1.20330E-1,-2.15004E-1
1.03393E-1,-2.08869E-1
0.92102E-1,-2.08984E-1
0.74516E-1,-2.09289E-1
0.55183E-1,-2.11319E-1
0.30479E-1,-2.13882E-1
0.08857E-1,-2.07450E-1
0.03402E-1,-2.08442E-1
-0.05607E-1,-2.12356E-1
-0.10009E-1,-2.11792E-1
-0.20332E-1,-2.10983E-1
-0.33676E-1,-1.96533E-1
-0.32211E-1,-1.83731E-1
-0.39001E-1,-1.85096E-1
-0.47355E-1,-1.83242E-1
-0.60302E-1,-1.85272E-1
-0.76255E-1,-1.73271E-1
-0.82565E-1,-1.60141E-1
-0.91484E-1,-1.62658E-1
-1.07673E-1,-1.60781E-1
-1.22283E-1,-1.61102E-1
END
