CITIFILE A.01.01
#NA VERSION HP8510C.08.10
NAME DATA
#NA REGISTER 4
VAR FREQ MAG 201
DATA S[1,1] RI
DATA S[2,1] RI
DATA S[1,2] RI
DATA S[2,2] RI
SEG_LIST_BEGIN
SEG 8000000000 12000000000 201
SEG_LIST_END
COMMENT       YEAR MONTH DAY HOUR MINUTE SECONDS
CONSTANT TIME 2013   12   09  20    52    03.0
BEGIN
-6.48010E-1,0.02227E-1
-6.48986E-1,0.68115E-1
-6.40838E-1,1.44195E-1
-6.31134E-1,2.11761E-1
-6.06689E-1,2.82104E-1
-5.73913E-1,3.43139E-1
-5.35369E-1,4.02496E-1
-4.97055E-1,4.56649E-1
-4.42932E-1,5.13793E-1
-3.86718E-1,5.56121E-1
-3.29162E-1,5.94543E-1
-2.63214E-1,6.22070E-1
-2.00012E-1,6.47979E-1
-1.20300E-1,6.66564E-1
-0.54382E-1,6.73522E-1
0.16174E-1,6.75476E-1
0.85815E-1,6.62475E-1
1.48834E-1,6.49658E-1
2.23602E-1,6.30645E-1
2.80944E-1,5.92315E-1
3.40667E-1,5.62316E-1
3.92822E-1,5.19470E-1
4.39605E-1,4.76287E-1
4.79400E-1,4.25369E-1
5.11077E-1,3.74694E-1
5.51025E-1,3.21533E-1
5.76080E-1,2.60528E-1
5.97534E-1,2.00134E-1
6.04187E-1,1.36993E-1
6.17462E-1,0.80139E-1
6.18866E-1,0.08972E-1
6.04980E-1,-0.54016E-1
5.94940E-1,-1.12945E-1
5.70465E-1,-1.72210E-1
5.53680E-1,-2.28149E-1
5.09185E-1,-2.83630E-1
4.75631E-1,-3.21762E-1
4.42688E-1,-3.68133E-1
3.95248E-1,-4.16778E-1
2.90771E-1,-4.02954E-1
2.02163E-1,-3.30642E-1
2.49176E-1,-4.84634E-1
1.97387E-1,-4.99298E-1
1.46820E-1,-5.15258E-1
0.91552E-1,-5.10437E-1
0.52063E-1,-5.16326E-1
0.05584E-1,-5.08148E-1
-0.37048E-1,-5.02349E-1
-0.76828E-1,-4.97680E-1
-1.30767E-1,-4.88128E-1
-1.58126E-1,-4.65499E-1
-1.97982E-1,-4.59808E-1
-2.42309E-1,-4.39392E-1
-2.79296E-1,-4.13345E-1
-3.15170E-1,-3.85742E-1
-3.45397E-1,-3.54721E-1
-3.81469E-1,-3.29650E-1
-4.06829E-1,-2.87048E-1
-4.24011E-1,-2.47940E-1
-4.39071E-1,-2.14889E-1
-4.65576E-1,-1.70974E-1
-4.74105E-1,-1.31500E-1
-4.8349E-1,-0.92971E-1
-4.90432E-1,-0.52490E-1
-4.88616E-1,-0.09658E-1
-4.91607E-1,0.31356E-1
-4.88189E-1,0.74813E-1
-4.87533E-1,1.25595E-1
-4.66888E-1,1.65054E-1
-4.46487E-1,1.99783E-1
-4.3013E-1,2.32605E-1
-4.04388E-1,2.81021E-1
-3.74633E-1,3.14117E-1
-3.49716E-1,3.40866E-1
-3.19671E-1,3.71078E-1
-2.82409E-1,3.98696E-1
-2.38754E-1,4.25033E-1
-2.00454E-1,4.47723E-1
-1.51519E-1,4.73632E-1
-1.01684E-1,4.83184E-1
-0.48477E-1,4.82528E-1
-0.04287E-1,4.74624E-1
0.48538E-1,4.78256E-1
1.07391E-1,4.65133E-1
1.49612E-1,4.50149E-1
1.93130E-1,4.28527E-1
2.30224E-1,3.97354E-1
2.76870E-1,3.65295E-1
3.17581E-1,3.27682E-1
3.56063E-1,2.86102E-1
3.82354E-1,2.42874E-1
3.98773E-1,1.92779E-1
4.09469E-1,1.4505E-1
4.21264E-1,0.83007E-1
4.21112E-1,0.25619E-1
4.13452E-1,-0.21209E-1
4.06448E-1,-0.61080E-1
3.9505E-1,-1.07910E-1
3.67614E-1,-1.62323E-1
3.43856E-1,-2.00332E-1
3.20892E-1,-2.46963E-1
2.91946E-1,-2.87719E-1
2.47314E-1,-3.25943E-1
1.96823E-1,-3.48220E-1
1.46530E-1,-3.69033E-1
0.91613E-1,-3.85696E-1
0.43670E-1,-3.89068E-1
0.05401E-1,-3.87802E-1
-0.35110E-1,-3.83575E-1
-0.83847E-1,-3.74221E-1
-1.28707E-1,-3.59481E-1
-1.65313E-1,-3.45840E-1
-1.95770E-1,-3.37738E-1
-2.35824E-1,-3.19427E-1
-2.69043E-1,-2.86727E-1
-2.99758E-1,-2.49710E-1
-3.24859E-1,-2.13974E-1
-3.43460E-1,-1.86035E-1
-3.58154E-1,-1.62979E-1
-3.69613E-1,-1.36398E-1
-3.81134E-1,-0.95352E-1
-3.85879E-1,-0.53421E-1
-3.93096E-1,-0.19683E-1
-4.05426E-1,0.06805E-1
-4.07882E-1,0.40466E-1
-3.98864E-1,0.78338E-1
-3.80554E-1,1.18408E-1
-3.64624E-1,1.54983E-1
-3.55590E-1,1.87377E-1
-3.42254E-1,2.11761E-1
-3.25225E-1,2.29904E-1
-2.95929E-1,2.52365E-1
-2.65350E-1,2.74063E-1
-2.41500E-1,2.99911E-1
-2.19604E-1,3.22311E-1
-1.98928E-1,3.32504E-1
-1.68167E-1,3.39080E-1
-1.31408E-1,3.39019E-1
-0.96511E-1,3.48495E-1
-0.61554E-1,3.57437E-1
-0.37994E-1,3.52813E-1
-0.18768E-1,3.44329E-1
0.06240E-1,3.26934E-1
0.38513E-1,3.15887E-1
0.76507E-1,3.03329E-1
0.97610E-1,2.92831E-1
1.10839E-1,2.84408E-1
1.20529E-1,2.60788E-1
1.32255E-1,2.32696E-1
1.58393E-1,2.07077E-1
1.81251E-1,1.77551E-1
1.85607E-1,1.58599E-1
1.83990E-1,1.38755E-1
1.69883E-1,1.10412E-1
1.61842E-1,0.77041E-1
1.56082E-1,0.4496E-1
1.47460E-1,0.26229E-1
1.37634E-1,0.17036E-1
1.13571E-1,0.87966E-2
8.78334E-2,-0.14534E-2
6.48460E-2,-2.11906E-2
4.23889E-2,-3.59649E-2
2.65121E-2,-3.55987E-2
0.50630E-2,-2.63223E-2
-2.23588E-2,-0.52604E-2
-4.81033E-2,0.97808E-2
-7.06634E-2,2.41012E-2
-7.72743E-2,4.22782E-2
-7.60307E-2,6.28433E-2
-7.32994E-2,9.66339E-2
-0.67207E-1,1.28898E-1
-0.66818E-1,1.52008E-1
-0.56114E-1,1.71714E-1
-0.37063E-1,1.78413E-1
-0.12451E-1,1.94496E-1
0.20324E-1,2.13600E-1
0.43762E-1,2.30804E-1
0.69496E-1,2.44316E-1
0.95298E-1,2.35405E-1
1.24557E-1,2.26219E-1
1.70112E-1,2.12974E-1
2.11906E-1,1.97258E-1
2.43957E-1,1.87141E-1
2.66204E-1,1.60369E-1
2.73803E-1,1.27838E-1
2.89199E-1,0.87661E-1
3.10913E-1,0.46951E-1
3.32717E-1,0.10223E-1
3.45886E-1,-0.22735E-1
3.41049E-1,-0.58319E-1
3.29116E-1,-1.04156E-1
3.13568E-1,-1.61377E-1
3.00415E-1,-2.19085E-1
2.83721E-1,-2.61306E-1
2.57339E-1,-2.92541E-1
2.10983E-1,-3.17184E-1
1.56570E-1,-3.42681E-1
1.04553E-1,-3.75228E-1
0.60989E-1,-3.99459E-1
0.28060E-1,-4.12994E-1
-0.18524E-1,-4.12017E-1
END
BEGIN
-6.85791E-1,3.32366E-1
-5.89660E-1,3.61663E-1
-6.00738E-1,4.13482E-1
-5.19958E-1,5.25207E-1
-4.48272E-1,5.49926E-1
-3.63159E-1,6.20697E-1
-2.53021E-1,5.83007E-1
-2.66174E-1,5.54809E-1
-2.40081E-1,6.27410E-1
-1.78619E-1,6.48101E-1
-1.19659E-1,7.05505E-1
0.01098E-1,6.82159E-1
-0.08270E-1,6.48254E-1
0.41290E-1,7.46643E-1
1.82098E-1,7.31140E-1
2.42248E-1,7.16796E-1
3.70208E-1,6.72546E-1
3.77685E-1,5.76355E-1
3.93310E-1,6.16058E-1
5.19683E-1,5.89355E-1
5.72753E-1,5.32684E-1
6.91436E-1,4.73297E-1
7.09106E-1,3.16711E-1
6.92016E-1,2.87292E-1
7.68707E-1,2.04986E-1
7.39959E-1,0.97747E-1
7.64831E-1,0.39733E-1
7.22778E-1,-1.04492E-1
6.20636E-1,-1.07330E-1
6.45080E-1,-0.98175E-1
6.41601E-1,-1.54632E-1
6.58203E-1,-1.71112E-1
6.82373E-1,-2.81860E-1
5.98388E-1,-3.27941E-1
6.28692E-1,-3.25927E-1
6.54510E-1,-4.45861E-1
6.11846E-1,-5.40344E-1
5.48339E-1,-6.90216E-1
3.43933E-1,-7.16918E-1
3.10424E-1,-6.45263E-1
2.89123E-1,-7.13714E-1
1.94305E-1,-7.14721E-1
1.64489E-1,-7.39532E-1
0.40100E-1,-7.63000E-1
0.03051E-1,-6.88751E-1
0.05798E-1,-7.39471E-1
-1.09344E-1,-7.65564E-1
-1.57836E-1,-7.50366E-1
-2.85156E-1,-7.80609E-1
-3.88641E-1,-6.49536E-1
-3.63769E-1,-6.00280E-1
-4.12567E-1,-5.94329E-1
-4.33532E-1,-5.53741E-1
-4.82666E-1,-5.75256E-1
-5.80535E-1,-5.08026E-1
-5.82794E-1,-4.48608E-1
-6.36749E-1,-4.39971E-1
-6.87072E-1,-3.76373E-1
-7.47558E-1,-3.55773E-1
-8.58459E-1,-2.25280E-1
-7.98767E-1,-0.79864E-1
-7.77801E-1,-0.51666E-1
-7.67395E-1,0.24749E-1
-7.44110E-1,0.30456E-1
-8.237E-1,0.81176E-1
-8.00079E-1,2.18536E-1
-7.61474E-1,2.4646E-1
-7.89154E-1,3.24066E-1
-7.53814E-1,4.11621E-1
-7.55615E-1,5.04882E-1
-6.56372E-1,6.52954E-1
-5.30212E-1,6.59271E-1
-4.85473E-1,6.92138E-1
-3.84277E-1,7.11364E-1
-3.59619E-1,6.95312E-1
-3.22418E-1,7.55249E-1
-2.46215E-1,7.65289E-1
-2.22198E-1,7.94616E-1
-1.34826E-1,8.46221E-1
-0.72113E-1,8.39019E-1
-0.16265E-1,9.01733E-1
1.25274E-1,9.20959E-1
2.21221E-1,8.91326E-1
3.41247E-1,8.59161E-1
4.01184E-1,7.59063E-1
4.18487E-1,7.54241E-1
5.26947E-1,7.29187E-1
5.71960E-1,6.40564E-1
6.15997E-1,6.21704E-1
6.88018E-1,5.45684E-1
7.02484E-1,5.03692E-1
7.96142E-1,4.73419E-1
8.64379E-1,3.39538E-1
8.56903E-1,2.47283E-1
8.78784E-1,1.54846E-1
8.44604E-1,0.65155E-1
8.42254E-1,0.24200E-1
8.44696E-1,-0.65307E-1
8.03192E-1,-1.12182E-1
8.19793E-1,-1.54174E-1
8.07006E-1,-2.42004E-1
7.85583E-1,-2.87292E-1
7.94433E-1,-3.67614E-1
7.50030E-1,-4.57366E-1
7.21588E-1,-5.20324E-1
6.68396E-1,-6.31927E-1
5.52703E-1,-6.81488E-1
4.95575E-1,-6.98761E-1
4.25628E-1,-7.44049E-1
3.54980E-1,-7.55065E-1
2.94738E-1,-7.89581E-1
2.01324E-1,-7.92175E-1
1.62994E-1,-7.75146E-1
1.19171E-1,-8.08349E-1
0.44128E-1,-8.24523E-1
-0.21850E-1,-8.39263E-1
-1.21337E-1,-8.39691E-1
-1.94915E-1,-7.98065E-1
-2.54486E-1,-7.83081E-1
-3.30902E-1,-7.40051E-1
-3.62854E-1,-6.97845E-1
-4.17724E-1,-6.83929E-1
-4.72839E-1,-6.31439E-1
-5.02960E-1,-5.98846E-1
-5.52429E-1,-5.61401E-1
-5.80688E-1,-5.18341E-1
-6.25488E-1,-4.99298E-1
-6.90033E-1,-4.51904E-1
-7.38159E-1,-3.90716E-1
-7.82653E-1,-3.12316E-1
-7.85675E-1,-2.30072E-1
-7.98675E-1,-1.88354E-1
-8.33984E-1,-1.17523E-1
-8.36975E-1,-0.41107E-1
-8.48907E-1,0.25970E-1
-8.37677E-1,1.09710E-1
-8.20251E-1,1.56036E-1
-8.38226E-1,2.23480E-1
-8.23761E-1,3.19427E-1
-7.95410E-1,3.94866E-1
-7.58361E-1,4.80255E-1
-6.97204E-1,5.41320E-1
-6.58935E-1,5.97930E-1
-5.93811E-1,6.70715E-1
-5.24047E-1,7.08374E-1
-4.64813E-1,7.57415E-1
-3.80767E-1,7.90710E-1
-3.26995E-1,8.04626E-1
-2.63610E-1,8.43109E-1
-1.86889E-1,8.66424E-1
-1.13189E-1,8.92700E-1
-0.13641E-1,9.06311E-1
0.70190E-1,8.90899E-1
1.43920E-1,8.82110E-1
2.24121E-1,8.63464E-1
2.97149E-1,8.41461E-1
3.79486E-1,8.08410E-1
4.47296E-1,7.59521E-1
5.05127E-1,7.1875E-1
5.71197E-1,6.71051E-1
6.24176E-1,6.16058E-1
6.78344E-1,5.57312E-1
7.23693E-1,4.90600E-1
7.60986E-1,4.20501E-1
7.90954E-1,3.51257E-1
8.16589E-1,2.80792E-1
8.32641E-1,2.06512E-1
8.43963E-1,1.37176E-1
8.56811E-1,0.61767E-1
8.54736E-1,-0.15167E-1
8.48815E-1,-0.90972E-1
8.30902E-1,-1.69799E-1
8.02917E-1,-2.32238E-1
7.86377E-1,-2.95379E-1
7.54486E-1,-3.67858E-1
7.18933E-1,-4.30053E-1
6.72790E-1,-4.99389E-1
6.13586E-1,-5.44647E-1
5.76324E-1,-5.86334E-1
5.22338E-1,-6.46392E-1
4.56573E-1,-6.87439E-1
3.91296E-1,-7.30072E-1
3.06732E-1,-7.51098E-1
2.47802E-1,-7.56622E-1
1.87988E-1,-7.79418E-1
1.15112E-1,-7.89642E-1
0.50018E-1,-7.93731E-1
-0.26580E-1,-7.95349E-1
-0.92926E-1,-7.76245E-1
-1.52008E-1,-7.67425E-1
-2.25158E-1,-7.50488E-1
-2.86499E-1,-7.19940E-1
-3.50219E-1,-6.92901E-1
-4.0802E-1,-6.50085E-1
-4.58679E-1,-6.10748E-1
-5.12023E-1,-5.69091E-1
-5.61615E-1,-5.13519E-1
-5.97808E-1,-4.54437E-1
-6.28051E-1,-3.99444E-1
-6.63665E-1,-3.44574E-1
-6.93512E-1,-2.76397E-1
END
BEGIN
-6.15783E-1,2.79907E-1
-6.07269E-1,3.67736E-1
-4.98870E-1,4.17312E-1
-5.12146E-1,3.93219E-1
-5.28259E-1,5.32836E-1
-4.04998E-1,5.91613E-1
-3.66516E-1,6.30310E-1
-2.41943E-1,6.81488E-1
-2.00805E-1,6.27410E-1
-2.09808E-1,7.16766E-1
-0.53283E-1,7.75604E-1
0.3125E-1,7.41485E-1
1.40808E-1,7.30194E-1
1.87255E-1,6.38244E-1
1.80297E-1,6.66503E-1
3.15521E-1,6.83746E-1
3.78418E-1,6.05224E-1
4.54559E-1,5.73394E-1
4.88449E-1,4.43527E-1
4.27108E-1,4.32739E-1
5.07232E-1,4.73541E-1
5.76171E-1,3.85528E-1
6.07574E-1,3.55133E-1
6.72454E-1,2.50488E-1
6.14257E-1,1.8573E-1
6.53198E-1,2.14752E-1
7.29797E-1,1.21551E-1
7.29400E-1,0.49743E-1
7.65045E-1,-0.61309E-1
6.70288E-1,-1.60339E-1
6.50207E-1,-1.2854E-1
7.09594E-1,-1.95159E-1
6.99798E-1,-2.78442E-1
7.09533E-1,-3.95874E-1
5.62408E-1,-5.07080E-1
4.90570E-1,-4.37225E-1
5.42816E-1,-4.70092E-1
5.11657E-1,-5.67138E-1
4.76593E-1,-6.57562E-1
3.16345E-1,-7.52594E-1
2.08160E-1,-6.58783E-1
2.45941E-1,-6.35284E-1
2.17498E-1,-7.11364E-1
1.69769E-1,-7.63336E-1
0.39154E-1,-8.60473E-1
-1.32293E-1,-7.69744E-1
-1.0672E-1,-6.98211E-1
-1.37115E-1,-7.50824E-1
-2.08099E-1,-7.54577E-1
-3.05023E-1,-8.04138E-1
-4.96276E-1,-7.11639E-1
-4.84466E-1,-5.62805E-1
-4.71435E-1,-5.70953E-1
-5.28167E-1,-5.49652E-1
-5.74066E-1,-5.58166E-1
-7.34893E-1,-5.01983E-1
-7.42095E-1,-3.09814E-1
-6.84509E-1,-2.82836E-1
-7.2229E-1,-2.55218E-1
-7.39105E-1,-2.24243E-1
-8.49609E-1,-1.82525E-1
-8.67370E-1,0.22491E-1
-7.56713E-1,0.78033E-1
-7.57782E-1,0.89202E-1
-7.51129E-1,1.33575E-1
-8.03253E-1,1.58935E-1
-8.48297E-1,3.37219E-1
-7.03674E-1,4.42535E-1
-6.64062E-1,4.31854E-1
-6.48040E-1,4.8703E-1
-6.37420E-1,5.22796E-1
-6.40716E-1,6.58081E-1
-4.70489E-1,7.64038E-1
-3.75915E-1,7.20581E-1
-3.46099E-1,7.41882E-1
-2.93060E-1,7.59460E-1
-2.70233E-1,8.15612E-1
-1.39526E-1,8.91082E-1
-0.22735E-1,8.35845E-1
0.16143E-1,8.13690E-1
0.65673E-1,8.05297E-1
0.99914E-1,8.35632E-1
2.27294E-1,8.79119E-1
3.41064E-1,7.93823E-1
3.70849E-1,7.52746E-1
4.37591E-1,7.13165E-1
4.54254E-1,6.77490E-1
5.28442E-1,7.08526E-1
6.68731E-1,6.42974E-1
7.07916E-1,5.37994E-1
7.48291E-1,4.75006E-1
7.59155E-1,4.03930E-1
7.95471E-1,3.90045E-1
9.00390E-1,3.03802E-1
9.17785E-1,1.58783E-1
9.02557E-1,0.59753E-1
8.59344E-1,-0.24566E-1
8.47991E-1,-0.34027E-1
9.16961E-1,-1.12335E-1
8.92120E-1,-2.66937E-1
8.17047E-1,-3.45275E-1
7.55889E-1,-4.14306E-1
6.99340E-1,-4.27978E-1
7.22961E-1,-4.75402E-1
6.76788E-1,-5.99304E-1
5.82855E-1,-6.44500E-1
5.17730E-1,-6.96441E-1
4.14825E-1,-7.05993E-1
3.96850E-1,-6.96044E-1
3.65112E-1,-7.76336E-1
2.54577E-1,-8.21655E-1
1.64489E-1,-8.25958E-1
0.67657E-1,-8.00537E-1
0.46020E-1,-7.54486E-1
0.26977E-1,-7.93823E-1
-0.69519E-1,-8.21777E-1
-1.57959E-1,-8.00109E-1
-2.40509E-1,-7.62634E-1
-2.74627E-1,-6.97998E-1
-2.80212E-1,-7.00042E-1
-3.51226E-1,-7.19177E-1
-4.38171E-1,-6.88171E-1
-5.14831E-1,-6.30889E-1
-5.48919E-1,-5.42694E-1
-5.43823E-1,-5.09552E-1
-5.90850E-1,-5.06134E-1
-6.57440E-1,-4.62188E-1
-7.15332E-1,-3.97369E-1
-7.38098E-1,-3.00628E-1
-7.12127E-1,-2.47467E-1
-7.34375E-1,-2.35229E-1
-7.90222E-1,-1.82739E-1
-8.26995E-1,-1.00799E-1
-8.32733E-1,-0.03265E-1
-7.98950E-1,0.60852E-1
-7.98156E-1,0.96252E-1
-8.14453E-1,1.62048E-1
-8.11859E-1,2.42492E-1
-7.96478E-1,3.34045E-1
-7.43255E-1,4.10675E-1
-7.06848E-1,4.48211E-1
-6.91162E-1,5.06103E-1
-6.57714E-1,5.77362E-1
-6.08917E-1,6.59515E-1
-5.23773E-1,7.24700E-1
-4.55444E-1,7.52319E-1
-4.03961E-1,7.96905E-1
-3.33465E-1,8.44940E-1
-2.50030E-1,8.89160E-1
-1.34918E-1,9.08966E-1
-0.50689E-1,8.79394E-1
0.01251E-1,8.80523E-1
0.77606E-1,8.96698E-1
1.67663E-1,8.97064E-1
2.70385E-1,8.72467E-1
3.47442E-1,8.11676E-1
3.95629E-1,7.74078E-1
4.60205E-1,7.44751E-1
5.27557E-1,7.05841E-1
5.97045E-1,6.52130E-1
6.48956E-1,5.80902E-1
6.79595E-1,5.22522E-1
7.22076E-1,4.66857E-1
7.58697E-1,4.05334E-1
7.97943E-1,3.40759E-1
8.25103E-1,2.61566E-1
8.34655E-1,1.90918E-1
8.47686E-1,1.22222E-1
8.53729E-1,0.47180E-1
8.57788E-1,-0.25177E-1
8.52783E-1,-1.03790E-1
8.41888E-1,-1.75750E-1
8.27667E-1,-2.51525E-1
7.99377E-1,-3.28521E-1
7.61993E-1,-4.02404E-1
7.13073E-1,-4.64813E-1
6.74041E-1,-5.18432E-1
6.31988E-1,-5.82977E-1
5.72082E-1,-6.46942E-1
5.00946E-1,-6.97204E-1
4.20684E-1,-7.28454E-1
3.61846E-1,-7.44812E-1
3.02215E-1,-7.82287E-1
2.22808E-1,-8.10791E-1
1.39099E-1,-8.27087E-1
0.50293E-1,-8.21899E-1
-0.16998E-1,-7.97119E-1
-0.73669E-1,-7.95288E-1
-1.47216E-1,-7.86468E-1
-2.17742E-1,-7.69134E-1
-2.93853E-1,-7.39929E-1
-3.54888E-1,-6.89697E-1
-3.97094E-1,-6.49108E-1
-4.49585E-1,-6.13006E-1
-5.00091E-1,-5.71411E-1
-5.52795E-1,-5.21545E-1
-5.88531E-1,-4.62585E-1
-6.17614E-1,-4.09301E-1
-6.49322E-1,-3.51104E-1
-6.72485E-1,-2.85675E-1
-6.87042E-1,-2.15911E-1
END
BEGIN
-6.53320E-1,0.58776E-1
-6.48437E-1,1.31439E-1
-6.33239E-1,2.10571E-1
-6.14196E-1,2.84149E-1
-5.74371E-1,3.60626E-1
-5.26763E-1,4.22668E-1
-4.74945E-1,4.82360E-1
-4.23400E-1,5.36254E-1
-3.56079E-1,5.86181E-1
-2.84149E-1,6.19262E-1
-2.13958E-1,6.47644E-1
-1.38580E-1,6.63879E-1
-0.64758E-1,6.78466E-1
0.25970E-1,6.77398E-1
0.97595E-1,6.63818E-1
1.72576E-1,6.47796E-1
2.43103E-1,6.17370E-1
3.09295E-1,5.87341E-1
3.80188E-1,5.45379E-1
4.25659E-1,4.89532E-1
4.71771E-1,4.36828E-1
5.10620E-1,3.75885E-1
5.48706E-1,3.12744E-1
5.76049E-1,2.37304E-1
5.92712E-1,1.66534E-1
6.11297E-1,0.92193E-1
6.10595E-1,0.17944E-1
6.07482E-1,-0.53588E-1
5.84869E-1,-1.24450E-1
5.69976E-1,-1.88842E-1
5.40191E-1,-2.55004E-1
5.01861E-1,-3.07678E-1
4.70031E-1,-3.53653E-1
4.26788E-1,-3.96530E-1
3.87496E-1,-4.39361E-1
3.22586E-1,-4.71649E-1
2.71896E-1,-4.93820E-1
2.22198E-1,-5.25695E-1
1.52557E-1,-5.53375E-1
0.9198E-1,-5.53527E-1
0.31738E-1,-5.55542E-1
-0.25329E-1,-5.51818E-1
-0.84625E-1,-5.39123E-1
-1.43981E-1,-5.28350E-1
-2.00286E-1,-4.96597E-1
-2.47009E-1,-4.78500E-1
-2.91595E-1,-4.44854E-1
-3.34198E-1,-4.09301E-1
-3.75762E-1,-3.72543E-1
-4.21356E-1,-3.21884E-1
-4.36767E-1,-2.75512E-1
-4.68414E-1,-2.37625E-1
-4.94552E-1,-1.89849E-1
-5.11444E-1,-1.40045E-1
-5.23193E-1,-0.90911E-1
-5.23925E-1,-0.41381E-1
-5.30273E-1,0.10009E-1
-5.20233E-1,0.67016E-1
-5.05218E-1,1.24298E-1
-4.86434E-1,1.74682E-1
-4.66568E-1,2.35122E-1
-4.36111E-1,2.76260E-1
-4.08493E-1,3.19961E-1
-3.69934E-1,3.66394E-1
-3.20922E-1,4.00909E-1
-2.80365E-1,4.29336E-1
-2.37106E-1,4.51858E-1
-1.90414E-1,4.79064E-1
-1.38320E-1,4.85946E-1
-0.83358E-1,4.85046E-1
-0.34576E-1,4.82177E-1
0.33477E-1,4.78973E-1
0.86776E-1,4.63241E-1
1.32064E-1,4.54544E-1
1.87866E-1,4.38156E-1
2.33337E-1,4.10873E-1
2.72735E-1,3.76190E-1
2.99865E-1,3.46740E-1
3.39187E-1,3.13095E-1
3.69308E-1,2.71881E-1
3.87954E-1,2.21832E-1
3.94363E-1,1.84814E-1
4.11056E-1,1.47628E-1
4.21142E-1,0.97686E-1
4.25903E-1,0.53497E-1
4.26864E-1,0.02502E-1
4.19525E-1,-0.41259E-1
4.17038E-1,-0.84091E-1
4.07913E-1,-1.14791E-1
3.98407E-1,-1.51916E-1
3.76922E-1,-1.82846E-1
3.50555E-1,-2.13638E-1
3.26736E-1,-2.39654E-1
2.98309E-1,-2.74368E-1
2.67730E-1,-3.05618E-1
2.34146E-1,-3.28048E-1
2.04025E-1,-3.48953E-1
1.68396E-1,-3.67431E-1
1.27868E-1,-3.78936E-1
1.05438E-1,-3.90838E-1
0.73776E-1,-4.09530E-1
0.43548E-1,-4.22454E-1
0.07232E-1,-4.27017E-1
-0.16677E-1,-4.22699E-1
-0.43792E-1,-4.25888E-1
-0.85174E-1,-4.21157E-1
-1.20163E-1,-4.06951E-1
-1.52999E-1,-3.94470E-1
-1.85745E-1,-3.81347E-1
-2.19116E-1,-3.69705E-1
-2.50717E-1,-3.56933E-1
-2.75390E-1,-3.37356E-1
-2.98507E-1,-3.23349E-1
-3.27407E-1,-2.97607E-1
-3.48068E-1,-2.70019E-1
-3.70117E-1,-2.45346E-1
-3.90014E-1,-2.17453E-1
-4.05105E-1,-1.88430E-1
-4.18365E-1,-1.54953E-1
-4.27963E-1,-1.21215E-1
-4.37912E-1,-0.78750E-1
-4.44519E-1,-0.40329E-1
-4.51675E-1,-0.05264E-1
-4.60418E-1,0.28671E-1
-4.58801E-1,0.65399E-1
-4.51248E-1,1.00097E-1
-4.37393E-1,1.29287E-1
-4.26666E-1,1.56143E-1
-4.15542E-1,1.90200E-1
-3.90350E-1,2.23053E-1
-3.70803E-1,2.48077E-1
-3.43154E-1,2.75802E-1
-3.19381E-1,2.97134E-1
-2.96112E-1,3.20678E-1
-2.65533E-1,3.43994E-1
-2.36236E-1,3.56796E-1
-2.05368E-1,3.70925E-1
-1.77581E-1,3.76449E-1
-1.56478E-1,3.83804E-1
-1.29043E-1,3.90960E-1
-0.97137E-1,3.84017E-1
-0.71350E-1,3.76510E-1
-0.40557E-1,3.66394E-1
-0.12664E-1,3.59649E-1
0.19714E-1,3.51562E-1
0.48675E-1,3.39569E-1
0.71548E-1,3.24752E-1
0.92285E-1,3.03009E-1
1.05819E-1,2.78945E-1
1.17507E-1,2.63809E-1
1.37466E-1,2.51892E-1
1.47941E-1,2.29202E-1
1.49253E-1,2.14599E-1
1.46766E-1,1.96060E-1
1.41174E-1,1.78031E-1
1.40693E-1,1.60110E-1
1.41761E-1,1.36367E-1
1.38397E-1,1.19720E-1
1.37130E-1,1.09108E-1
1.33102E-1,1.02661E-1
1.32865E-1,1.03149E-1
1.33987E-1,0.98556E-1
1.32118E-1,0.98495E-1
1.31553E-1,1.03706E-1
1.30096E-1,1.09748E-1
1.30569E-1,1.19049E-1
1.32911E-1,1.25289E-1
1.37138E-1,1.30302E-1
1.42860E-1,1.33651E-1
1.47636E-1,1.34628E-1
1.53884E-1,1.37245E-1
1.65145E-1,1.34239E-1
1.78375E-1,1.23977E-1
1.92947E-1,1.08261E-1
2.07527E-1,0.93421E-1
2.21328E-1,0.83374E-1
2.41302E-1,0.74302E-1
2.56973E-1,0.59295E-1
2.65655E-1,0.38574E-1
2.68661E-1,0.18127E-1
2.71255E-1,0.00488E-1
2.82012E-1,-0.20156E-1
2.88162E-1,-0.48797E-1
2.88436E-1,-0.76660E-1
2.82287E-1,-1.06185E-1
2.71118E-1,-1.32934E-1
2.64633E-1,-1.59347E-1
2.56057E-1,-1.98211E-1
2.42759E-1,-2.32193E-1
2.29721E-1,-2.66342E-1
2.07885E-1,-2.89947E-1
1.90856E-1,-3.03878E-1
1.74072E-1,-3.27163E-1
1.40838E-1,-3.47778E-1
1.09130E-1,-3.65417E-1
0.67642E-1,-3.78173E-1
0.33905E-1,-3.77151E-1
0.01113E-1,-3.85467E-1
-0.45471E-1,-3.93737E-1
-0.92880E-1,-3.95599E-1
-1.41265E-1,-3.89938E-1
END
