CITIFILE A.01.01
#NA VERSION HP8510C.08.10
NAME DATA
#NA REGISTER 4
VAR FREQ MAG 201
DATA S[1,1] RI
DATA S[2,1] RI
DATA S[1,2] RI
DATA S[2,2] RI
SEG_LIST_BEGIN
SEG 8000000000 12000000000 201
SEG_LIST_END
COMMENT       YEAR MONTH DAY HOUR MINUTE SECONDS
CONSTANT TIME 2013   12   09  20    41    14.0
BEGIN
-5.54382E-1,-1.24298E-1
-5.70800E-1,-0.81939E-1
-5.87493E-1,-0.26184E-1
-5.98999E-1,0.26733E-1
-6.04797E-1,0.90026E-1
-5.98205E-1,1.50421E-1
-5.86486E-1,2.11029E-1
-5.73486E-1,2.67700E-1
-5.47943E-1,3.35937E-1
-5.12542E-1,3.92822E-1
-4.75387E-1,4.46182E-1
-4.27246E-1,4.91195E-1
-3.82598E-1,5.35858E-1
-3.16803E-1,5.81817E-1
-2.58361E-1,6.07879E-1
-1.94915E-1,6.35070E-1
-1.27685E-1,6.46575E-1
-0.67565E-1,6.57104E-1
0.05432E-1,6.67968E-1
0.72601E-1,6.51092E-1
1.37756E-1,6.44348E-1
2.01049E-1,6.21948E-1
2.56805E-1,6.00250E-1
3.13446E-1,5.69702E-1
3.59619E-1,5.33874E-1
4.14856E-1,5.01312E-1
4.61868E-1,4.51919E-1
5.04333E-1,4.06524E-1
5.38940E-1,3.50585E-1
5.70617E-1,3.01635E-1
5.99060E-1,2.37762E-1
6.11175E-1,1.69769E-1
6.22375E-1,1.10931E-1
6.24115E-1,0.45043E-1
6.28753E-1,-0.12176E-1
6.09466E-1,-0.80932E-1
5.92712E-1,-1.30432E-1
5.80841E-1,-1.84753E-1
5.60485E-1,-2.50793E-1
5.19866E-1,-2.95898E-1
4.87838E-1,-3.39767E-1
4.55932E-1,-3.82156E-1
4.12841E-1,-4.21936E-1
3.71398E-1,-4.63394E-1
3.11203E-1,-4.89929E-1
2.72705E-1,-5.14160E-1
2.21679E-1,-5.31616E-1
1.70654E-1,-5.46447E-1
1.23809E-1,-5.6073E-1
0.57708E-1,-5.74707E-1
0.12481E-1,-5.59722E-1
-0.33325E-1,-5.66528E-1
-0.88348E-1,-5.61706E-1
-1.37847E-1,-5.46508E-1
-1.87835E-1,-5.29815E-1
-2.33459E-1,-5.04241E-1
-2.78701E-1,-4.89379E-1
-3.20144E-1,-4.55139E-1
-3.52172E-1,-4.20303E-1
-3.80340E-1,-3.90914E-1
-4.20410E-1,-3.53057E-1
-4.42382E-1,-3.15078E-1
-4.67041E-1,-2.82440E-1
-4.91027E-1,-2.43362E-1
-5.03418E-1,-1.98761E-1
-5.17700E-1,-1.60858E-1
-5.29724E-1,-1.17828E-1
-5.52795E-1,-0.71991E-1
-5.52276E-1,-0.24688E-1
-5.51635E-1,0.16632E-1
-5.49163E-1,0.57586E-1
-5.46295E-1,1.14715E-1
-5.33447E-1,1.63879E-1
-5.18676E-1,2.03155E-1
-5.07263E-1,2.44873E-1
-4.84619E-1,2.91351E-1
-4.54376E-1,3.36395E-1
-4.26040E-1,3.77868E-1
-3.90274E-1,4.29199E-1
-3.54385E-1,4.66812E-1
-2.97454E-1,4.92553E-1
-2.47650E-1,5.05218E-1
-1.99554E-1,5.31372E-1
-1.34155E-1,5.51666E-1
-0.85418E-1,5.57434E-1
-0.34332E-1,5.63720E-1
0.20874E-1,5.54046E-1
0.76965E-1,5.48614E-1
1.38336E-1,5.34942E-1
2.00347E-1,5.15167E-1
2.52304E-1,4.90722E-1
2.99072E-1,4.53247E-1
3.3078E-1,4.11529E-1
3.76007E-1,3.66134E-1
4.11987E-1,3.11615E-1
4.34433E-1,2.61856E-1
4.55993E-1,2.21710E-1
4.76226E-1,1.73522E-1
4.89044E-1,1.06979E-1
4.89334E-1,0.47790E-1
4.93133E-1,-0.15060E-1
4.888E-1,-0.74020E-1
4.72564E-1,-1.38336E-1
4.38156E-1,-1.89498E-1
4.02679E-1,-2.39074E-1
3.60611E-1,-2.89032E-1
3.17916E-1,-3.27011E-1
2.78381E-1,-3.55575E-1
2.38052E-1,-3.76586E-1
1.87347E-1,-4.00573E-1
1.32522E-1,-4.14779E-1
0.82565E-1,-4.26406E-1
0.42266E-1,-4.3573E-1
-0.08712E-1,-4.44946E-1
-0.59463E-1,-4.33685E-1
-1.09603E-1,-4.14886E-1
-1.55426E-1,-3.93508E-1
-1.93847E-1,-3.75961E-1
-2.24578E-1,-3.64242E-1
-2.51449E-1,-3.51455E-1
-2.88742E-1,-3.24569E-1
-3.19381E-1,-2.87841E-1
-3.49319E-1,-2.54760E-1
-3.79501E-1,-2.33139E-1
-4.09591E-1,-2.05383E-1
-4.28604E-1,-1.64245E-1
-4.36477E-1,-1.16348E-1
-4.41391E-1,-0.69793E-1
-4.53292E-1,-0.30487E-1
-4.63806E-1,0.06835E-1
-4.65271E-1,0.37735E-1
-4.54788E-1,0.77179E-1
-4.39453E-1,1.16333E-1
-4.28466E-1,1.59774E-1
-4.22866E-1,2.00561E-1
-4.12460E-1,2.33749E-1
-3.89160E-1,2.62390E-1
-3.58230E-1,2.86132E-1
-3.29284E-1,3.16223E-1
-2.99957E-1,3.52264E-1
-2.71957E-1,3.75869E-1
-2.47802E-1,3.90197E-1
-2.15942E-1,3.95172E-1
-1.78680E-1,4.08096E-1
-1.27594E-1,4.21524E-1
-0.91705E-1,4.32571E-1
-0.62667E-1,4.41940E-1
-0.35095E-1,4.34371E-1
-0.04806E-1,4.22546E-1
0.40100E-1,4.13833E-1
0.84747E-1,4.05960E-1
1.24984E-1,3.96743E-1
1.50070E-1,3.79638E-1
1.63833E-1,3.54324E-1
1.86981E-1,3.20861E-1
2.12966E-1,2.84683E-1
2.38388E-1,2.53036E-1
2.51510E-1,2.27203E-1
2.49717E-1,2.05925E-1
2.48649E-1,1.79588E-1
2.49984E-1,1.39946E-1
2.55828E-1,0.97381E-1
2.52853E-1,0.61569E-1
2.39997E-1,0.38383E-1
2.16232E-1,0.23857E-1
1.89773E-1,0.05706E-1
1.60720E-1,-0.14686E-1
1.39595E-1,-0.27298E-1
1.25999E-1,-0.30273E-1
1.12995E-1,-2.08473E-2
1.00677E-1,-0.89187E-2
8.18672E-2,-0.74005E-2
6.57806E-2,-0.90332E-2
5.93776E-2,-1.38626E-2
5.42831E-2,-1.08165E-2
5.56087E-2,0.56896E-2
5.15213E-2,1.87568E-2
4.05807E-2,3.52859E-2
3.95698E-2,3.95240E-2
4.22592E-2,3.84330E-2
6.03427E-2,4.41093E-2
8.38661E-2,4.70352E-2
9.14382E-2,5.62248E-2
1.01417E-1,6.07414E-2
1.02069E-1,4.80499E-2
1.08043E-1,3.22799E-2
1.25602E-1,0.14793E-1
1.40953E-1,-0.00099E-1
1.47880E-1,-0.04440E-1
1.42303E-1,-0.08552E-1
1.36222E-1,-0.15800E-1
1.42433E-1,-0.38650E-1
1.55723E-1,-0.70892E-1
1.66175E-1,-0.92773E-1
1.71432E-1,-1.10412E-1
1.54136E-1,-1.27960E-1
1.28166E-1,-1.51794E-1
1.03324E-1,-1.84410E-1
0.84205E-1,-2.12173E-1
0.80398E-1,-2.30026E-1
0.60257E-1,-2.43103E-1
END
BEGIN
-6.79718E-1,2.01171E-1
-6.17065E-1,2.43957E-1
-6.40960E-1,3.13476E-1
-5.73944E-1,4.32312E-1
-5.12146E-1,4.72534E-1
-4.33654E-1,5.51910E-1
-3.32366E-1,5.28778E-1
-3.46283E-1,5.16754E-1
-3.18420E-1,5.99243E-1
-2.57476E-1,6.28967E-1
-1.95159E-1,6.93573E-1
-0.78521E-1,6.75231E-1
-0.87707E-1,6.55761E-1
-0.26825E-1,7.62908E-1
1.15051E-1,7.47192E-1
1.78985E-1,7.40173E-1
3.06915E-1,6.96228E-1
3.12774E-1,6.11755E-1
3.41064E-1,6.62139E-1
4.74243E-1,6.31805E-1
5.31219E-1,5.80139E-1
6.53930E-1,5.14465E-1
6.65405E-1,3.65722E-1
6.59484E-1,3.4552E-1
7.38067E-1,2.59796E-1
7.12554E-1,1.60034E-1
7.45513E-1,1.02508E-1
7.01385E-1,-0.34637E-1
6.14288E-1,-0.29602E-1
6.52099E-1,-0.23193E-1
6.55029E-1,-0.81298E-1
6.84021E-1,-1.02142E-1
7.10449E-1,-2.22229E-1
6.31408E-1,-2.65106E-1
6.76055E-1,-2.71911E-1
7.01873E-1,-4.06524E-1
6.59027E-1,-5.08606E-1
5.83801E-1,-6.66290E-1
3.79974E-1,-6.78375E-1
3.58429E-1,-6.11755E-1
3.35754E-1,-6.87194E-1
2.40600E-1,-6.93573E-1
2.10205E-1,-7.27356E-1
0.78277E-1,-7.45941E-1
0.52612E-1,-6.72454E-1
0.51422E-1,-7.35168E-1
-0.71319E-1,-7.54791E-1
-1.16638E-1,-7.41485E-1
-2.52044E-1,-7.63366E-1
-3.34198E-1,-6.22467E-1
-2.99957E-1,-5.87921E-1
-3.47686E-1,-5.88470E-1
-3.62915E-1,-5.56213E-1
-4.17968E-1,-5.86761E-1
-5.13061E-1,-5.16784E-1
-5.08270E-1,-4.70550E-1
-5.67840E-1,-4.68963E-1
-6.16851E-1,-4.11041E-1
-6.85638E-1,-3.98071E-1
-7.90466E-1,-2.58056E-1
-7.18719E-1,-1.34429E-1
-7.08862E-1,-1.22314E-1
-7.04345E-1,-0.55542E-1
-6.92230E-1,-0.60119E-1
-7.85217E-1,-0.11016E-1
-7.63763E-1,1.21490E-1
-7.39654E-1,1.38732E-1
-7.81127E-1,2.19451E-1
-7.53723E-1,3.05175E-1
-7.68493E-1,4.04541E-1
-6.63055E-1,5.54168E-1
-5.47058E-1,5.46112E-1
-5.18219E-1,5.80505E-1
-4.28314E-1,5.96618E-1
-4.22515E-1,5.80963E-1
-3.97766E-1,6.51519E-1
-3.32641E-1,6.64550E-1
-3.24798E-1,7.04772E-1
-2.43713E-1,7.68920E-1
-0.52246E-1,8.36395E-1
-1.49292E-1,8.51593E-1
-0.02410E-1,8.84185E-1
0.89141E-1,8.63128E-1
2.10327E-1,8.39691E-1
2.57934E-1,7.44964E-1
2.66815E-1,7.62542E-1
3.84338E-1,7.53906E-1
4.23553E-1,6.75781E-1
4.70275E-1,6.79992E-1
5.50079E-1,6.15448E-1
5.6604E-1,5.91125E-1
6.80236E-1,5.80078E-1
7.58361E-1,4.44946E-1
7.54180E-1,3.64227E-1
7.88604E-1,2.81311E-1
7.58575E-1,2.03582E-1
7.72460E-1,1.79290E-1
7.91595E-1,0.96466E-1
7.64679E-1,0.59112E-1
8.08471E-1,0.24261E-1
8.15734E-1,-0.68603E-1
8.11492E-1,-1.13616E-1
8.44421E-1,-2.01355E-1
8.11431E-1,-3.02002E-1
8.00262E-1,-3.72924E-1
7.54425E-1,-5.02563E-1
6.43432E-1,-5.54138E-1
6.02142E-1,-5.77209E-1
5.39917E-1,-6.34491E-1
4.80468E-1,-6.54205E-1
4.28863E-1,-7.03308E-1
3.39965E-1,-7.16705E-1
3.11218E-1,-7.12829E-1
2.70690E-1,-7.62054E-1
1.96807E-1,-7.89337E-1
1.33575E-1,-8.17596E-1
0.33447E-1,-8.30108E-1
-0.38116E-1,-7.99438E-1
-0.96618E-1,-7.98950E-1
-1.74408E-1,-7.67974E-1
-2.06085E-1,-7.41607E-1
-2.6651E-1,-7.42919E-1
-3.28460E-1,-7.01965E-1
-3.64074E-1,-6.80145E-1
-4.22729E-1,-6.53167E-1
-4.56756E-1,-6.19476E-1
-5.08606E-1,-6.13616E-1
-5.85022E-1,-5.75714E-1
-6.42944E-1,-5.20843E-1
-6.97387E-1,-4.51355E-1
-7.08496E-1,-3.73016E-1
-7.30041E-1,-3.43048E-1
-7.81158E-1,-2.80059E-1
-7.96325E-1,-2.06268E-1
-8.19824E-1,-1.46575E-1
-8.22174E-1,-0.64605E-1
-8.14758E-1,-0.24688E-1
-8.54553E-1,0.35186E-1
-8.57635E-1,1.35559E-1
-8.43231E-1,2.10205E-1
-8.26507E-1,2.99804E-1
-7.75268E-1,3.64868E-1
-7.57110E-1,4.21752E-1
-7.09075E-1,5.06317E-1
-6.52252E-1,5.47119E-1
-6.13952E-1,6.07849E-1
-5.39520E-1,6.52191E-1
-5.04638E-1,6.68914E-1
-4.66735E-1,7.25616E-1
-4.03930E-1,7.69805E-1
-3.49609E-1,8.21746E-1
-2.50457E-1,8.68164E-1
-1.67327E-1,8.63952E-1
-1.07269E-1,8.79974E-1
-0.27862E-1,8.88580E-1
0.43273E-1,8.95080E-1
1.38824E-1,8.93768E-1
2.13134E-1,8.56811E-1
2.65716E-1,8.45459E-1
3.47595E-1,8.32977E-1
4.15832E-1,8.04626E-1
5.00732E-1,7.78289E-1
5.80474E-1,7.15850E-1
6.33056E-1,6.57226E-1
6.93176E-1,6.00952E-1
7.41210E-1,5.33355E-1
7.82989E-1,4.69543E-1
8.24401E-1,3.95294E-1
8.50860E-1,3.19641E-1
8.73443E-1,2.5E-1
8.93676E-1,1.73278E-1
9.04876E-1,0.96832E-1
9.12811E-1,0.19561E-1
9.11987E-1,-0.63659E-1
9.02374E-1,-1.45080E-1
8.86383E-1,-2.24426E-1
8.60534E-1,-3.07098E-1
8.23364E-1,-3.78997E-1
7.89550E-1,-4.42627E-1
7.49420E-1,-5.17089E-1
6.97174E-1,-5.81176E-1
6.41174E-1,-6.46728E-1
5.64880E-1,-6.97387E-1
4.98901E-1,-7.28424E-1
4.39209E-1,-7.65594E-1
3.67401E-1,-7.96234E-1
3.03192E-1,-8.20190E-1
2.25585E-1,-8.43872E-1
1.55273E-1,-8.42895E-1
0.99334E-1,-8.54095E-1
0.22491E-1,-8.67004E-1
-0.47882E-1,-8.64349E-1
-1.27746E-1,-8.69476E-1
-2.14202E-1,-8.42163E-1
-2.77038E-1,-8.12988E-1
-3.43811E-1,-7.89428E-1
-4.06738E-1,-7.53356E-1
-4.67590E-1,-7.21221E-1
-5.34210E-1,-6.73645E-1
-5.82855E-1,-6.23291E-1
-6.34887E-1,-5.76080E-1
END
BEGIN
-6.40686E-1,1.63055E-1
-6.56951E-1,2.51953E-1
-5.69030E-1,3.46313E-1
-5.51483E-1,3.29589E-1
-5.95092E-1,4.44549E-1
-4.88861E-1,5.41870E-1
-4.48516E-1,5.85113E-1
-3.36456E-1,6.69311E-1
-2.58026E-1,6.23565E-1
-2.82348E-1,6.81976E-1
-1.52038E-1,7.78045E-1
-0.49774E-1,7.59521E-1
0.65460E-1,7.70629E-1
1.50634E-1,6.78497E-1
1.36230E-1,6.76879E-1
2.51678E-1,7.20489E-1
3.38012E-1,6.49658E-1
4.14581E-1,6.25885E-1
4.88510E-1,4.94232E-1
4.23400E-1,4.41238E-1
4.69665E-1,4.86587E-1
5.50842E-1,4.13940E-1
5.73150E-1,3.80767E-1
6.53778E-1,2.95837E-1
6.04339E-1,2.01263E-1
6.07635E-1,2.30896E-1
6.87774E-1,1.69158E-1
6.93267E-1,0.98693E-1
7.45971E-1,0.11871E-1
6.76635E-1,-1.18316E-1
6.24603E-1,-0.94329E-1
6.80694E-1,-1.28173E-1
6.84570E-1,-2.00225E-1
7.21252E-1,-2.92236E-1
6.17675E-1,-4.49737E-1
5.01556E-1,-4.03137E-1
5.44952E-1,-4.00116E-1
5.40435E-1,-4.86572E-1
5.32714E-1,-5.65856E-1
4.21081E-1,-7.16827E-1
2.46185E-1,-6.54418E-1
2.70477E-1,-5.9375E-1
2.66937E-1,-6.56585E-1
2.36084E-1,-7.03826E-1
1.52832E-1,-8.33068E-1
-0.66528E-1,-7.99285E-1
-0.69976E-1,-6.86920E-1
-0.73577E-1,-7.24975E-1
-1.34918E-1,-7.32238E-1
-1.96075E-1,-7.97119E-1
-4.15161E-1,-7.70202E-1
-4.50500E-1,-5.87402E-1
-4.14825E-1,-5.73516E-1
-4.61059E-1,-5.5896E-1
-4.81109E-1,-5.70526E-1
-6.38122E-1,-5.73394E-1
-7.08435E-1,-3.73504E-1
-6.37542E-1,-3.13751E-1
-6.62017E-1,-2.96051E-1
-6.65252E-1,-2.6828E-1
-7.61993E-1,-2.75116E-1
-8.52386E-1,-0.90576E-1
-7.45025E-1,0.18066E-1
-7.22686E-1,0.25878E-1
-7.09564E-1,0.65490E-1
-7.44751E-1,0.57647E-1
-8.51348E-1,1.86920E-1
-7.44628E-1,3.5672E-1
-6.72637E-1,3.54156E-1
-6.57989E-1,3.97583E-1
-6.39068E-1,4.16595E-1
-6.92108E-1,5.13732E-1
-5.73211E-1,6.92108E-1
-4.28833E-1,6.71966E-1
-3.94622E-1,6.72729E-1
-3.38684E-1,6.84722E-1
-3.38897E-1,7.11303E-1
-2.58636E-1,8.23944E-1
-1.05255E-1,8.07769E-1
-0.53222E-1,7.67059E-1
-0.04638E-1,7.49267E-1
0.01159E-1,7.57049E-1
0.76721E-1,8.35754E-1
2.25555E-1,7.96173E-1
2.63519E-1,7.35229E-1
3.27850E-1,7.05963E-1
3.41918E-1,6.48529E-1
3.59802E-1,6.88324E-1
4.92218E-1,6.96044E-1
5.68756E-1,6.03881E-1
6.12884E-1,5.50293E-1
6.36535E-1,4.72656E-1
6.40655E-1,4.63501E-1
7.41210E-1,4.46411E-1
8.19152E-1,3.28155E-1
8.34869E-1,2.23541E-1
8.16436E-1,1.16394E-1
7.69866E-1,0.99060E-1
8.36486E-1,0.85571E-1
8.89068E-1,-0.48889E-1
8.47320E-1,-1.59973E-1
8.07983E-1,-2.51800E-1
7.32666E-1,-2.90405E-1
7.52166E-1,-2.96173E-1
7.70599E-1,-4.10064E-1
6.95739E-1,-4.96063E-1
6.49017E-1,-5.62194E-1
5.40039E-1,-6.20513E-1
4.93652E-1,-5.92559E-1
5.03479E-1,-6.53106E-1
4.26208E-1,-7.38189E-1
3.36975E-1,-7.74749E-1
2.20977E-1,-7.88330E-1
1.60736E-1,-7.23907E-1
1.68426E-1,-7.38128E-1
1.03912E-1,-7.96630E-1
0.12756E-1,-8.09234E-1
-0.85479E-1,-8.02917E-1
-1.56005E-1,-7.31140E-1
-1.47399E-1,-7.06024E-1
-1.84021E-1,-7.43011E-1
-2.68737E-1,-7.50091E-1
-3.65142E-1,-7.29492E-1
-4.46746E-1,-6.44989E-1
-4.39880E-1,-5.80658E-1
-4.60449E-1,-5.89386E-1
-5.25604E-1,-5.76232E-1
-6.00921E-1,-5.42816E-1
-6.73309E-1,-4.51324E-1
-6.53991E-1,-3.57299E-1
-6.46087E-1,-3.49853E-1
-6.98486E-1,-3.33679E-1
-7.57690E-1,-2.81555E-1
-8.07098E-1,-1.92962E-1
-7.88909E-1,-0.96954E-1
-7.71057E-1,-0.64025E-1
-7.95257E-1,-0.21209E-1
-8.13598E-1,0.4245E-1
-8.37493E-1,1.21734E-1
-8.19335E-1,2.26013E-1
-7.73437E-1,2.78717E-1
-7.63824E-1,3.22570E-1
-7.50915E-1,3.85467E-1
-7.39990E-1,4.59899E-1
-6.96289E-1,5.58746E-1
-6.24145E-1,6.15142E-1
-5.84808E-1,6.58599E-1
-5.36560E-1,7.14508E-1
-4.86175E-1,7.69714E-1
-4.06158E-1,8.43963E-1
-2.90832E-1,8.68499E-1
-2.24426E-1,8.63678E-1
-1.66992E-1,8.91723E-1
-0.92132E-1,9.17999E-1
0.00701E-1,9.43969E-1
1.14654E-1,9.28497E-1
1.90582E-1,8.87542E-1
2.56835E-1,8.70239E-1
3.30810E-1,8.49670E-1
4.0979E-1,8.26934E-1
4.97467E-1,7.8125E-1
5.53588E-1,7.15850E-1
6.02142E-1,6.69952E-1
6.54541E-1,6.19018E-1
7.08770E-1,5.70037E-1
7.67791E-1,5.04730E-1
8.04992E-1,4.26178E-1
8.34930E-1,3.57330E-1
8.60473E-1,2.83142E-1
8.80340E-1,2.11303E-1
8.97735E-1,1.35894E-1
9.10400E-1,0.55664E-1
9.10827E-1,-0.26214E-1
9.03106E-1,-1.09344E-1
8.85864E-1,-1.90338E-1
8.57818E-1,-2.64221E-1
8.37554E-1,-3.29315E-1
8.13079E-1,-4.05700E-1
7.72949E-1,-4.83184E-1
7.20336E-1,-5.55236E-1
6.51184E-1,-6.12884E-1
5.97778E-1,-6.46148E-1
5.53131E-1,-7.00408E-1
4.86236E-1,-7.53479E-1
4.14459E-1,-7.98156E-1
3.23455E-1,-8.27301E-1
2.45056E-1,-8.22082E-1
1.94152E-1,-8.33313E-1
1.26586E-1,-8.51043E-1
0.60516E-1,-8.65722E-1
-0.25207E-1,-8.81805E-1
-1.16546E-1,-8.58612E-1
-1.73339E-1,-8.28430E-1
-2.36022E-1,-8.17718E-1
-3.02093E-1,-7.99102E-1
-3.77868E-1,-7.82684E-1
-4.56817E-1,-7.35717E-1
-5.03997E-1,-6.78772E-1
-5.48614E-1,-6.41571E-1
-6.01593E-1,-5.95092E-1
-6.55761E-1,-5.44738E-1
END
BEGIN
-5.62774E-1,1.94763E-1
-5.50354E-1,2.48962E-1
-5.29754E-1,3.10668E-1
-5.05645E-1,3.69293E-1
-4.63607E-1,4.33136E-1
-4.11682E-1,4.84283E-1
-3.56933E-1,5.34027E-1
-3.01513E-1,5.78460E-1
-2.31933E-1,6.17095E-1
-1.57928E-1,6.40014E-1
-0.87097E-1,6.56311E-1
-0.11230E-1,6.60644E-1
0.62347E-1,6.62292E-1
1.51550E-1,6.48010E-1
2.20245E-1,6.21307E-1
2.90405E-1,5.92926E-1
3.54126E-1,5.50567E-1
4.12994E-1,5.09796E-1
4.76425E-1,4.55413E-1
5.10833E-1,3.89617E-1
5.46539E-1,3.29467E-1
5.74066E-1,2.61932E-1
5.99487E-1,1.92382E-1
6.13586E-1,1.13037E-1
6.16119E-1,0.38665E-1
6.19964E-1,-0.35949E-1
6.05651E-1,-1.08947E-1
5.89202E-1,-1.78710E-1
5.55481E-1,-2.45666E-1
5.28778E-1,-3.06060E-1
4.87182E-1,-3.66836E-1
4.39468E-1,-4.12490E-1
3.99536E-1,-4.49935E-1
3.49166E-1,-4.85336E-1
3.03161E-1,-5.20355E-1
2.30926E-1,-5.42907E-1
1.76391E-1,-5.56396E-1
1.22222E-1,-5.79345E-1
0.49774E-1,-5.97168E-1
-0.13793E-1,-5.88287E-1
-0.76355E-1,-5.80749E-1
-1.34826E-1,-5.69061E-1
-1.95709E-1,-5.48889E-1
-2.56805E-1,-5.30761E-1
-3.14559E-1,-4.90966E-1
-3.63067E-1,-4.63501E-1
-4.07257E-1,-4.19647E-1
-4.50607E-1,-3.73382E-1
-4.91180E-1,-3.24157E-1
-5.34393E-1,-2.60925E-1
-5.43975E-1,-2.03155E-1
-5.69519E-1,-1.54388E-1
-5.89263E-1,-0.95001E-1
-5.97503E-1,-0.33721E-1
-5.99060E-1,0.26306E-1
-5.87860E-1,0.85266E-1
-5.80810E-1,1.44012E-1
-5.57617E-1,2.07366E-1
-5.27648E-1,2.69134E-1
-4.93652E-1,3.22570E-1
-4.55429E-1,3.83880E-1
-4.07836E-1,4.22042E-1
-3.66775E-1,4.60128E-1
-3.15734E-1,5.04333E-1
-2.52471E-1,5.33752E-1
-1.97845E-1,5.55542E-1
-1.41601E-1,5.67382E-1
-0.86212E-1,5.83618E-1
-0.23681E-1,5.80749E-1
0.41259E-1,5.68573E-1
0.99273E-1,5.53924E-1
1.76788E-1,5.35644E-1
2.31903E-1,5.03173E-1
2.80258E-1,4.81277E-1
3.38195E-1,4.50027E-1
3.86444E-1,4.06906E-1
4.26635E-1,3.55133E-1
4.49585E-1,3.09005E-1
4.84985E-1,2.63351E-1
4.99099E-1,2.07626E-1
5.23529E-1,1.44287E-1
5.19500E-1,0.93200E-1
5.23986E-1,0.43151E-1
5.23590E-1,-0.15777E-1
5.17303E-1,-0.70007E-1
5.05340E-1,-1.28173E-1
4.85336E-1,-1.79046E-1
4.67102E-1,-2.27401E-1
4.40338E-1,-2.59628E-1
4.17877E-1,-2.98675E-1
3.82431E-1,-3.31344E-1
3.41827E-1,-3.62731E-1
3.04214E-1,-3.86474E-1
2.62039E-1,-4.16671E-1
2.20809E-1,-4.42291E-1
1.73507E-1,-4.58984E-1
1.31546E-1,-4.72305E-1
0.82260E-1,-4.83535E-1
0.31356E-1,-4.85397E-1
0.02258E-1,-4.85900E-1
-0.36651E-1,-4.96749E-1
-0.71945E-1,-4.97772E-1
-1.12884E-1,-4.91928E-1
-1.41296E-1,-4.74441E-1
-1.69921E-1,-4.65454E-1
-2.15011E-1,-4.51278E-1
-2.53067E-1,-4.25933E-1
-2.87017E-1,-4.01001E-1
-3.17489E-1,-3.75732E-1
-3.46923E-1,-3.53439E-1
-3.75442E-1,-3.29772E-1
-3.98193E-1,-2.97851E-1
-4.16214E-1,-2.71148E-1
-4.40719E-1,-2.36770E-1
-4.56802E-1,-2.01965E-1
-4.72763E-1,-1.69509E-1
-4.85733E-1,-1.33865E-1
-4.91287E-1,-0.95672E-1
-4.93728E-1,-0.55557E-1
-4.94812E-1,-0.16967E-1
-4.97207E-1,0.29327E-1
-4.95666E-1,0.70282E-1
-4.92584E-1,1.09100E-1
-4.90142E-1,1.41708E-1
-4.81018E-1,1.78497E-1
-4.66644E-1,2.15621E-1
-4.43420E-1,2.48046E-1
-4.24255E-1,2.75680E-1
-4.03808E-1,3.08242E-1
-3.72940E-1,3.38272E-1
-3.47259E-1,3.63143E-1
-3.09448E-1,3.92593E-1
-2.75299E-1,4.11590E-1
-2.41531E-1,4.31839E-1
-2.04101E-1,4.51538E-1
-1.67434E-1,4.63058E-1
-1.27670E-1,4.76165E-1
-0.87799E-1,4.76608E-1
-0.57952E-1,4.75753E-1
-0.22430E-1,4.74319E-1
0.16738E-1,4.61853E-1
0.51559E-1,4.48288E-1
0.93231E-1,4.29550E-1
1.29104E-1,4.10583E-1
1.66610E-1,3.89358E-1
1.97509E-1,3.65737E-1
2.26257E-1,3.39202E-1
2.55538E-1,3.00888E-1
2.72247E-1,2.57202E-1
2.82196E-1,2.24029E-1
2.95440E-1,2.03430E-1
3.08837E-1,1.69952E-1
3.08242E-1,1.38687E-1
2.99728E-1,1.00921E-1
2.84622E-1,0.65841E-1
2.71682E-1,0.36193E-1
2.69424E-1,0.00885E-1
2.56927E-1,-0.31204E-1
2.43156E-1,-0.54588E-1
2.21611E-1,-0.72357E-1
2.02384E-1,-0.78743E-1
1.93359E-1,-0.94238E-1
1.71203E-1,-1.08543E-1
1.52191E-1,-1.11450E-1
1.29951E-1,-1.13685E-1
1.07315E-1,-1.05789E-1
8.89396E-2,-9.80567E-2
6.73141E-2,-9.40399E-2
4.68215E-2,-8.51554E-2
2.68211E-2,-7.98339E-2
0.39939E-2,-6.66694E-2
-0.55923E-2,-5.39588E-2
-1.37863E-2,-5.04684E-2
-2.09007E-2,-4.47654E-2
-2.47974E-2,-3.74946E-2
-2.87313E-2,-1.96666E-2
-1.92537E-2,-0.01411E-2
-1.20458E-2,1.04503E-2
-0.99926E-2,1.96762E-2
-0.73623E-2,2.85987E-2
-0.27332E-2,4.16717E-2
1.41239E-2,5.30357E-2
2.95906E-2,5.45768E-2
4.16965E-2,5.76305E-2
5.22956E-2,5.54943E-2
5.98926E-2,5.10864E-2
7.09304E-2,4.48989E-2
8.59451E-2,2.61421E-2
9.60083E-2,0.87280E-2
1.11068E-1,-0.58326E-2
1.21318E-1,-2.04124E-2
1.27739E-1,-0.27305E-1
1.41082E-1,-0.40718E-1
1.39198E-1,-0.62782E-1
1.36863E-1,-0.81146E-1
1.29669E-1,-1.03889E-1
1.17164E-1,-1.14440E-1
1.11263E-1,-1.23489E-1
0.97366E-1,-1.44973E-1
0.79048E-1,-1.62757E-1
0.56327E-1,-1.84555E-1
END
