CITIFILE A.01.01
#NA VERSION HP8510C.08.10
NAME DATA
#NA REGISTER 4
VAR FREQ MAG 201
DATA S[1,1] RI
DATA S[2,1] RI
DATA S[1,2] RI
DATA S[2,2] RI
SEG_LIST_BEGIN
SEG 8000000000 12000000000 201
SEG_LIST_END
COMMENT       YEAR MONTH DAY HOUR MINUTE SECONDS
CONSTANT TIME 2013   09   12  22    41    52.0
BEGIN
-4.30648E-1,-3.45413E-1
-4.89181E-1,-3.21670E-1
-5.31921E-1,-2.84606E-1
-5.50720E-1,-2.53875E-1
-5.53314E-1,-2.05444E-1
-5.39276E-1,-1.52496E-1
-5.41778E-1,-0.75347E-1
-5.52490E-1,0.15167E-1
-5.89447E-1,0.95550E-1
-6.17004E-1,1.45324E-1
-6.17401E-1,1.55700E-1
-5.75012E-1,1.66198E-1
-5.01983E-1,2.04437E-1
-4.36325E-1,2.99743E-1
-3.95233E-1,4.13269E-1
-3.99002E-1,4.98336E-1
-4.12780E-1,5.25299E-1
-4.06295E-1,4.95758E-1
-3.43383E-1,4.74853E-1
-2.07962E-1,4.84024E-1
-0.85876E-1,5.31829E-1
-0.16113E-1,6.00433E-1
-0.12237E-1,6.47705E-1
-0.23834E-1,6.48193E-1
0.02471E-1,5.93627E-1
0.75836E-1,5.19592E-1
1.81823E-1,4.68093E-1
2.77969E-1,4.62524E-1
3.44162E-1,4.81414E-1
3.62136E-1,4.97528E-1
3.70971E-1,4.67269E-1
3.77182E-1,3.91220E-1
4.01519E-1,3.08532E-1
4.45571E-1,2.29141E-1
4.94751E-1,1.83075E-1
5.46386E-1,1.32690E-1
5.54809E-1,1.02447E-1
5.49621E-1,0.81115E-1
5.27435E-1,0.43975E-1
4.83261E-1,-0.19531E-1
4.49630E-1,-1.03530E-1
4.34616E-1,-1.86416E-1
4.47845E-1,-2.60284E-1
4.65911E-1,-2.91244E-1
4.57229E-1,-2.95578E-1
4.05273E-1,-2.77633E-1
3.05572E-1,-2.94265E-1
2.14798E-1,-3.54522E-1
1.63055E-1,-4.39209E-1
1.69067E-1,-5.16754E-1
1.76055E-1,-5.25390E-1
1.73904E-1,-4.70748E-1
1.13739E-1,-4.09225E-1
-0.00305E-1,-3.83056E-1
-1.09848E-1,-4.11453E-1
-1.75506E-1,-4.69207E-1
-1.68273E-1,-5.05920E-1
-1.42105E-1,-4.82727E-1
-1.45721E-1,-4.05090E-1
-1.99020E-1,-3.09906E-1
-2.89947E-1,-2.63382E-1
-3.71337E-1,-2.54333E-1
-3.97628E-1,-2.79907E-1
-3.87802E-1,-2.92602E-1
-3.65280E-1,-2.47909E-1
-3.5289E-1,-1.68685E-1
-3.71734E-1,-0.82153E-1
-4.10629E-1,-0.35263E-1
-4.47036E-1,-0.03280E-1
-4.56649E-1,0.16906E-1
-4.32037E-1,0.36361E-1
-4.05822E-1,0.60211E-1
-3.66363E-1,0.98388E-1
-3.27743E-1,1.40411E-1
-3.03421E-1,1.91207E-1
-2.90603E-1,2.51113E-1
-2.91168E-1,2.95913E-1
-2.92831E-1,2.97195E-1
-2.89276E-1,2.74459E-1
-2.35763E-1,2.53768E-1
-1.46926E-1,2.69882E-1
-0.48584E-1,3.15994E-1
-0.18020E-1,3.75732E-1
-0.49240E-1,4.21951E-1
-0.91873E-1,3.99139E-1
-0.94863E-1,3.24523E-1
-0.13038E-1,2.46192E-1
0.97847E-1,2.15744E-1
1.83883E-1,2.57400E-1
1.98791E-1,3.35662E-1
1.43463E-1,3.73123E-1
0.85769E-1,3.26950E-1
0.77362E-1,2.07191E-1
1.37115E-1,1.13410E-1
2.34413E-1,0.91888E-1
3.12713E-1,1.31729E-1
3.12683E-1,1.92169E-1
2.57644E-1,2.09304E-1
2.00805E-1,1.62826E-1
1.87942E-1,0.76133E-1
2.33245E-1,0.07011E-1
2.97271E-1,-0.17013E-1
3.48037E-1,-0.12466E-1
3.42895E-1,-0.07675E-1
3.11569E-1,-0.15625E-1
2.81234E-1,-0.50201E-1
2.64892E-1,-0.98419E-1
2.60879E-1,-1.47598E-1
2.54730E-1,-1.94244E-1
2.56240E-1,-2.34268E-1
2.60330E-1,-2.70675E-1
2.64785E-1,-2.88085E-1
2.52761E-1,-2.83844E-1
2.10983E-1,-2.85873E-1
1.33499E-1,-3.09860E-1
0.61660E-1,-3.67248E-1
0.29953E-1,-4.38827E-1
0.39642E-1,-4.88601E-1
0.61447E-1,-4.79980E-1
0.48782E-1,-4.23278E-1
-0.30899E-1,-3.75900E-1
-1.53183E-1,-3.67172E-1
-2.52670E-1,-4.12521E-1
-2.78778E-1,-4.74151E-1
-2.50976E-1,-5.07720E-1
-2.32894E-1,-4.64736E-1
-2.71972E-1,-3.59405E-1
-3.60519E-1,-2.66861E-1
-4.63028E-1,-2.42431E-1
-5.33996E-1,-2.75726E-1
-5.35919E-1,-3.11004E-1
-5.09674E-1,-2.81890E-1
-4.80484E-1,-1.83242E-1
-4.97467E-1,-0.74798E-1
-5.60516E-1,-0.11230E-1
-6.28051E-1,0.08331E-1
-6.51519E-1,0.07446E-1
-6.17157E-1,0.35766E-1
-5.55023E-1,0.99548E-1
-5.27313E-1,1.79565E-1
-5.42022E-1,2.56530E-1
-5.58013E-1,3.06793E-1
-5.56060E-1,3.35662E-1
-5.14679E-1,3.62335E-1
-4.59060E-1,3.95065E-1
-4.23507E-1,4.34951E-1
-4.00772E-1,4.74853E-1
-3.73992E-1,4.99710E-1
-3.26690E-1,5.34362E-1
-2.47345E-1,5.64117E-1
-1.95068E-1,5.87188E-1
-1.81396E-1,6.24206E-1
-1.69189E-1,6.26403E-1
-1.34826E-1,6.01348E-1
-0.46203E-1,5.76782E-1
0.52398E-1,5.62927E-1
1.19537E-1,5.94055E-1
1.49505E-1,6.38122E-1
1.20513E-1,6.40411E-1
1.16729E-1,5.88501E-1
1.75933E-1,4.94033E-1
2.68936E-1,4.35318E-1
3.77365E-1,4.44091E-1
4.35287E-1,4.89105E-1
4.20898E-1,5.26641E-1
3.67523E-1,4.74502E-1
3.47991E-1,3.56216E-1
4.07791E-1,2.42767E-1
5.05462E-1,1.77002E-1
5.75805E-1,1.89758E-1
5.80322E-1,2.39868E-1
5.19866E-1,2.51983E-1
4.55062E-1,1.77780E-1
4.45343E-1,0.56060E-1
4.96841E-1,-0.41503E-1
5.69305E-1,-0.84320E-1
6.03515E-1,-0.68908E-1
5.75408E-1,-0.54748E-1
4.98107E-1,-0.8992E-1
4.40887E-1,-1.68487E-1
4.32388E-1,-2.55874E-1
4.48196E-1,-3.11645E-1
4.66262E-1,-3.34030E-1
4.38232E-1,-3.45855E-1
3.77822E-1,-3.65310E-1
3.23074E-1,-4.10919E-1
2.87155E-1,-4.62570E-1
2.54913E-1,-4.91638E-1
2.08221E-1,-5.06134E-1
1.38916E-1,-5.08148E-1
0.73120E-1,-5.23498E-1
0.26428E-1,-5.52368E-1
0.02075E-1,-5.64697E-1
-0.25634E-1,-5.43579E-1
-0.90606E-1,-4.96948E-1
-1.79580E-1,-4.59243E-1
-2.62878E-1,-4.59121E-1
-3.09967E-1,-4.94354E-1
-3.19976E-1,-5.06958E-1
-3.09600E-1,-4.52850E-1
-3.30490E-1,-3.52157E-1
END
BEGIN
-8.34991E-1,2.08770E-1
-7.86315E-1,2.54791E-1
-8.03344E-1,2.79296E-1
-7.35748E-1,3.83117E-1
-6.37542E-1,4.19555E-1
-5.61248E-1,5.05279E-1
-4.59869E-1,5.43365E-1
-4.56512E-1,5.55084E-1
-4.66644E-1,6.23870E-1
-4.29473E-1,6.34552E-1
-3.96301E-1,6.61682E-1
-2.74902E-1,6.5625E-1
-2.36480E-1,6.28631E-1
-2.01934E-1,7.32482E-1
-0.83435E-1,8.06671E-1
-0.45501E-1,8.34655E-1
0.42968E-1,8.49395E-1
0.72357E-1,7.45666E-1
0.62744E-1,7.45147E-1
1.97387E-1,7.66052E-1
3.06549E-1,7.48382E-1
4.40734E-1,7.89154E-1
5.40679E-1,7.10845E-1
5.10162E-1,6.89361E-1
5.85510E-1,6.72790E-1
6.26190E-1,5.3302E-1
6.88079E-1,4.59167E-1
7.89489E-1,3.03680E-1
7.48413E-1,2.15454E-1
7.56774E-1,2.59185E-1
7.72674E-1,2.33123E-1
7.52136E-1,2.29156E-1
8.03833E-1,1.34368E-1
7.56225E-1,-0.12573E-1
7.66021E-1,-0.29815E-1
8.81988E-1,-0.80322E-1
9.43664E-1,-1.54968E-1
1.00824E0,-2.72888E-1
8.60534E-1,-4.56604E-1
7.04528E-1,-4.56451E-1
6.96258E-1,-5.28991E-1
6.29669E-1,-6.51397E-1
6.15020E-1,-7.03613E-1
5.55877E-1,-8.10089E-1
4.26483E-1,-7.58331E-1
4.17785E-1,-7.28149E-1
3.26110E-1,-8.06976E-1
2.27294E-1,-8.33129E-1
1.67144E-1,-9.38140E-1
-0.10070E-1,-9.75616E-1
-0.56274E-1,-8.78936E-1
-0.83709E-1,-8.59619E-1
-1.56799E-1,-7.97393E-1
-1.99859E-1,-7.7948E-1
-3.17627E-1,-7.86590E-1
-3.89892E-1,-7.30102E-1
-4.06524E-1,-7.37640E-1
-4.55383E-1,-7.17681E-1
-4.70916E-1,-6.96197E-1
-5.77697E-1,-6.76483E-1
-6.79290E-1,-5.44189E-1
-7.05596E-1,-4.65057E-1
-7.67700E-1,-4.04876E-1
-7.48626E-1,-3.39477E-1
-7.59338E-1,-3.57482E-1
-8.10516E-1,-2.75421E-1
-7.79205E-1,-1.85577E-1
-7.96112E-1,-1.36901E-1
-8.31756E-1,-0.57983E-1
-8.77105E-1,-0.21362E-1
-9.53277E-1,0.77636E-1
-8.99414E-1,1.88476E-1
-8.54064E-1,2.32543E-1
-8.07861E-1,3.29040E-1
-7.33215E-1,3.93066E-1
-7.19970E-1,4.59747E-1
-6.74652E-1,5.37445E-1
-6.54968E-1,5.42297E-1
-6.51794E-1,5.83160E-1
-5.89843E-1,6.08398E-1
-5.57739E-1,6.42364E-1
-4.92034E-1,7.44659E-1
-4.09576E-1,8.16284E-1
-3.55712E-1,9.01702E-1
-2.51495E-1,9.33563E-1
-2.22534E-1,9.07440E-1
-1.50360E-1,9.41619E-1
-0.15655E-1,9.13085E-1
0.62622E-1,8.99078E-1
1.65405E-1,9.24255E-1
2.24121E-1,9.18640E-1
2.68188E-1,9.77356E-1
3.90838E-1,9.51904E-1
4.62921E-1,8.52233E-1
5.43762E-1,7.85522E-1
6.41723E-1,6.97418E-1
7.03949E-1,6.46850E-1
7.94006E-1,6.02813E-1
7.99835E-1,5.22216E-1
7.98004E-1,4.86511E-1
8.24829E-1,4.06585E-1
8.33496E-1,3.21289E-1
8.94775E-1,2.59582E-1
9.62158E-1,1.54266E-1
9.85290E-1,0.91552E-1
1.01245E0,0.15747E-1
9.73999E-1,-0.91064E-1
9.29473E-1,-1.68853E-1
9.04968E-1,-2.85339E-1
8.54278E-1,-3.94958E-1
8.31054E-1,-4.71008E-1
7.76886E-1,-5.41198E-1
7.15942E-1,-5.48217E-1
6.85089E-1,-5.75592E-1
6.12915E-1,-6.36901E-1
5.38696E-1,-6.94671E-1
4.70184E-1,-7.73590E-1
3.86169E-1,-8.08898E-1
3.44329E-1,-8.27728E-1
2.67272E-1,-8.49212E-1
1.82128E-1,-8.20129E-1
1.07940E-1,-8.10180E-1
0.08606E-1,-8.00781E-1
-0.48187E-1,-7.77374E-1
-0.92956E-1,-7.88513E-1
-1.33606E-1,-7.72033E-1
-1.54357E-1,-7.54028E-1
-2.05932E-1,-7.27203E-1
-2.62878E-1,-6.90033E-1
-3.38409E-1,-6.73370E-1
-4.16290E-1,-6.28906E-1
-4.41223E-1,-6.11663E-1
-4.79126E-1,-6.00982E-1
-4.95910E-1,-5.48370E-1
-5.05035E-1,-5.02380E-1
-5.46630E-1,-4.40216E-1
-5.68359E-1,-3.84674E-1
-6.23443E-1,-3.78082E-1
-6.80023E-1,-3.41888E-1
-6.84906E-1,-3.13598E-1
-6.95648E-1,-2.79235E-1
-6.93450E-1,-2.02545E-1
-7.03002E-1,-1.34552E-1
-7.41088E-1,-0.41595E-1
-7.41302E-1,0.20294E-1
-7.63031E-1,0.37841E-1
-7.51190E-1,0.81115E-1
-7.05047E-1,0.98785E-1
-6.84234E-1,1.45752E-1
-6.57806E-1,2.20367E-1
-6.70684E-1,2.84149E-1
-7.03338E-1,3.70636E-1
-6.86737E-1,4.18426E-1
-6.71722E-1,4.30023E-1
-6.15600E-1,4.70001E-1
-5.49743E-1,5.07812E-1
-4.97314E-1,5.92987E-1
-4.18518E-1,6.61712E-1
-4.17633E-1,6.86065E-1
-4.10491E-1,7.34252E-1
-3.61633E-1,7.35626E-1
-3.08319E-1,7.44781E-1
-2.05200E-1,7.84210E-1
-0.99853E-1,8.09631E-1
-0.18493E-1,8.81500E-1
0.66223E-1,9.00970E-1
0.89599E-1,8.83606E-1
1.47949E-1,8.63250E-1
2.33520E-1,7.92785E-1
3.06427E-1,7.38311E-1
3.97888E-1,6.95037E-1
4.30084E-1,6.91284E-1
4.86602E-1,7.16033E-1
5.39856E-1,6.79107E-1
5.62133E-1,6.20483E-1
6.10900E-1,5.52429E-1
6.55029E-1,4.65026E-1
7.18353E-1,4.26910E-1
7.88421E-1,3.68896E-1
8.02459E-1,3.10638E-1
8.05786E-1,2.70172E-1
8.09478E-1,1.99218E-1
8.00476E-1,1.17462E-1
8.15338E-1,0.34362E-1
8.25195E-1,-0.46020E-1
8.23608E-1,-1.01135E-1
8.25317E-1,-1.45019E-1
8.13262E-1,-2.02453E-1
7.65991E-1,-2.65533E-1
7.27203E-1,-3.25103E-1
6.93725E-1,-3.91418E-1
6.70227E-1,-4.40765E-1
6.71203E-1,-4.92431E-1
6.31256E-1,-5.62866E-1
5.57342E-1,-5.94085E-1
4.88952E-1,-6.27838E-1
4.18090E-1,-6.41693E-1
3.9328E-1,-6.68792E-1
3.56903E-1,-7.37945E-1
2.83783E-1,-7.67150E-1
2.32543E-1,-7.59643E-1
END
BEGIN
-7.48138E-1,1.43158E-1
-7.61901E-1,1.83807E-1
-7.08557E-1,2.96295E-1
-6.55365E-1,2.8479E-1
-7.15881E-1,3.46618E-1
-6.47277E-1,4.65881E-1
-6.13708E-1,4.87609E-1
-5.73791E-1,5.94574E-1
-4.72076E-1,6.00921E-1
-4.98840E-1,6.19415E-1
-4.35180E-1,7.48382E-1
-3.26904E-1,7.66601E-1
-2.51739E-1,8.20404E-1
-1.21978E-1,8.06182E-1
-1.10717E-1,7.85064E-1
-0.34393E-1,8.74237E-1
0.91339E-1,8.43658E-1
1.48559E-1,8.47595E-1
2.93426E-1,8.01239E-1
3.02673E-1,6.93237E-1
3.13690E-1,7.25067E-1
4.27703E-1,6.95922E-1
4.53491E-1,6.54541E-1
5.56945E-1,6.43615E-1
6.03637E-1,5.21972E-1
5.85784E-1,5.07873E-1
6.77978E-1,4.85565E-1
7.11273E-1,4.07135E-1
7.81494E-1,3.73504E-1
8.33282E-1,2.24182E-1
7.71026E-1,1.60797E-1
8.08746E-1,1.40350E-1
8.24523E-1,0.62286E-1
8.68743E-1,0.16845E-1
9.01367E-1,-1.54571E-1
7.76245E-1,-2.39410E-1
7.66693E-1,-2.29583E-1
7.75756E-1,-3.06030E-1
7.70752E-1,-3.58123E-1
7.81189E-1,-5.01403E-1
6.20483E-1,-5.99578E-1
5.57586E-1,-5.54840E-1
5.51666E-1,-5.96923E-1
5.15960E-1,-6.27258E-1
5.24292E-1,-7.22045E-1
3.70056E-1,-8.38958E-1
2.612E-1,-7.77771E-1
2.47680E-1,-7.91839E-1
1.80816E-1,-8.10302E-1
1.64459E-1,-8.48175E-1
0.19622E-1,-9.48303E-1
-1.35498E-1,-8.55896E-1
-1.46240E-1,-8.07769E-1
-2.05658E-1,-8.02490E-1
-2.25708E-1,-7.87200E-1
-3.14788E-1,-8.49182E-1
-4.76623E-1,-7.58087E-1
-4.79064E-1,-6.60522E-1
-5.18676E-1,-6.41876E-1
-5.44738E-1,-5.96649E-1
-5.92376E-1,-6.25091E-1
-7.39776E-1,-5.47699E-1
-7.31018E-1,-4.06585E-1
-7.27203E-1,-3.72863E-1
-7.39624E-1,-3.11492E-1
-7.50610E-1,-3.15216E-1
-8.79058E-1,-2.70263E-1
-8.90380E-1,-0.97473E-1
-8.42926E-1,-0.51605E-1
-8.52081E-1,0.05493E-1
-8.39874E-1,0.41778E-1
-9.18060E-1,0.93933E-1
-9.16259E-1,2.81829E-1
-8.10150E-1,3.46984E-1
-7.87780E-1,3.86962E-1
-7.45361E-1,4.39514E-1
-7.53906E-1,4.77111E-1
-7.36969E-1,6.09924E-1
-6.16699E-1,6.80938E-1
-5.51696E-1,6.95404E-1
-4.92523E-1,7.18444E-1
-4.76715E-1,7.42279E-1
-4.33258E-1,8.47595E-1
-2.97515E-1,8.88641E-1
-2.31994E-1,8.79638E-1
-1.48223E-1,9.01458E-1
-0.85968E-1,8.73046E-1
-0.61462E-1,9.13360E-1
0.56701E-1,9.69848E-1
1.66534E-1,9.43634E-1
2.50122E-1,9.29718E-1
3.30963E-1,8.73748E-1
3.62579E-1,8.47259E-1
4.53887E-1,8.51165E-1
5.62988E-1,7.93548E-1
6.46606E-1,7.2995E-1
7.11242E-1,6.36291E-1
7.12036E-1,5.72784E-1
7.57904E-1,5.64178E-1
8.43994E-1,4.88281E-1
8.81897E-1,3.84704E-1
9.14001E-1,2.81951E-1
8.97827E-1,1.79046E-1
8.95874E-1,1.46911E-1
9.44030E-1,0.75347E-1
9.43267E-1,-0.23437E-1
9.42321E-1,-1.06048E-1
9.07257E-1,-2.24029E-1
8.36273E-1,-2.73040E-1
8.36700E-1,-3.10852E-1
8.24218E-1,-4.03900E-1
7.83599E-1,-4.87091E-1
7.19726E-1,-5.85693E-1
6.06658E-1,-6.16455E-1
5.75286E-1,-6.05987E-1
5.56335E-1,-6.59576E-1
4.97558E-1,-7.15972E-1
4.1745E-1,-7.78015E-1
2.86254E-1,-7.90039E-1
2.33459E-1,-7.41516E-1
2.26470E-1,-7.57415E-1
1.83166E-1,-8.01025E-1
1.12213E-1,-8.42041E-1
-0.11291E-1,-8.41156E-1
-0.83587E-1,-7.60986E-1
-0.93139E-1,-7.37365E-1
-1.31927E-1,-7.54974E-1
-1.92779E-1,-7.76763E-1
-3.02154E-1,-7.74383E-1
-3.77594E-1,-6.68762E-1
-3.56689E-1,-6.08276E-1
-3.68988E-1,-6.13067E-1
-4.24163E-1,-6.17736E-1
-5.13305E-1,-6.01928E-1
-5.85388E-1,-5.14465E-1
-5.75164E-1,-4.45953E-1
-5.77728E-1,-4.23919E-1
-5.98846E-1,-4.00238E-1
-6.47522E-1,-3.80340E-1
-7.19055E-1,-3.11248E-1
-7.22412E-1,-2.12341E-1
-7.05505E-1,-1.68151E-1
-7.00531E-1,-1.37939E-1
-7.20611E-1,-1.19598E-1
-7.70660E-1,-0.63568E-1
-7.75726E-1,0.33630E-1
-7.50946E-1,0.92102E-1
-7.33520E-1,1.37054E-1
-7.29095E-1,1.62597E-1
-7.62634E-1,2.19207E-1
-7.59033E-1,3.30658E-1
-6.91314E-1,4.04968E-1
-6.47186E-1,4.34509E-1
-6.13830E-1,4.57031E-1
-6.14746E-1,4.75524E-1
-5.92102E-1,5.79956E-1
-5.17608E-1,6.58905E-1
-4.44671E-1,6.98822E-1
-3.7854E-1,7.22442E-1
-3.40759E-1,7.29522E-1
-2.99896E-1,7.71850E-1
-2.16430E-1,8.06793E-1
-1.29516E-1,8.13690E-1
-0.44921E-1,8.14697E-1
0.11932E-1,7.93823E-1
0.41473E-1,8.08746E-1
1.07513E-1,8.25592E-1
1.82861E-1,8.11035E-1
2.60498E-1,7.83142E-1
3.30108E-1,7.30011E-1
3.68560E-1,7.02911E-1
4.29351E-1,6.96685E-1
4.94079E-1,6.67480E-1
5.46539E-1,6.21185E-1
5.87982E-1,5.54138E-1
6.04400E-1,4.97131E-1
6.40228E-1,4.60083E-1
6.87988E-1,4.08996E-1
7.23907E-1,3.53210E-1
7.5354E-1,2.91290E-1
7.59796E-1,2.25097E-1
7.63580E-1,1.72943E-1
7.74780E-1,1.14379E-1
7.82836E-1,0.55725E-1
7.91381E-1,-0.08667E-1
7.84515E-1,-0.74859E-1
7.65960E-1,-1.30920E-1
7.49633E-1,-1.83807E-1
7.37487E-1,-2.32543E-1
7.26135E-1,-2.87536E-1
7.07183E-1,-3.43780E-1
6.81366E-1,-4.00329E-1
6.38610E-1,-4.51690E-1
6.02294E-1,-4.93194E-1
5.65704E-1,-5.42022E-1
5.29693E-1,-5.83007E-1
5.05035E-1,-6.28387E-1
4.48486E-1,-6.80511E-1
3.81683E-1,-7.00561E-1
3.23791E-1,-7.17651E-1
2.65533E-1,-7.34039E-1
END
BEGIN
-5.11688E-1,0.41809E-1
-5.35491E-1,0.9729E-1
-5.44708E-1,1.79260E-1
-5.20141E-1,2.55798E-1
-4.67697E-1,3.19213E-1
-4.25659E-1,3.51791E-1
-4.08721E-1,4.02893E-1
-3.85589E-1,4.64736E-1
-3.37799E-1,5.28106E-1
-2.64953E-1,5.59234E-1
-2.00164E-1,5.60638E-1
-1.53869E-1,5.66864E-1
-1.14593E-1,5.96313E-1
-0.46386E-1,6.46148E-1
0.39306E-1,6.53595E-1
1.09405E-1,6.29425E-1
1.52954E-1,5.93200E-1
1.8573E-1,5.83099E-1
2.48535E-1,5.96862E-1
3.33129E-1,5.67718E-1
3.90716E-1,5.16815E-1
4.18914E-1,4.54177E-1
4.25918E-1,4.16076E-1
4.64599E-1,3.89846E-1
5.26855E-1,3.35449E-1
5.68359E-1,2.62664E-1
5.78125E-1,1.81121E-1
5.58044E-1,1.31317E-1
5.57159E-1,0.92254E-1
5.76293E-1,0.47607E-1
5.89813E-1,-0.32074E-1
5.70800E-1,-1.12640E-1
5.25787E-1,-1.59027E-1
4.89410E-1,-1.73599E-1
4.82803E-1,-1.85577E-1
4.68780E-1,-2.53891E-1
4.18762E-1,-3.12683E-1
3.53698E-1,-3.46908E-1
3.08517E-1,-3.39111E-1
2.85934E-1,-3.34884E-1
2.66876E-1,-3.60214E-1
2.17697E-1,-3.92501E-1
1.45675E-1,-4.11315E-1
0.96801E-1,-3.91067E-1
0.75134E-1,-3.78112E-1
0.70648E-1,-3.77533E-1
0.30227E-1,-3.91403E-1
-0.33676E-1,-3.86398E-1
-0.87432E-1,-3.50082E-1
-1.02218E-1,-3.26400E-1
-1.13449E-1,-3.06457E-1
-1.27960E-1,-3.15628E-1
-1.77673E-1,-3.08288E-1
-2.23846E-1,-2.67761E-1
-2.40654E-1,-2.27203E-1
-2.41546E-1,-2.03727E-1
-2.42569E-1,-2.10708E-1
-2.76107E-1,-2.01568E-1
-3.06808E-1,-1.56662E-1
-3.09845E-1,-1.01715E-1
-3.05648E-1,-0.72876E-1
-3.02078E-1,-0.58578E-1
-3.24050E-1,-0.51361E-1
-3.51974E-1,-0.09811E-1
-3.48403E-1,0.50033E-1
-3.26492E-1,0.89859E-1
-3.08319E-1,1.09832E-1
-3.22982E-1,1.13082E-1
-3.38439E-1,1.48056E-1
-3.23867E-1,1.93756E-1
-2.83355E-1,2.24136E-1
-2.50579E-1,2.44506E-1
-2.29736E-1,2.55035E-1
-2.24975E-1,2.83264E-1
-2.02072E-1,3.26767E-1
-1.53854E-1,3.56597E-1
-1.01364E-1,3.67004E-1
-0.63400E-1,3.57681E-1
-0.53817E-1,3.72726E-1
-0.28945E-1,4.02130E-1
0.17776E-1,4.19921E-1
0.69168E-1,4.04876E-1
1.07101E-1,3.76525E-1
1.30615E-1,3.58734E-1
1.55624E-1,3.57696E-1
2.01309E-1,3.60305E-1
2.52868E-1,3.32901E-1
2.84378E-1,2.87735E-1
2.98049E-1,2.38601E-1
3.09433E-1,2.18505E-1
3.39477E-1,2.07305E-1
3.78448E-1,1.77139E-1
3.84094E-1,1.24420E-1
3.70315E-1,0.73013E-1
3.50357E-1,0.35766E-1
3.50448E-1,0.03921E-1
3.60626E-1,-0.34622E-1
3.5672E-1,-0.84426E-1
3.31054E-1,-1.31256E-1
2.82547E-1,-1.58798E-1
2.56073E-1,-1.71585E-1
2.53311E-1,-1.94244E-1
2.50320E-1,-2.37335E-1
2.17346E-1,-2.66525E-1
1.73126E-1,-2.73422E-1
1.32293E-1,-2.62298E-1
1.13006E-1,-2.58468E-1
0.93490E-1,-2.79113E-1
0.58609E-1,-2.95318E-1
0.18600E-1,-2.96035E-1
-0.22827E-1,-2.74124E-1
-0.42785E-1,-2.52441E-1
-0.58105E-1,-2.54974E-1
-0.85159E-1,-2.73315E-1
-1.21017E-1,-2.73040E-1
-1.49902E-1,-2.47886E-1
-1.59042E-1,-2.14393E-1
-1.66603E-1,-1.96723E-1
-1.87675E-1,-1.92161E-1
-2.19535E-1,-1.83525E-1
-2.52960E-1,-1.62948E-1
-2.67257E-1,-1.24542E-1
-2.70401E-1,-0.94772E-1
-2.78717E-1,-0.77728E-1
-3.10043E-1,-0.64971E-1
-3.45306E-1,-0.33081E-1
-3.56109E-1,0.09155E-1
-3.48403E-1,0.41503E-1
-3.37860E-1,0.59265E-1
-3.47625E-1,0.75943E-1
-3.63586E-1,1.12381E-1
-3.64334E-1,1.64199E-1
-3.45535E-1,2.07504E-1
-3.24493E-1,2.37365E-1
-3.16925E-1,2.57629E-1
-3.17703E-1,2.95013E-1
-3.05755E-1,3.42620E-1
-2.75451E-1,3.81256E-1
-2.44094E-1,4.03793E-1
-2.18551E-1,4.17480E-1
-2.04086E-1,4.37149E-1
-1.79138E-1,4.68566E-1
-1.36550E-1,4.98764E-1
-0.88043E-1,5.14679E-1
-0.39886E-1,5.22583E-1
-0.03326E-1,5.21850E-1
0.33050E-1,5.33966E-1
0.87646E-1,5.49835E-1
1.56524E-1,5.52551E-1
2.17865E-1,5.40374E-1
2.53448E-1,5.20904E-1
2.77648E-1,5.18859E-1
3.15795E-1,5.11505E-1
3.69659E-1,4.85519E-1
4.41162E-1,4.28680E-1
4.62921E-1,3.88458E-1
4.89852E-1,3.53546E-1
5.21179E-1,3.23486E-1
5.55175E-1,2.82135E-1
5.88806E-1,2.17071E-1
6.03485E-1,1.41662E-1
6.06323E-1,0.84899E-1
6.17126E-1,0.40618E-1
6.29699E-1,-0.02075E-1
6.38488E-1,-0.59051E-1
6.20697E-1,-1.19842E-1
5.89904E-1,-1.76940E-1
5.54870E-1,-2.20825E-1
5.24505E-1,-2.59185E-1
4.92080E-1,-3.00094E-1
4.48120E-1,-3.51791E-1
3.90426E-1,-3.99383E-1
3.29696E-1,-4.28115E-1
2.82608E-1,-4.45480E-1
2.48428E-1,-4.61532E-1
2.02972E-1,-4.84176E-1
1.42395E-1,-4.93637E-1
0.76721E-1,-4.90951E-1
0.21438E-1,-4.76394E-1
-0.18463E-1,-4.62127E-1
-0.56243E-1,-4.54422E-1
-1.04171E-1,-4.37973E-1
-1.57043E-1,-4.08660E-1
-2.05246E-1,-3.66592E-1
-2.38647E-1,-3.30368E-1
-2.65457E-1,-3.06198E-1
-2.91732E-1,-2.87124E-1
-3.17337E-1,-2.60955E-1
-3.36517E-1,-2.17376E-1
-3.39279E-1,-1.71676E-1
-3.42193E-1,-1.35253E-1
-3.44955E-1,-1.04370E-1
-3.56079E-1,-0.73867E-1
-3.5849E-1,-0.28595E-1
-3.46069E-1,0.16296E-1
-3.34472E-1,0.55191E-1
-3.20098E-1,0.92590E-1
-3.19015E-1,1.09954E-1
-3.21334E-1,1.42852E-1
-3.06655E-1,1.71173E-1
-2.87277E-1,1.95510E-1
END
