CITIFILE A.01.01
#NA VERSION HP8510C.08.10
NAME DATA
#NA REGISTER 1
VAR FREQ MAG 201
DATA S[1,1] RI
DATA S[2,1] RI
DATA S[1,2] RI
DATA S[2,2] RI
SEG_LIST_BEGIN
SEG 8000000000 12000000000 201
SEG_LIST_END
COMMENT       YEAR MONTH DAY HOUR MINUTE SECONDS
CONSTANT TIME 2013   09   12  22    51    07.0
BEGIN
-4.60479E-1,-3.41278E-1
-5.11871E-1,-3.18206E-1
-5.43457E-1,-2.71942E-1
-5.57342E-1,-2.29888E-1
-5.63751E-1,-1.77276E-1
-5.56701E-1,-1.28387E-1
-5.625E-1,-0.59753E-1
-5.64727E-1,0.25817E-1
-5.89263E-1,1.09802E-1
-6.10900E-1,1.66595E-1
-6.15570E-1,1.81793E-1
-5.84014E-1,1.9104E-1
-5.15960E-1,2.22930E-1
-4.43435E-1,3.12179E-1
-3.93478E-1,4.22027E-1
-3.94287E-1,5.12237E-1
-4.15679E-1,5.46295E-1
-4.18609E-1,5.19104E-1
-3.59649E-1,4.93896E-1
-2.18673E-1,4.96612E-1
-0.89782E-1,5.45318E-1
-0.18768E-1,6.2323E-1
-0.21392E-1,6.80816E-1
-0.41778E-1,6.85394E-1
-0.17303E-1,6.24115E-1
0.65399E-1,5.39520E-1
1.82403E-1,4.87625E-1
2.87704E-1,4.96154E-1
3.5495E-1,5.32165E-1
3.65356E-1,5.52642E-1
3.68621E-1,5.10253E-1
3.79119E-1,4.17038E-1
4.17572E-1,3.26690E-1
4.79171E-1,2.5354E-1
5.35003E-1,2.20642E-1
5.79803E-1,1.76391E-1
5.71289E-1,1.40747E-1
5.61828E-1,1.06323E-1
5.49987E-1,0.54473E-1
5.23864E-1,-0.15014E-1
5.01342E-1,-0.93566E-1
4.81842E-1,-1.71142E-1
4.82940E-1,-2.45941E-1
4.91790E-1,-2.83767E-1
4.84756E-1,-2.99636E-1
4.38262E-1,-2.88559E-1
3.41751E-1,-3.06869E-1
2.45620E-1,-3.63235E-1
1.84951E-1,-4.47036E-1
1.88659E-1,-5.27862E-1
1.96044E-1,-5.43884E-1
1.94992E-1,-4.88266E-1
1.32720E-1,-4.19052E-1
0.09338E-1,-3.86764E-1
-1.09481E-1,-4.17587E-1
-1.76422E-1,-4.85961E-1
-1.63299E-1,-5.28991E-1
-1.28051E-1,-5.00610E-1
-1.29531E-1,-4.09072E-1
-1.91619E-1,-2.99209E-1
-2.95913E-1,-2.52563E-1
-3.85482E-1,-2.56134E-1
-4.04541E-1,-2.94052E-1
-3.76602E-1,-3.10012E-1
-3.40469E-1,-2.53295E-1
-3.27194E-1,-1.57959E-1
-3.60473E-1,-0.66421E-1
-4.13375E-1,-0.28717E-1
-4.51416E-1,-0.14709E-1
-4.46441E-1,-0.05569E-1
-4.04098E-1,0.16540E-1
-3.70895E-1,0.52307E-1
-3.41171E-1,1.00006E-1
-3.18054E-1,1.39617E-1
-3.02413E-1,1.75628E-1
-2.86666E-1,2.19619E-1
-2.79586E-1,2.57812E-1
-2.78121E-1,2.64968E-1
-2.82470E-1,2.48535E-1
-2.43270E-1,2.29064E-1
-1.64321E-1,2.40829E-1
-0.68817E-1,2.82836E-1
-0.34225E-1,3.41659E-1
-0.68420E-1,3.93402E-1
-1.20529E-1,3.77197E-1
-1.33422E-1,3.00994E-1
-0.57418E-1,2.20665E-1
0.58219E-1,1.90116E-1
1.49322E-1,2.41844E-1
1.60202E-1,3.35525E-1
0.92147E-1,3.84643E-1
0.20904E-1,3.38729E-1
0.16998E-1,2.09892E-1
9.07173E-2,1.09413E-1
2.07695E-1,0.91918E-1
2.89566E-1,1.51550E-1
2.79846E-1,2.33612E-1
2.04971E-1,2.56851E-1
1.37489E-1,1.97921E-1
1.34635E-1,0.94581E-1
2.01805E-1,0.24337E-1
2.87353E-1,0.15045E-1
3.43689E-1,0.44525E-1
3.27941E-1,0.62622E-1
2.81265E-1,0.4776E-1
2.47016E-1,-0.04997E-1
2.45964E-1,-0.66589E-1
2.63122E-1,-1.14288E-1
2.69928E-1,-1.46240E-1
2.68554E-1,-1.70181E-1
2.62420E-1,-2.00958E-1
2.62054E-1,-2.26623E-1
2.54211E-1,-2.34893E-1
2.26127E-1,-2.39769E-1
1.60385E-1,-2.60528E-1
0.92529E-1,-3.13995E-1
0.58517E-1,-3.85665E-1
0.69961E-1,-4.42001E-1
0.97869E-1,-4.37698E-1
0.92697E-1,-3.77349E-1
0.20004E-1,-3.25241E-1
-1.06735E-1,-3.17703E-1
-2.09701E-1,-3.75915E-1
-2.33963E-1,-4.52163E-1
-1.90216E-1,-4.94430E-1
-1.55334E-1,-4.50531E-1
-1.91696E-1,-3.39645E-1
-2.94082E-1,-2.41241E-1
-4.14733E-1,-2.25891E-1
-4.91027E-1,-2.81631E-1
-4.79995E-1,-3.36624E-1
-4.32998E-1,-3.17764E-1
-3.97354E-1,-2.08770E-1
-4.24942E-1,-0.85220E-1
-5.09277E-1,-0.22857E-1
-5.93719E-1,-0.21575E-1
-6.17523E-1,-0.48858E-1
-5.71350E-1,-0.34545E-1
-4.97589E-1,0.35385E-1
-4.76089E-1,1.29043E-1
-5.13305E-1,2.14263E-1
-5.50231E-1,2.56500E-1
-5.58502E-1,2.66815E-1
-5.12268E-1,2.81585E-1
-4.47280E-1,3.19763E-1
-4.14306E-1,3.73748E-1
-4.09668E-1,4.24392E-1
-4.03060E-1,4.45983E-1
-3.70178E-1,4.72244E-1
-2.87719E-1,5.00061E-1
-2.25708E-1,5.26702E-1
-2.14019E-1,5.81085E-1
-2.14141E-1,5.98815E-1
-1.95770E-1,5.75836E-1
-1.13250E-1,5.50598E-1
-0.05645E-1,5.32989E-1
0.70587E-1,5.72235E-1
1.02294E-1,6.36749E-1
0.65673E-1,6.51519E-1
0.50354E-1,6.02600E-1
1.15081E-1,5.02929E-1
2.20687E-1,4.38354E-1
3.44223E-1,4.58160E-1
4.11834E-1,5.23681E-1
3.91540E-1,5.76263E-1
3.30078E-1,5.20233E-1
3.12118E-1,3.84017E-1
3.85955E-1,2.56729E-1
5.06042E-1,1.92901E-1
5.88104E-1,2.17407E-1
5.85449E-1,2.81585E-1
5.07171E-1,2.92297E-1
4.29199E-1,1.98761E-1
4.29641E-1,0.59005E-1
5.01647E-1,-0.45349E-1
5.88501E-1,-0.76812E-1
6.20025E-1,-0.44281E-1
5.68756E-1,-0.25024E-1
4.74044E-1,-0.69351E-1
4.13833E-1,-1.70394E-1
4.17465E-1,-2.68966E-1
4.48333E-1,-3.17321E-1
4.67742E-1,-3.22341E-1
4.25293E-1,-3.14621E-1
3.49426E-1,-3.36181E-1
2.87811E-1,-3.95767E-1
2.61886E-1,-4.58343E-1
2.44873E-1,-4.84008E-1
2.04101E-1,-4.82086E-1
1.32354E-1,-4.69757E-1
0.50842E-1,-4.84863E-1
-0.01007E-1,-5.21392E-1
-0.14160E-1,-5.41931E-1
-0.25451E-1,-5.18798E-1
-0.81024E-1,-4.59320E-1
-1.72561E-1,-4.13131E-1
-2.68905E-1,-4.14657E-1
-3.15887E-1,-4.63577E-1
-3.12912E-1,-4.91058E-1
-2.86193E-1,-4.37301E-1
-2.98782E-1,-3.27850E-1
END
BEGIN
-8.38378E-1,2.08435E-1
-7.86987E-1,2.55859E-1
-8.01361E-1,2.76123E-1
-7.32574E-1,3.80523E-1
-6.30340E-1,4.14856E-1
-5.57464E-1,5.04882E-1
-4.52545E-1,5.47332E-1
-4.48730E-1,5.52337E-1
-4.63378E-1,6.15020E-1
-4.26025E-1,6.19628E-1
-3.97796E-1,6.41845E-1
-2.75787E-1,6.42486E-1
-2.32605E-1,6.12579E-1
-2.07214E-1,7.15087E-1
-0.9375E-1,7.93670E-1
-0.63842E-1,8.17901E-1
0.18829E-1,8.39050E-1
0.54107E-1,7.32574E-1
0.43090E-1,7.26684E-1
1.74499E-1,7.53326E-1
2.80304E-1,7.39624E-1
4.06005E-1,7.94647E-1
5.09155E-1,7.24823E-1
4.76959E-1,6.99890E-1
5.50964E-1,6.87377E-1
5.99151E-1,5.44433E-1
6.60400E-1,4.74731E-1
7.71484E-1,3.28552E-1
7.36297E-1,2.38403E-1
7.39593E-1,2.85827E-1
7.53601E-1,2.59277E-1
7.25402E-1,2.54638E-1
7.80212E-1,1.67083E-1
7.42919E-1,0.20752E-1
7.55432E-1,0.05828E-1
8.74786E-1,-0.33935E-1
9.37805E-1,-0.99395E-1
1.01446E0,-2.03674E-1
8.80035E-1,-4.01397E-1
7.23083E-1,-4.12048E-1
7.21771E-1,-4.86572E-1
6.65222E-1,-6.15600E-1
6.53900E-1,-6.65191E-1
6.05926E-1,-7.74475E-1
4.69848E-1,-7.28820E-1
4.59960E-1,-6.96716E-1
3.75640E-1,-7.86010E-1
2.77008E-1,-8.19610E-1
2.31170E-1,-9.29870E-1
0.55053E-1,-9.86084E-1
0.00061E-1,-8.87359E-1
-0.28381E-1,-8.69598E-1
-1.11419E-1,-8.10119E-1
-1.55853E-1,-7.90893E-1
-2.71301E-1,-8.12164E-1
-3.47717E-1,-7.60314E-1
-3.58764E-1,-7.69866E-1
-4.09088E-1,-7.52441E-1
-4.23248E-1,-7.26959E-1
-5.28686E-1,-7.22656E-1
-6.53930E-1,-6.00738E-1
-6.87286E-1,-5.20965E-1
-7.57782E-1,-4.66400E-1
-7.42584E-1,-3.90838E-1
-7.40295E-1,-4.07623E-1
-7.99469E-1,-3.31817E-1
-7.74536E-1,-2.33032E-1
-7.94342E-1,-1.87774E-1
-8.39477E-1,-1.12274E-1
-8.82934E-1,-0.83252E-1
-9.70611E-1,0.00335E-1
-9.29901E-1,1.23565E-1
-8.83972E-1,1.73858E-1
-8.49090E-1,2.81921E-1
-7.74963E-1,3.61846E-1
-7.62573E-1,4.27246E-1
-7.2229E-1,5.08270E-1
-6.96502E-1,5.09796E-1
-6.95098E-1,5.47485E-1
-6.31744E-1,5.79101E-1
-5.97747E-1,6.12304E-1
-5.43518E-1,7.16796E-1
-4.70275E-1,7.94891E-1
-4.27887E-1,8.83880E-1
-3.27453E-1,9.26513E-1
-2.91626E-1,9.02008E-1
-2.19696E-1,9.39514E-1
-0.81390E-1,9.22912E-1
-0.01434E-1,9.15985E-1
0.98022E-1,9.50927E-1
1.57531E-1,9.50653E-1
1.98486E-1,1.01001E0
3.23394E-1,9.89257E-1
4.02313E-1,8.98925E-1
4.92584E-1,8.40728E-1
5.95489E-1,7.59277E-1
6.63147E-1,7.15911E-1
7.54272E-1,6.75170E-1
7.66662E-1,5.97412E-1
7.74047E-1,5.60638E-1
8.10272E-1,4.81689E-1
8.27301E-1,3.99108E-1
8.96942E-1,3.38226E-1
9.68902E-1,2.35534E-1
9.96917E-1,1.72485E-1
1.02844E0,0.93933E-1
9.96795E-1,-0.13580E-1
9.62677E-1,-0.93597E-1
9.48913E-1,-2.11761E-1
9.08966E-1,-3.24127E-1
8.91540E-1,-4.03198E-1
8.42712E-1,-4.79339E-1
7.86041E-1,-4.95452E-1
7.58148E-1,-5.32348E-1
6.90948E-1,-6.02050E-1
6.21337E-1,-6.67114E-1
5.59234E-1,-7.52960E-1
4.77356E-1,-7.97180E-1
4.35485E-1,-8.24218E-1
3.58001E-1,-8.57086E-1
2.67730E-1,-8.39294E-1
1.88842E-1,-8.40148E-1
0.84594E-1,-8.41308E-1
0.22247E-1,-8.22814E-1
-0.28106E-1,-8.39172E-1
-0.75988E-1,-8.22906E-1
-1.00433E-1,-8.05908E-1
-1.57196E-1,-7.83203E-1
-2.20275E-1,-7.49145E-1
-3.03222E-1,-7.41058E-1
-3.92425E-1,-6.99523E-1
-4.18884E-1,-6.80603E-1
-4.61944E-1,-6.71295E-1
-4.85778E-1,-6.13616E-1
-4.99481E-1,-5.66375E-1
-5.51910E-1,-5.01983E-1
-5.78521E-1,-4.40582E-1
-6.34948E-1,-4.37194E-1
-6.95068E-1,-4.00116E-1
-6.98120E-1,-3.70910E-1
-7.13562E-1,-3.37951E-1
-7.17102E-1,-2.52716E-1
-7.31536E-1,-1.82159E-1
-7.80273E-1,-0.85083E-1
-7.80365E-1,-0.17944E-1
-8.02673E-1,-0.02929E-1
-7.93518E-1,0.47027E-1
-7.40142E-1,0.70800E-1
-7.22503E-1,1.20636E-1
-6.95831E-1,2.03613E-1
-7.10754E-1,2.63244E-1
-7.48474E-1,3.51074E-1
-7.29919E-1,3.99200E-1
-7.14630E-1,4.10430E-1
-6.57165E-1,4.58099E-1
-5.88714E-1,4.98443E-1
-5.41992E-1,5.86731E-1
-4.63897E-1,6.61254E-1
-4.64721E-1,6.81366E-1
-4.60205E-1,7.32513E-1
-4.03747E-1,7.35931E-1
-3.49975E-1,7.45330E-1
-2.49908E-1,7.92205E-1
-1.46759E-1,8.21441E-1
-0.72662E-1,9.00787E-1
0.13977E-1,9.25506E-1
0.39276E-1,9.0271E-1
0.98815E-1,8.89007E-1
1.90155E-1,8.23333E-1
2.67608E-1,7.73437E-1
3.64349E-1,7.38769E-1
3.95385E-1,7.33917E-1
4.47967E-1,7.64251E-1
5.07782E-1,7.31109E-1
5.3302E-1,6.72424E-1
5.89294E-1,6.07574E-1
6.41449E-1,5.18707E-1
7.06787E-1,4.87091E-1
7.86956E-1,4.33136E-1
8.05603E-1,3.71826E-1
8.10760E-1,3.35022E-1
8.20465E-1,2.59826E-1
8.14117E-1,1.75231E-1
8.37890E-1,0.91522E-1
8.53942E-1,0.03387E-1
8.57055E-1,-0.54138E-1
8.65661E-1,-0.99182E-1
8.52722E-1,-1.59973E-1
8.06121E-1,-2.24060E-1
7.69073E-1,-2.88970E-1
7.34039E-1,-3.62396E-1
7.15087E-1,-4.17053E-1
7.2052E-1,-4.72808E-1
6.86767E-1,-5.46173E-1
6.14135E-1,-5.81359E-1
5.4245E-1,-6.19842E-1
4.64202E-1,-6.36444E-1
4.36309E-1,-6.68548E-1
3.99963E-1,-7.43560E-1
3.30932E-1,-7.78595E-1
2.76275E-1,-7.75238E-1
END
BEGIN
-7.38098E-1,1.39770E-1
-7.54699E-1,1.81854E-1
-6.98577E-1,2.93609E-1
-6.47186E-1,2.79296E-1
-7.08587E-1,3.40026E-1
-6.41876E-1,4.55932E-1
-6.11938E-1,4.77569E-1
-5.70404E-1,5.86517E-1
-4.67742E-1,5.89843E-1
-4.95788E-1,6.06781E-1
-4.35577E-1,7.34008E-1
-3.32916E-1,7.52044E-1
-2.59674E-1,8.08532E-1
-1.28326E-1,7.94067E-1
-1.18774E-1,7.70660E-1
-0.48217E-1,8.58032E-1
0.73638E-1,8.31207E-1
1.28448E-1,8.40698E-1
2.76580E-1,7.97637E-1
2.85430E-1,6.86096E-1
2.90588E-1,7.18414E-1
4.01336E-1,6.94885E-1
4.26055E-1,6.56799E-1
5.3125E-1,6.54266E-1
5.83557E-1,5.30761E-1
5.61584E-1,5.15319E-1
6.50024E-1,4.99023E-1
6.84936E-1,4.25537E-1
7.59002E-1,4.00787E-1
8.21533E-1,2.49939E-1
7.56317E-1,1.82037E-1
7.89886E-1,1.66992E-1
8.08258E-1,0.92681E-1
8.55651E-1,0.56579E-1
9.05212E-1,-1.16760E-1
7.78015E-1,-2.11578E-1
7.63183E-1,-1.94610E-1
7.79144E-1,-2.65686E-1
7.79022E-1,-3.12042E-1
8.06549E-1,-4.56787E-1
6.45690E-1,-5.72113E-1
5.76965E-1,-5.26184E-1
5.75805E-1,-5.64575E-1
5.43548E-1,-5.9375E-1
5.64819E-1,-6.87011E-1
4.17266E-1,-8.21899E-1
2.99316E-1,-7.63732E-1
2.88085E-1,-7.76306E-1
2.24151E-1,-7.97515E-1
2.14508E-1,-8.35784E-1
0.76995E-1,-9.52331E-1
-0.90148E-1,-8.69659E-1
-1.03302E-1,-8.19213E-1
-1.62963E-1,-8.16833E-1
-1.81549E-1,-8.00903E-1
-2.64556E-1,-8.72070E-1
-4.35882E-1,-7.91839E-1
-4.45648E-1,-6.92627E-1
-4.86694E-1,-6.75537E-1
-5.14526E-1,-6.31744E-1
-5.60272E-1,-6.64520E-1
-7.13073E-1,-5.97381E-1
-7.14599E-1,-4.54132E-1
-7.13470E-1,-4.18396E-1
-7.31262E-1,-3.55529E-1
-7.41516E-1,-3.58123E-1
-8.69628E-1,-3.21197E-1
-8.93463E-1,-1.53839E-1
-8.49578E-1,-1.03118E-1
-8.61694E-1,-0.43609E-1
-8.49792E-1,-0.04150E-1
-9.27276E-1,0.42877E-1
-9.39178E-1,2.25189E-1
-8.43505E-1,2.99713E-1
-8.23364E-1,3.44024E-1
-7.81890E-1,4.01550E-1
-7.88635E-1,4.38781E-1
-7.80578E-1,5.68481E-1
-6.70623E-1,6.49200E-1
-6.04248E-1,6.72363E-1
-5.43701E-1,6.99615E-1
-5.26031E-1,7.22808E-1
-4.90417E-1,8.26721E-1
-3.62609E-1,8.80523E-1
-2.93701E-1,8.80676E-1
-2.09869E-1,9.10614E-1
-1.37359E-1,8.87298E-1
-1.12884E-1,9.21051E-1
-0.05249E-1,9.81323E-1
1.05194E-1,9.68231E-1
1.90856E-1,9.63439E-1
2.81524E-1,9.13330E-1
3.17169E-1,8.81286E-1
4.00848E-1,8.87725E-1
5.15991E-1,8.44299E-1
6.07177E-1,7.87231E-1
6.84417E-1,7.00592E-1
6.93603E-1,6.28936E-1
7.31628E-1,6.17187E-1
8.16375E-1,5.51971E-1
8.64807E-1,4.53735E-1
9.08905E-1,3.54431E-1
9.07531E-1,2.45819E-1
9.03717E-1,2.08374E-1
9.52850E-1,1.45111E-1
9.60449E-1,0.48461E-1
9.65332E-1,-0.33294E-1
9.47265E-1,-1.54876E-1
8.81073E-1,-2.19116E-1
8.78997E-1,-2.58422E-1
8.73474E-1,-3.48419E-1
8.41156E-1,-4.32891E-1
7.91381E-1,-5.37872E-1
6.82525E-1,-5.88867E-1
6.40930E-1,-5.86334E-1
6.22711E-1,-6.38336E-1
5.68695E-1,-6.97753E-1
4.98382E-1,-7.67944E-1
3.68713E-1,-8.01574E-1
3.00628E-1,-7.62847E-1
2.86560E-1,-7.77160E-1
2.45391E-1,-8.20282E-1
1.81152E-1,-8.64898E-1
0.58563E-1,-8.80065E-1
-0.30731E-1,-8.09783E-1
-0.51727E-1,-7.83294E-1
-0.93475E-1,-7.99133E-1
-1.50726E-1,-8.21807E-1
-2.58422E-1,-8.31878E-1
-3.48480E-1,-7.37121E-1
-3.40881E-1,-6.67205E-1
-3.55743E-1,-6.65344E-1
-4.11834E-1,-6.68548E-1
-5.00915E-1,-6.60339E-1
-5.84045E-1,-5.81756E-1
-5.84472E-1,-5.07690E-1
-5.90515E-1,-4.78179E-1
-6.12182E-1,-4.46228E-1
-6.57409E-1,-4.24560E-1
-7.33520E-1,-3.62457E-1
-7.48291E-1,-2.63855E-1
-7.37182E-1,-2.13256E-1
-7.32543E-1,-1.75476E-1
-7.48046E-1,-1.52832E-1
-7.99591E-1,-0.99731E-1
-8.13049E-1,-0.00396E-1
-7.92083E-1,0.63812E-1
-7.77771E-1,1.16180E-1
-7.66357E-1,1.44744E-1
-7.98309E-1,1.98242E-1
-8.00201E-1,3.10638E-1
-7.34649E-1,3.94287E-1
-6.91558E-1,4.30175E-1
-6.53381E-1,4.56420E-1
-6.48986E-1,4.70428E-1
-6.32415E-1,5.73120E-1
-5.58898E-1,6.58386E-1
-4.86816E-1,7.03704E-1
-4.18548E-1,7.35595E-1
-3.75274E-1,7.40783E-1
-3.38165E-1,7.80822E-1
-2.53479E-1,8.20373E-1
-1.64428E-1,8.28308E-1
-0.77789E-1,8.34869E-1
-0.14709E-1,8.16467E-1
0.11749E-1,8.29223E-1
0.74188E-1,8.49945E-1
1.49963E-1,8.36364E-1
2.28912E-1,8.11279E-1
3.05664E-1,7.61474E-1
3.46313E-1,7.34741E-1
4.06127E-1,7.35595E-1
4.75952E-1,7.09625E-1
5.27435E-1,6.63848E-1
5.72784E-1,5.98510E-1
5.93353E-1,5.39093E-1
6.33728E-1,5.03692E-1
6.90124E-1,4.55322E-1
7.30102E-1,3.99566E-1
7.60162E-1,3.40545E-1
7.71850E-1,2.74597E-1
7.80212E-1,2.18078E-1
7.97241E-1,1.56219E-1
8.09936E-1,0.91156E-1
8.20922E-1,0.26702E-1
8.18237E-1,-0.40771E-1
8.01574E-1,-1.01684E-1
7.85247E-1,-1.58386E-1
7.73712E-1,-2.13501E-1
7.60894E-1,-2.72583E-1
7.45758E-1,-3.28765E-1
7.22229E-1,-3.90045E-1
6.76971E-1,-4.45373E-1
6.38275E-1,-4.89563E-1
5.98510E-1,-5.42236E-1
5.63232E-1,-5.86242E-1
5.39154E-1,-6.36230E-1
4.80133E-1,-6.90551E-1
4.11010E-1,-7.07794E-1
3.49670E-1,-7.26593E-1
2.88604E-1,-7.42736E-1
END
BEGIN
-5.55450E-1,0.19104E-1
-5.81176E-1,0.74798E-1
-5.94299E-1,1.59179E-1
-5.74920E-1,2.39227E-1
-5.24200E-1,3.11004E-1
-4.79217E-1,3.49319E-1
-4.61456E-1,4.03457E-1
-4.38583E-1,4.67498E-1
-3.95141E-1,5.34942E-1
-3.21960E-1,5.74279E-1
-2.52502E-1,5.81970E-1
-2.00622E-1,5.90240E-1
-1.58813E-1,6.19903E-1
-0.91461E-1,6.73248E-1
-0.03967E-1,6.88324E-1
0.72692E-1,6.69891E-1
1.24084E-1,6.34002E-1
1.61468E-1,6.20666E-1
2.23877E-1,6.34185E-1
3.11554E-1,6.10321E-1
3.76434E-1,5.63324E-1
4.13589E-1,4.99664E-1
4.24102E-1,4.55001E-1
4.62112E-1,4.25949E-1
5.25360E-1,3.73840E-1
5.73455E-1,3.02398E-1
5.91400E-1,2.17254E-1
5.75500E-1,1.58996E-1
5.73669E-1,1.15203E-1
5.90667E-1,0.71167E-1
6.08581E-1,-0.06469E-1
5.97015E-1,-0.90545E-1
5.55999E-1,-1.45538E-1
5.16265E-1,-1.67541E-1
5.05035E-1,-1.77490E-1
4.95575E-1,-2.42126E-1
4.51660E-1,-3.04458E-1
3.88382E-1,-3.48373E-1
3.37707E-1,-3.47549E-1
3.08212E-1,-3.43917E-1
2.90512E-1,-3.64471E-1
2.46353E-1,-3.97903E-1
1.76223E-1,-4.24346E-1
1.21978E-1,-4.10827E-1
0.94177E-1,-3.99429E-1
0.89355E-1,-3.93508E-1
0.54611E-1,-4.08325E-1
-0.06179E-1,-4.10430E-1
-0.65338E-1,-3.80279E-1
-0.86303E-1,-3.55667E-1
-1.01882E-1,-3.33297E-1
-1.11068E-1,-3.40591E-1
-1.57699E-1,-3.39965E-1
-2.08328E-1,-3.06701E-1
-2.32803E-1,-2.66708E-1
-2.38487E-1,-2.40089E-1
-2.36358E-1,-2.45529E-1
-2.66861E-1,-2.42309E-1
-3.0159E-1,-2.05688E-1
-3.13201E-1,-1.49871E-1
-3.11706E-1,-1.18286E-1
-3.09326E-1,-1.00448E-1
-3.29025E-1,-0.95962E-1
-3.61862E-1,-0.61477E-1
-3.68164E-1,-0.01800E-1
-3.52157E-1,0.44342E-1
-3.36502E-1,0.70846E-1
-3.48327E-1,0.73135E-1
-3.67904E-1,1.03408E-1
-3.61572E-1,1.48147E-1
-3.26095E-1,1.84875E-1
-2.95135E-1,2.10571E-1
-2.70706E-1,2.26272E-1
-2.65014E-1,2.53845E-1
-2.47299E-1,2.97821E-1
-2.02850E-1,3.33923E-1
-1.49536E-1,3.52447E-1
-1.03118E-1,3.48449E-1
-0.90164E-1,3.59939E-1
-0.69534E-1,3.87283E-1
-0.28869E-1,4.10781E-1
0.24414E-1,4.04281E-1
0.67581E-1,3.79608E-1
0.96481E-1,3.59237E-1
1.21643E-1,3.53408E-1
1.62811E-1,3.57864E-1
2.16751E-1,3.36486E-1
2.53723E-1,2.92526E-1
2.72918E-1,2.40402E-1
2.83630E-1,2.15179E-1
3.08624E-1,2.04544E-1
3.46206E-1,1.81381E-1
3.57452E-1,1.30447E-1
3.47335E-1,0.77133E-1
3.24249E-1,0.32455E-1
3.16452E-1,0.02685E-1
3.25836E-1,-0.29525E-1
3.25164E-1,-0.76583E-1
3.03085E-1,-1.23382E-1
2.56073E-1,-1.54922E-1
2.24609E-1,-1.70646E-1
2.18505E-1,-1.88072E-1
2.19955E-1,-2.26165E-1
1.93359E-1,-2.54455E-1
1.53533E-1,-2.64587E-1
1.08993E-1,-2.55950E-1
0.85952E-1,-2.45460E-1
0.70678E-1,-2.59475E-1
0.41000E-1,-2.75100E-1
0.05035E-1,-2.78717E-1
-0.37414E-1,-2.61261E-1
-0.61027E-1,-2.36587E-1
-0.72380E-1,-2.32879E-1
-0.92117E-1,-2.50442E-1
-1.23001E-1,-2.55416E-1
-1.52084E-1,-2.36084E-1
-1.63711E-1,-2.03208E-1
-1.67671E-1,-1.82426E-1
-1.81663E-1,-1.77810E-1
-2.07977E-1,-1.73378E-1
-2.41058E-1,-1.59454E-1
-2.59277E-1,-1.24694E-1
-2.63626E-1,-0.94207E-1
-2.68066E-1,-0.77194E-1
-2.95425E-1,-0.70663E-1
-3.34198E-1,-0.46890E-1
-3.52462E-1,-0.06988E-1
-3.4935E-1,0.25497E-1
-3.38165E-1,0.43396E-1
-3.45947E-1,0.55755E-1
-3.63861E-1,0.85250E-1
-3.71933E-1,1.36642E-1
-3.57345E-1,1.83303E-1
-3.39035E-1,2.16339E-1
-3.30612E-1,2.36206E-1
-3.33496E-1,2.69516E-1
-3.27590E-1,3.16757E-1
-3.00537E-1,3.60473E-1
-2.70538E-1,3.86734E-1
-2.46307E-1,4.05471E-1
-2.31262E-1,4.24819E-1
-2.10754E-1,4.54040E-1
-1.71844E-1,4.86831E-1
-1.22650E-1,5.05462E-1
-0.72143E-1,5.17211E-1
-0.31524E-1,5.16662E-1
0.04608E-1,5.27740E-1
0.57006E-1,5.46051E-1
1.26556E-1,5.51635E-1
1.90673E-1,5.41595E-1
2.30957E-1,5.21637E-1
2.55462E-1,5.18005E-1
2.91900E-1,5.11230E-1
3.44986E-1,4.88876E-1
4.18167E-1,4.32327E-1
4.40002E-1,3.92639E-1
4.68261E-1,3.54980E-1
4.97757E-1,3.23013E-1
5.30456E-1,2.84606E-1
5.64392E-1,2.22045E-1
5.81298E-1,1.48376E-1
5.87921E-1,0.89050E-1
5.99273E-1,0.43243E-1
6.10931E-1,0.04943E-1
6.25244E-1,-0.46875E-1
6.08337E-1,-1.03515E-1
5.81695E-1,-1.58538E-1
5.48461E-1,-2.06298E-1
5.16357E-1,-2.46032E-1
4.88494E-1,-2.8479E-1
4.49890E-1,-3.37631E-1
3.97522E-1,-3.86779E-1
3.38256E-1,-4.20517E-1
2.89123E-1,-4.41833E-1
2.55767E-1,-4.59182E-1
2.14111E-1,-4.87808E-1
1.56158E-1,-5.00488E-1
0.94055E-1,-5.04241E-1
0.36941E-1,-4.94918E-1
-0.05447E-1,-4.82498E-1
-0.42617E-1,-4.79721E-1
-0.93887E-1,-4.67880E-1
-1.46865E-1,-4.45068E-1
-2.01583E-1,-4.08828E-1
-2.40310E-1,-3.71994E-1
-2.71850E-1,-3.51379E-1
-3.06015E-1,-3.34655E-1
-3.34793E-1,-3.12057E-1
-3.59390E-1,-2.75894E-1
-3.68972E-1,-2.29385E-1
-3.73321E-1,-1.9133E-1
-3.82247E-1,-1.60537E-1
-4.01519E-1,-1.27273E-1
-4.11331E-1,-0.82885E-1
-4.07180E-1,-0.35293E-1
-3.97094E-1,0.07003E-1
-3.86291E-1,0.47927E-1
-3.91494E-1,0.74264E-1
-3.98147E-1,1.12136E-1
-3.91372E-1,1.44607E-1
-3.74450E-1,1.72226E-1
END
