CITIFILE A.01.01
#NA VERSION HP8510C.08.10
NAME DATA
#NA REGISTER 1
VAR FREQ MAG 201
DATA S[1,1] RI
DATA S[2,1] RI
DATA S[1,2] RI
DATA S[2,2] RI
SEG_LIST_BEGIN
SEG 8000000000 12000000000 201
SEG_LIST_END
COMMENT       YEAR MONTH DAY HOUR MINUTE SECONDS
CONSTANT TIME 2013   09   12  23    14    07.0
BEGIN
-4.45999E-1,-3.72894E-1
-4.98748E-1,-3.51944E-1
-5.35430E-1,-3.04901E-1
-5.52551E-1,-2.59765E-1
-5.62927E-1,-2.06848E-1
-5.57525E-1,-1.58142E-1
-5.65124E-1,-0.89843E-1
-5.70220E-1,-0.02136E-1
-5.95642E-1,0.85540E-1
-6.18866E-1,1.43127E-1
-6.24115E-1,1.59576E-1
-5.91369E-1,1.68060E-1
-5.21667E-1,2.01202E-1
-4.48364E-1,2.93411E-1
-3.96270E-1,4.07180E-1
-3.98391E-1,4.99206E-1
-4.21081E-1,5.31311E-1
-4.24865E-1,5.0E-1
-3.64883E-1,4.71832E-1
-2.20062E-1,4.74334E-1
-0.87158E-1,5.23284E-1
-0.15228E-1,6.02813E-1
-0.21423E-1,6.59973E-1
-0.46844E-1,6.63879E-1
-0.25573E-1,5.99548E-1
0.54290E-1,5.12573E-1
1.72088E-1,4.59320E-1
2.76046E-1,4.68353E-1
3.39752E-1,5.04303E-1
3.45764E-1,5.26275E-1
3.45565E-1,4.88861E-1
3.56399E-1,4.00833E-1
3.94256E-1,3.12347E-1
4.52987E-1,2.42340E-1
5.07202E-1,2.12219E-1
5.52093E-1,1.69891E-1
5.50659E-1,1.33392E-1
5.43151E-1,0.97564E-1
5.32806E-1,0.50231E-1
5.06988E-1,-0.11962E-1
4.83245E-1,-0.86624E-1
4.62478E-1,-1.63467E-1
4.66308E-1,-2.40570E-1
4.79538E-1,-2.84469E-1
4.77829E-1,-3.02261E-1
4.37957E-1,-2.90130E-1
3.44131E-1,-3.04336E-1
2.46658E-1,-3.60214E-1
1.82861E-1,-4.46868E-1
1.83166E-1,-5.33874E-1
1.90734E-1,-5.54473E-1
1.92108E-1,-5.02899E-1
1.30889E-1,-4.35806E-1
0.06362E-1,-4.03137E-1
-1.15509E-1,-4.32144E-1
-1.87286E-1,-5.00152E-1
-1.78772E-1,-5.44860E-1
-1.47674E-1,-5.18219E-1
-1.51840E-1,-4.26788E-1
-2.17025E-1,-3.15200E-1
-3.22784E-1,-2.64984E-1
-4.12735E-1,-2.65487E-1
-4.33914E-1,-3.01086E-1
-4.08065E-1,-3.11355E-1
-3.72329E-1,-2.48809E-1
-3.60397E-1,-1.47750E-1
-3.93676E-1,-0.54138E-1
-4.45892E-1,-0.14862E-1
-4.80651E-1,0.02059E-1
-4.70840E-1,0.15396E-1
-4.21203E-1,0.42678E-1
-5.70037E-1,3.57543E-1
-5.26397E-1,1.76086E-1
-3.26904E-1,1.70318E-1
-3.05358E-1,2.04681E-1
-2.81204E-1,2.46231E-1
-2.67181E-1,2.82989E-1
-2.61779E-1,2.89810E-1
-2.66479E-1,2.72003E-1
-2.27050E-1,2.47810E-1
-1.45507E-1,2.52334E-1
-0.46737E-1,2.86056E-1
-0.10589E-1,3.42254E-1
-0.45654E-1,3.9505E-1
-1.02600E-1,3.79898E-1
-1.20346E-1,3.03115E-1
-0.47615E-1,2.15202E-1
0.67024E-1,1.80946E-1
1.58058E-1,2.31750E-1
1.69403E-1,3.30154E-1
1.00280E-1,3.85620E-1
0.25878E-1,3.43215E-1
0.16922E-1,2.14492E-1
9.04731E-2,1.13510E-1
2.08877E-1,0.97404E-1
2.96508E-1,1.60339E-1
2.92236E-1,2.44735E-1
2.21527E-1,2.69378E-1
1.57852E-1,2.10647E-1
1.57508E-1,1.04850E-1
2.28347E-1,0.34034E-1
3.17932E-1,0.22399E-1
3.78524E-1,0.46951E-1
3.64898E-1,0.58120E-1
3.19213E-1,0.3685E-1
2.87597E-1,-0.22140E-1
2.89291E-1,-0.88180E-1
3.05786E-1,-1.41128E-1
3.07418E-1,-1.78375E-1
3.00094E-1,-2.09075E-1
2.86315E-1,-2.48107E-1
2.82104E-1,-2.80395E-1
2.72506E-1,-2.92022E-1
2.41241E-1,-2.98141E-1
1.68396E-1,-3.16787E-1
0.87966E-1,-3.67324E-1
0.43914E-1,-4.38125E-1
0.47012E-1,-4.95727E-1
0.71334E-1,-4.91638E-1
0.65429E-1,-4.28787E-1
-0.11215E-1,-3.70407E-1
-1.42639E-1,-3.54095E-1
-2.51556E-1,-4.04220E-1
-2.77313E-1,-4.75906E-1
-2.33886E-1,-5.17517E-1
-1.96212E-1,-4.70657E-1
-2.30865E-1,-3.53134E-1
-3.33587E-1,-2.45681E-1
-4.52590E-1,-2.26028E-1
-5.27954E-1,-2.81280E-1
-5.13580E-1,-3.37066E-1
-4.62631E-1,-3.17001E-1
-4.21905E-1,-2.01049E-1
-4.45419E-1,-0.71258E-1
-5.30090E-1,-0.07324E-1
-6.15631E-1,-0.09338E-1
-6.37573E-1,-0.40435E-1
-5.89599E-1,-0.27099E-1
-5.08422E-1,0.49591E-1
-4.82025E-1,1.46331E-1
-5.18981E-1,2.30163E-1
-5.56762E-1,2.66784E-1
-5.63751E-1,2.70690E-1
-5.14251E-1,2.84576E-1
-4.42916E-1,3.25515E-1
-4.09622E-1,3.82766E-1
-4.09103E-1,4.32815E-1
-4.07653E-1,4.48303E-1
-3.78646E-1,4.67651E-1
-2.91473E-1,4.97451E-1
-2.24945E-1,5.25268E-1
-2.15332E-1,5.84289E-1
-2.21038E-1,6.02356E-1
-2.10449E-1,5.76416E-1
-1.26434E-1,5.49957E-1
-0.10253E-1,5.30151E-1
0.70495E-1,5.74279E-1
1.03210E-1,6.46881E-1
0.58898E-1,6.65557E-1
0.35430E-1,6.16638E-1
1.02905E-1,5.12329E-1
2.14370E-1,4.41284E-1
3.49273E-1,4.64416E-1
4.22668E-1,5.35339E-1
4.01092E-1,5.94848E-1
3.33770E-1,5.39947E-1
3.15872E-1,3.95111E-1
3.93142E-1,2.63137E-1
5.21453E-1,1.94793E-1
6.09008E-1,2.19757E-1
6.06933E-1,2.90649E-1
5.27618E-1,2.99926E-1
4.45266E-1,2.01187E-1
4.47174E-1,0.54428E-1
5.22705E-1,-0.56457E-1
6.10504E-1,-0.88928E-1
6.44012E-1,-0.55450E-1
5.88317E-1,-0.37689E-1
4.87930E-1,-0.85113E-1
4.25872E-1,-1.92428E-1
4.28543E-1,-2.94311E-1
4.60998E-1,-3.4021E-1
4.77645E-1,-3.45214E-1
4.29748E-1,-3.33435E-1
3.49884E-1,-3.56552E-1
2.84362E-1,-4.21112E-1
2.60833E-1,-4.82742E-1
2.46368E-1,-5.05889E-1
2.03109E-1,-4.96994E-1
1.2883E-1,-4.83322E-1
0.42923E-1,-4.99084E-1
-0.09521E-1,-5.36499E-1
-0.14587E-1,-5.58502E-1
-0.20904E-1,-5.33294E-1
-0.74081E-1,-4.65835E-1
-1.71920E-1,-4.18899E-1
-2.74139E-1,-4.20257E-1
-3.17733E-1,-4.75631E-1
-3.08013E-1,-5.12664E-1
-2.72247E-1,-4.56924E-1
-2.84774E-1,-3.40713E-1
END
BEGIN
-8.29223E-1,1.81976E-1
-7.84332E-1,2.33947E-1
-7.98950E-1,2.59124E-1
-7.34771E-1,3.61511E-1
-6.38458E-1,3.98742E-1
-5.71655E-1,4.83551E-1
-4.75769E-1,5.27679E-1
-4.69299E-1,5.41931E-1
-4.78942E-1,6.08001E-1
-4.39514E-1,6.17675E-1
-4.11834E-1,6.42150E-1
-2.96508E-1,6.45294E-1
-2.54058E-1,6.23321E-1
-2.20367E-1,7.25036E-1
-1.05163E-1,8.00628E-1
-0.69671E-1,8.26385E-1
0.13855E-1,8.46435E-1
0.48187E-1,7.49084E-1
0.43243E-1,7.47833E-1
1.77154E-1,7.70416E-1
2.85156E-1,7.53112E-1
4.14794E-1,7.99041E-1
5.16662E-1,7.29217E-1
4.89715E-1,7.07702E-1
5.67352E-1,6.91741E-1
6.11572E-1,5.49377E-1
6.72912E-1,4.76104E-1
7.78625E-1,3.25653E-1
7.43804E-1,2.38159E-1
7.52807E-1,2.79693E-1
7.66326E-1,2.52197E-1
7.41363E-1,2.46368E-1
7.92938E-1,1.54541E-1
7.50579E-1,0.10070E-1
7.63488E-1,-0.07598E-1
8.81652E-1,-0.54382E-1
9.42718E-1,-1.25122E-1
1.00952E0,-2.35046E-1
8.66760E-1,-4.25018E-1
7.10540E-1,-4.29260E-1
7.06420E-1,-5.03082E-1
6.45019E-1,-6.28265E-1
6.31164E-1,-6.76116E-1
5.79040E-1,-7.80700E-1
4.45282E-1,-7.30499E-1
4.36340E-1,-6.97174E-1
3.51043E-1,-7.81677E-1
2.54119E-1,-8.12103E-1
2.08190E-1,-9.16900E-1
0.36987E-1,-9.67346E-1
-0.14709E-1,-8.68530E-1
-0.41290E-1,-8.48510E-1
-1.21978E-1,-7.91107E-1
-1.65466E-1,-7.71118E-1
-2.75909E-1,-7.89794E-1
-3.47259E-1,-7.38861E-1
-3.56597E-1,-7.46093E-1
-4.03747E-1,-7.29583E-1
-4.17938E-1,-7.03216E-1
-5.17272E-1,-6.98730E-1
-6.35833E-1,-5.86608E-1
-6.70745E-1,-5.11901E-1
-7.38342E-1,-4.62280E-1
-7.27386E-1,-3.88763E-1
-7.26074E-1,-4.00665E-1
-7.83355E-1,-3.27392E-1
-7.63183E-1,-2.32238E-1
-7.82348E-1,-1.88171E-1
-8.27850E-1,-1.16760E-1
-8.69659E-1,-0.87188E-1
-9.51751E-1,-0.07385E-1
-9.10247E-1,0.98266E-1
-8.56475E-1,1.56555E-1
-8.47412E-1,2.69165E-1
-7.81463E-1,3.51623E-1
-7.68463E-1,4.20013E-1
-7.28179E-1,5.00732E-1
-7.00927E-1,5.07995E-1
-6.97723E-1,5.47882E-1
-6.35772E-1,5.82305E-1
-6.00128E-1,6.20269E-1
-5.41046E-1,7.22686E-1
-4.67285E-1,7.97515E-1
-4.22271E-1,8.85223E-1
-3.22570E-1,9.26208E-1
-2.87231E-1,9.05334E-1
-2.11517E-1,9.42962E-1
-0.76477E-1,9.23950E-1
0.04577E-1,9.17053E-1
1.07177E-1,9.48303E-1
1.65527E-1,9.47753E-1
2.07397E-1,1.00878E0
3.32428E-1,9.86846E-1
4.10369E-1,8.94073E-1
5.00610E-1,8.34777E-1
6.01989E-1,7.48565E-1
6.68670E-1,7.04925E-1
7.62695E-1,6.65130E-1
7.70477E-1,5.84625E-1
7.74475E-1,5.50354E-1
8.08685E-1,4.70214E-1
8.21350E-1,3.87237E-1
8.92517E-1,3.29559E-1
9.67346E-1,2.24945E-1
9.95300E-1,1.65435E-1
1.03027E0,0.88378E-1
9.94537E-1,-0.21637E-1
9.54986E-1,-1.01318E-1
9.39697E-1,-2.22686E-1
8.95874E-1,-3.37066E-1
8.80310E-1,-4.15252E-1
8.29620E-1,-4.89959E-1
7.71942E-1,-4.94415E-1
7.46643E-1,-5.25177E-1
6.76086E-1,-5.94574E-1
6.09741E-1,-6.59393E-1
5.48278E-1,-7.50305E-1
4.67346E-1,-7.92968E-1
4.32006E-1,-8.18969E-1
3.55896E-1,-8.50738E-1
2.64282E-1,-8.25164E-1
1.87133E-1,-8.26477E-1
0.80078E-1,-8.27819E-1
0.22064E-1,-8.10852E-1
-0.24353E-1,-8.32458E-1
-0.67657E-1,-8.15368E-1
-0.86395E-1,-7.98889E-1
-1.43890E-1,-7.76733E-1
-2.07336E-1,-7.45239E-1
-2.92144E-1,-7.43164E-1
-3.86138E-1,-7.04406E-1
-4.09851E-1,-6.89422E-1
-4.54834E-1,-6.84387E-1
-4.78637E-1,-6.23840E-1
-4.92309E-1,-5.77087E-1
-5.51788E-1,-5.11627E-1
-5.78064E-1,-4.49493E-1
-6.38244E-1,-4.54254E-1
-7.04223E-1,-4.17511E-1
-7.06054E-1,-3.88580E-1
-7.25341E-1,-3.53698E-1
-7.29522E-1,-2.62023E-1
-7.47161E-1,-1.90673E-1
-8.02764E-1,-0.86914E-1
-8.01605E-1,-0.15747E-1
-8.24890E-1,-0.0177E-1
-8.13293E-1,0.52154E-1
-7.54882E-1,0.75073E-1
-7.39135E-1,1.26709E-1
-7.11761E-1,2.15026E-1
-7.24670E-1,2.76977E-1
-7.63397E-1,3.68866E-1
-7.39715E-1,4.18121E-1
-7.25067E-1,4.27185E-1
-6.65679E-1,4.79766E-1
-5.91705E-1,5.18615E-1
-5.42816E-1,6.0672E-1
-4.58068E-1,6.80816E-1
-4.59503E-1,6.97692E-1
-4.56543E-1,7.52685E-1
-3.97277E-1,7.55889E-1
-3.42895E-1,7.63519E-1
-2.38464E-1,8.09509E-1
-1.32110E-1,8.31787E-1
-0.58868E-1,9.12170E-1
0.33813E-1,9.34051E-1
0.56915E-1,9.10186E-1
1.15295E-1,8.97369E-1
2.05108E-1,8.26141E-1
2.77496E-1,7.73742E-1
3.73077E-1,7.38616E-1
4.06066E-1,7.32971E-1
4.60266E-1,7.65716E-1
5.24444E-1,7.31292E-1
5.45501E-1,6.71905E-1
5.98205E-1,6.09375E-1
6.49536E-1,5.19622E-1
7.14691E-1,4.87060E-1
7.99652E-1,4.31457E-1
8.19519E-1,3.66302E-1
8.23303E-1,3.34381E-1
8.34472E-1,2.62481E-1
8.26904E-1,1.76452E-1
8.51226E-1,0.94329E-1
8.67034E-1,-0.01098E-1
8.68286E-1,-0.59783E-1
8.82171E-1,-1.03881E-1
8.69995E-1,-1.65466E-1
8.23181E-1,-2.27691E-1
7.88818E-1,-2.94952E-1
7.49389E-1,-3.71154E-1
7.30560E-1,-4.24926E-1
7.38922E-1,-4.87731E-1
7.04986E-1,-5.65216E-1
6.35833E-1,-6.01623E-1
5.59600E-1,-6.46606E-1
4.77294E-1,-6.58111E-1
4.49920E-1,-6.92596E-1
4.08752E-1,-7.71881E-1
3.37310E-1,-8.07037E-1
2.81555E-1,-8.11035E-1
END
BEGIN
-7.40387E-1,1.31195E-1
-7.56866E-1,1.71997E-1
-7.04498E-1,2.87353E-1
-6.48193E-1,2.73834E-1
-7.11364E-1,3.28796E-1
-6.48620E-1,4.49310E-1
-6.17767E-1,4.70397E-1
-5.81909E-1,5.81543E-1
-4.76135E-1,5.89172E-1
-5.03692E-1,6.02752E-1
-4.47937E-1,7.32360E-1
-3.43872E-1,7.53814E-1
-2.71423E-1,8.13964E-1
-1.36718E-1,8.03680E-1
-1.24359E-1,7.78503E-1
-0.52673E-1,8.67889E-1
0.71044E-1,8.43414E-1
1.28265E-1,8.52172E-1
2.78381E-1,8.12316E-1
2.92144E-1,6.99096E-1
3.00598E-1,7.28698E-1
4.12200E-1,7.02545E-1
4.39544E-1,6.64093E-1
5.45440E-1,6.59118E-1
5.99304E-1,5.35095E-1
5.80108E-1,5.15899E-1
6.68396E-1,4.95880E-1
7.02606E-1,4.19342E-1
7.76275E-1,3.89068E-1
8.34594E-1,2.36816E-1
7.70355E-1,1.68792E-1
8.02948E-1,1.48620E-1
8.17932E-1,0.73181E-1
8.62945E-1,0.32806E-1
9.04937E-1,-1.37847E-1
7.79846E-1,-2.31323E-1
7.64617E-1,-2.20947E-1
7.72735E-1,-2.93792E-1
7.67791E-1,-3.40057E-1
7.86315E-1,-4.81597E-1
6.25640E-1,-5.88958E-1
5.57861E-1,-5.43426E-1
5.52185E-1,-5.80627E-1
5.17639E-1,-6.06628E-1
5.34149E-1,-6.96441E-1
3.84521E-1,-8.22479E-1
2.71484E-1,-7.61322E-1
2.60406E-1,-7.72857E-1
1.96868E-1,-7.90130E-1
1.87683E-1,-8.26721E-1
0.48553E-1,-9.36950E-1
-1.11755E-1,-8.47229E-1
-1.20483E-1,-7.97912E-1
-1.77856E-1,-7.93853E-1
-1.92718E-1,-7.78747E-1
-2.76947E-1,-8.49334E-1
-4.44183E-1,-7.62512E-1
-4.45648E-1,-6.65832E-1
-4.84985E-1,-6.51184E-1
-5.08636E-1,-6.10504E-1
-5.55145E-1,-6.47583E-1
-7.09747E-1,-5.75622E-1
-7.03125E-1,-4.33288E-1
-7.0047E-1,-4.02984E-1
-7.16583E-1,-3.43902E-1
-7.2995E-1,-3.52874E-1
-8.64654E-1,-3.12225E-1
-8.81134E-1,-1.40930E-1
-8.37310E-1,-0.97015E-1
-8.50280E-1,-0.38574E-1
-8.41461E-1,-0.02471E-1
-9.66522E-1,0.52337E-1
-9.45678E-1,2.46276E-1
-8.31146E-1,3.02764E-1
-8.13964E-1,3.45916E-1
-7.73895E-1,4.02587E-1
-7.85308E-1,4.42382E-1
-7.71484E-1,5.77270E-1
-6.59118E-1,6.52069E-1
-5.96313E-1,6.74224E-1
-5.36285E-1,7.03125E-1
-5.19622E-1,7.29553E-1
-4.77356E-1,8.36242E-1
-3.47076E-1,8.83606E-1
-2.80609E-1,8.83026E-1
-1.95648E-1,9.12170E-1
-1.25976E-1,8.88427E-1
-0.96740E-1,9.25354E-1
0.15502E-1,9.81414E-1
1.24725E-1,9.64477E-1
2.09747E-1,9.57702E-1
2.99621E-1,9.05944E-1
3.33252E-1,8.73321E-1
4.19403E-1,8.78082E-1
5.32592E-1,8.31451E-1
6.23535E-1,7.72491E-1
6.99585E-1,6.81427E-1
7.03613E-1,6.08978E-1
7.40173E-1,5.99914E-1
8.27056E-1,5.32959E-1
8.72863E-1,4.30938E-1
9.16473E-1,3.28552E-1
9.05334E-1,2.16766E-1
8.97979E-1,1.86340E-1
9.50225E-1,1.23352E-1
9.53918E-1,0.23895E-1
9.59045E-1,-0.56671E-1
9.33136E-1,-1.83166E-1
8.58825E-1,-2.37243E-1
8.62701E-1,-2.70752E-1
8.56872E-1,-3.63525E-1
8.24218E-1,-4.46777E-1
7.67120E-1,-5.52276E-1
6.51123E-1,-5.91827E-1
6.19964E-1,-5.81481E-1
6.05316E-1,-6.37573E-1
5.52215E-1,-6.95983E-1
4.79980E-1,-7.67150E-1
3.46160E-1,-7.90618E-1
2.87902E-1,-7.45819E-1
2.81463E-1,-7.65258E-1
2.41027E-1,-8.12774E-1
1.75750E-1,-8.61816E-1
0.47699E-1,-8.73260E-1
-0.33752E-1,-7.96936E-1
-0.48950E-1,-7.74810E-1
-0.92376E-1,-7.94769E-1
-1.49383E-1,-8.22021E-1
-2.62695E-1,-8.31787E-1
-3.50494E-1,-7.30712E-1
-3.36273E-1,-6.65710E-1
-3.55072E-1,-6.68884E-1
-4.12628E-1,-6.73156E-1
-5.06561E-1,-6.66412E-1
-5.92681E-1,-5.83496E-1
-5.89660E-1,-5.10223E-1
-5.96832E-1,-4.84497E-1
-6.21795E-1,-4.52575E-1
-6.70806E-1,-4.31945E-1
-7.54211E-1,-3.64837E-1
-7.65319E-1,-2.60376E-1
-7.53814E-1,-2.11303E-1
-7.50732E-1,-1.71112E-1
-7.67242E-1,-1.46209E-1
-8.22052E-1,-0.88684E-1
-8.32611E-1,0.16937E-1
-8.09509E-1,0.80963E-1
-7.94006E-1,1.34826E-1
-7.80853E-1,1.64489E-1
-8.13415E-1,2.19635E-1
-8.13171E-1,3.42315E-1
-7.38983E-1,4.25781E-1
-6.95251E-1,4.59137E-1
-6.53869E-1,4.87152E-1
-6.46850E-1,4.97985E-1
-6.28112E-1,6.05926E-1
-5.45105E-1,6.91406E-1
-4.69604E-1,7.32635E-1
-3.99688E-1,7.64404E-1
-3.53302E-1,7.66326E-1
-3.18084E-1,8.04443E-1
-2.28363E-1,8.42987E-1
-1.35009E-1,8.43292E-1
-0.48004E-1,8.46588E-1
0.16418E-1,8.2547E-1
0.40466E-1,8.35876E-1
1.04126E-1,8.57818E-1
1.81732E-1,8.38195E-1
2.58514E-1,8.08898E-1
3.34106E-1,7.55218E-1
3.72253E-1,7.25311E-1
4.31640E-1,7.28820E-1
5.02899E-1,6.99829E-1
5.50079E-1,6.51306E-1
5.94116E-1,5.85144E-1
6.11114E-1,5.23895E-1
6.48193E-1,4.90783E-1
7.06329E-1,4.42688E-1
7.45636E-1,3.83880E-1
7.74444E-1,3.25439E-1
7.84729E-1,2.58056E-1
7.90191E-1,2.02789E-1
8.08746E-1,1.43463E-1
8.22692E-1,0.75134E-1
8.31268E-1,0.10711E-1
8.30139E-1,-0.56945E-1
8.10943E-1,-1.19049E-1
7.94738E-1,-1.73034E-1
7.85064E-1,-2.31689E-1
7.70752E-1,-2.91809E-1
7.57049E-1,-3.47351E-1
7.33123E-1,-4.13330E-1
6.85058E-1,-4.68505E-1
6.46026E-1,-5.13031E-1
6.04034E-1,-5.68786E-1
5.68969E-1,-6.13586E-1
5.43823E-1,-6.69555E-1
4.80590E-1,-7.23053E-1
4.10156E-1,-7.40264E-1
3.46405E-1,-7.59429E-1
2.80120E-1,-7.75878E-1
END
BEGIN
-5.04486E-1,0.33233E-1
-5.26825E-1,0.83190E-1
-5.39733E-1,1.59973E-1
-5.20355E-1,2.34741E-1
-4.68948E-1,3.02093E-1
-4.22531E-1,3.36395E-1
-4.04495E-1,3.83804E-1
-3.85833E-1,4.42321E-1
-3.45550E-1,5.05279E-1
-2.75909E-1,5.41473E-1
-2.07672E-1,5.45837E-1
-1.58477E-1,5.50079E-1
-1.21185E-1,5.77423E-1
-0.59082E-1,6.28234E-1
0.22338E-1,6.41449E-1
0.95611E-1,6.22100E-1
1.43859E-1,5.84503E-1
1.77459E-1,5.71167E-1
2.35839E-1,5.85266E-1
3.18969E-1,5.625E-1
3.79730E-1,5.17761E-1
4.12826E-1,4.54162E-1
4.20837E-1,4.11682E-1
4.56481E-1,3.84292E-1
5.16876E-1,3.34869E-1
5.62652E-1,2.66876E-1
5.78064E-1,1.85058E-1
5.59265E-1,1.30615E-1
5.55267E-1,0.89416E-1
5.71441E-1,0.47393E-1
5.90240E-1,-0.26611E-1
5.77789E-1,-1.08001E-1
5.36315E-1,-1.58874E-1
4.98413E-1,-1.77154E-1
4.87991E-1,-1.86630E-1
4.77447E-1,-2.50579E-1
4.33578E-1,-3.09356E-1
3.72955E-1,-3.48465E-1
3.26599E-1,-3.45413E-1
3.01239E-1,-3.41293E-1
2.83325E-1,-3.62579E-1
2.38906E-1,-3.94638E-1
1.71615E-1,-4.18792E-1
1.22497E-1,-4.05197E-1
0.97320E-1,-3.94653E-1
0.93322E-1,-3.90579E-1
0.58242E-1,-4.03701E-1
-0.01129E-1,-4.03717E-1
-0.56015E-1,-3.74740E-1
-0.75180E-1,-3.54003E-1
-0.89325E-1,-3.34198E-1
-0.99777E-1,-3.40942E-1
-1.44302E-1,-3.37417E-1
-1.92337E-1,-3.04397E-1
-2.15530E-1,-2.67257E-1
-2.21710E-1,-2.43896E-1
-2.20916E-1,-2.50244E-1
-2.50213E-1,-2.45468E-1
-2.81692E-1,-2.09182E-1
-2.92724E-1,-1.55288E-1
-2.92312E-1,-1.24282E-1
-2.90176E-1,-1.09375E-1
-3.09234E-1,-1.05300E-1
-3.38546E-1,-0.72967E-1
-3.43521E-1,-0.15396E-1
-3.27743E-1,0.28549E-1
-3.14697E-1,0.53375E-1
-3.28430E-1,0.55099E-1
-3.46496E-1,0.83496E-1
-3.39706E-1,1.24664E-1
-3.04946E-1,1.60003E-1
-2.74322E-1,1.83319E-1
-2.54699E-1,1.98959E-1
-2.52075E-1,2.27584E-1
-2.36755E-1,2.68203E-1
-1.94580E-1,3.01803E-1
-1.43569E-1,3.20251E-1
-1.00723E-1,3.19030E-1
-0.89096E-1,3.34625E-1
-0.69244E-1,3.63861E-1
-0.29144E-1,3.86108E-1
0.23208E-1,3.78006E-1
0.65429E-1,3.54599E-1
0.95275E-1,3.38455E-1
1.20254E-1,3.36334E-1
1.60522E-1,3.43170E-1
2.13455E-1,3.22158E-1
2.49954E-1,2.78457E-1
2.70294E-1,2.28012E-1
2.85629E-1,2.04650E-1
3.13369E-1,1.95602E-1
3.53332E-1,1.72912E-1
3.63876E-1,1.21368E-1
3.54492E-1,0.67398E-1
3.35617E-1,0.22262E-1
3.32138E-1,-0.08865E-1
3.44451E-1,-0.42099E-1
3.43704E-1,-0.90408E-1
3.19900E-1,-1.37176E-1
2.74337E-1,-1.70501E-1
2.44278E-1,-1.91520E-1
2.39357E-1,-2.13279E-1
2.40982E-1,-2.54562E-1
2.12890E-1,-2.83004E-1
1.73263E-1,-2.94067E-1
1.27578E-1,-2.90863E-1
1.02462E-1,-2.84713E-1
0.85571E-1,-3.02764E-1
0.52795E-1,-3.19259E-1
0.16418E-1,-3.22296E-1
-0.28549E-1,-3.06640E-1
-0.569E-1,-2.84301E-1
-0.72174E-1,-2.82562E-1
-0.96710E-1,-3.01910E-1
-1.29653E-1,-3.04870E-1
-1.59683E-1,-2.85430E-1
-1.74270E-1,-2.52273E-1
-1.82769E-1,-2.31132E-1
-2.02209E-1,-2.26646E-1
-2.31781E-1,-2.19413E-1
-2.64938E-1,-2.05078E-1
-2.84194E-1,-1.68609E-1
-2.91061E-1,-1.35757E-1
-2.97561E-1,-1.15997E-1
-3.28247E-1,-1.05209E-1
-3.68423E-1,-0.78781E-1
-3.86993E-1,-0.36544E-1
-3.83392E-1,-0.02731E-1
-3.72940E-1,0.16647E-1
-3.82644E-1,0.32943E-1
-3.99307E-1,0.66909E-1
-4.07516E-1,1.19735E-1
-3.92242E-1,1.66091E-1
-3.74267E-1,1.99874E-1
-3.65966E-1,2.22503E-1
-3.65997E-1,2.59704E-1
-3.59375E-1,3.10638E-1
-3.29208E-1,3.57284E-1
-2.98873E-1,3.82263E-1
-2.74704E-1,4.00299E-1
-2.58758E-1,4.22714E-1
-2.36145E-1,4.53750E-1
-1.95312E-1,4.89105E-1
-1.44531E-1,5.07019E-1
-0.95703E-1,5.19287E-1
-0.53985E-1,5.21179E-1
-0.14404E-1,5.33386E-1
0.43121E-1,5.54046E-1
1.18682E-1,5.57128E-1
1.82006E-1,5.44403E-1
2.21801E-1,5.23712E-1
2.49603E-1,5.20324E-1
2.89367E-1,5.11505E-1
3.47961E-1,4.86007E-1
4.21447E-1,4.23217E-1
4.41436E-1,3.85147E-1
4.69986E-1,3.47091E-1
5.01007E-1,3.13110E-1
5.34423E-1,2.71057E-1
5.67474E-1,2.02056E-1
5.80078E-1,1.27716E-1
5.86608E-1,0.68878E-1
5.96283E-1,0.19378E-1
6.06842E-1,-0.19439E-1
6.20636E-1,-0.75592E-1
5.98938E-1,-1.35894E-1
5.70709E-1,-1.90185E-1
5.36590E-1,-2.38220E-1
5.02288E-1,-2.77008E-1
4.73220E-1,-3.16116E-1
4.29565E-1,-3.71505E-1
3.72100E-1,-4.18502E-1
3.11264E-1,-4.51309E-1
2.60849E-1,-4.70260E-1
2.27905E-1,-4.87045E-1
1.81976E-1,-5.17730E-1
1.17797E-1,-5.25787E-1
0.54016E-1,-5.26397E-1
-0.05004E-1,-5.15289E-1
-0.46630E-1,-5.00824E-1
-0.86227E-1,-4.98245E-1
-1.42364E-1,-4.82086E-1
-1.95800E-1,-4.54162E-1
-2.51785E-1,-4.14611E-1
-2.88345E-1,-3.72573E-1
-3.18420E-1,-3.50235E-1
-3.55758E-1,-3.29589E-1
-3.82690E-1,-3.00338E-1
-4.07989E-1,-2.61566E-1
-4.16626E-1,-2.09259E-1
-4.15878E-1,-1.69860E-1
-4.23828E-1,-1.38778E-1
-4.41772E-1,-0.98159E-1
-4.47708E-1,-0.49942E-1
-4.39743E-1,0.01556E-1
-4.21951E-1,0.44036E-1
-4.07135E-1,0.82778E-1
-4.11270E-1,1.12304E-1
-4.1008E-1,1.53167E-1
-4.00207E-1,1.85257E-1
-3.74328E-1,2.12173E-1
END
