CITIFILE A.01.01
#NA VERSION HP8510C.08.10
NAME DATA
#NA REGISTER 4
VAR FREQ MAG 201
DATA S[1,1] RI
DATA S[2,1] RI
DATA S[1,2] RI
DATA S[2,2] RI
SEG_LIST_BEGIN
SEG 8000000000 12000000000 201
SEG_LIST_END
COMMENT       YEAR MONTH DAY HOUR MINUTE SECONDS
CONSTANT TIME 2013   09   26  20    25    00.0
BEGIN
-4.75372E-1,-2.63885E-1
-4.98535E-1,-2.12890E-1
-5.19928E-1,-1.49871E-1
-5.36468E-1,-1.02356E-1
-5.51849E-1,-0.47363E-1
-5.45745E-1,0.00610E-1
-5.39856E-1,0.53161E-1
-5.25726E-1,1.08367E-1
-5.22216E-1,1.73431E-1
-5.05462E-1,2.30285E-1
-4.82894E-1,2.68356E-1
-4.51278E-1,3.07678E-1
-4.13345E-1,3.45535E-1
-3.75564E-1,4.02526E-1
-3.29940E-1,4.44000E-1
-2.92572E-1,4.74212E-1
-2.47329E-1,4.95040E-1
-1.987E-1,5.04486E-1
-1.47949E-1,5.30029E-1
-0.74218E-1,5.44921E-1
-0.19989E-1,5.51269E-1
0.26245E-1,5.51361E-1
0.69702E-1,5.38208E-1
1.19323E-1,5.20690E-1
1.75415E-1,5.00854E-1
2.23724E-1,4.88418E-1
2.68722E-1,4.69299E-1
3.04275E-1,4.45343E-1
3.39691E-1,4.05105E-1
3.71124E-1,3.75076E-1
4.20486E-1,3.34320E-1
4.56771E-1,2.84515E-1
4.76715E-1,2.46597E-1
4.89700E-1,2.00439E-1
4.98962E-1,1.62399E-1
5.22338E-1,0.88867E-1
5.18310E-1,0.29937E-1
5.22613E-1,-0.08636E-1
5.26489E-1,-0.49102E-1
5.07263E-1,-0.97473E-1
4.87503E-1,-1.50360E-1
4.59304E-1,-1.96090E-1
4.44503E-1,-2.42645E-1
4.28543E-1,-2.79983E-1
4.01916E-1,-3.16833E-1
3.70773E-1,-3.39965E-1
3.18420E-1,-3.70758E-1
2.80670E-1,-3.96362E-1
2.46673E-1,-4.23767E-1
2.19726E-1,-4.50988E-1
1.69738E-1,-4.56161E-1
1.31225E-1,-4.53994E-1
0.90408E-1,-4.61151E-1
0.43106E-1,-4.73175E-1
0.03112E-1,-4.78515E-1
-0.36529E-1,-4.79888E-1
-0.70266E-1,-4.69085E-1
-1.12747E-1,-4.47891E-1
-1.55929E-1,-4.30694E-1
-1.93084E-1,-4.11407E-1
-2.21694E-1,-4.09149E-1
-2.53677E-1,-3.84216E-1
-2.68035E-1,-3.48495E-1
-2.89428E-1,-3.26614E-1
-3.27331E-1,-2.98355E-1
-3.51623E-1,-2.74673E-1
-3.75549E-1,-2.49252E-1
-3.84857E-1,-2.25936E-1
-3.88198E-1,-1.84845E-1
-3.97033E-1,-1.42181E-1
-4.02893E-1,-1.04843E-1
-4.21432E-1,-0.85052E-1
-4.22775E-1,-0.55252E-1
-4.00604E-1,-0.33828E-1
-3.96041E-1,-0.14511E-1
-3.97277E-1,0.25573E-1
-4.04281E-1,0.61492E-1
-4.03793E-1,0.90316E-1
-4.03259E-1,1.05697E-1
-3.91128E-1,1.26892E-1
-3.74954E-1,1.66442E-1
-3.42208E-1,2.07046E-1
-3.31131E-1,2.32910E-1
-3.26599E-1,2.60788E-1
-3.05450E-1,2.68997E-1
-2.87948E-1,2.84576E-1
-2.47573E-1,3.13110E-1
-2.18948E-1,3.34396E-1
-1.94809E-1,3.63555E-1
-1.74621E-1,3.80447E-1
-1.52969E-1,3.89648E-1
-1.10076E-1,4.02084E-1
-0.56304E-1,3.94577E-1
-0.25253E-1,4.06570E-1
0.12237E-1,4.18335E-1
0.37460E-1,4.12429E-1
0.64163E-1,4.07760E-1
1.09207E-1,3.90106E-1
1.54556E-1,3.82125E-1
2.06543E-1,3.72619E-1
2.43255E-1,3.61908E-1
2.70706E-1,3.47671E-1
3.15994E-1,3.10287E-1
3.46191E-1,2.45636E-1
3.7854E-1,2.01248E-1
4.14550E-1,1.60980E-1
4.24697E-1,1.23840E-1
4.32006E-1,0.80307E-1
4.18899E-1,0.15762E-1
4.16534E-1,-0.39382E-1
4.24957E-1,-1.02569E-1
4.21661E-1,-1.45996E-1
4.11483E-1,-1.78604E-1
3.81240E-1,-2.26593E-1
3.31131E-1,-2.78442E-1
2.89749E-1,-3.34487E-1
2.55538E-1,-3.78921E-1
2.27127E-1,-4.03991E-1
1.80938E-1,-4.19479E-1
1.2117E-1,-4.18731E-1
0.61569E-1,-4.43527E-1
-0.02441E-1,-4.64553E-1
-0.42343E-1,-4.78622E-1
-0.78735E-1,-4.77310E-1
-1.26022E-1,-4.58465E-1
-1.92977E-1,-4.40826E-1
-2.69378E-1,-4.13238E-1
-3.13385E-1,-3.97903E-1
-3.47747E-1,-3.84368E-1
-3.78189E-1,-3.43933E-1
-4.06402E-1,-2.89672E-1
-4.57336E-1,-2.28790E-1
-4.89318E-1,-1.83822E-1
-5.13031E-1,-1.62292E-1
-5.25329E-1,-1.27624E-1
-5.21972E-1,-0.71289E-1
-5.31616E-1,0.02533E-1
-5.34271E-1,0.78308E-1
-5.45135E-1,1.12243E-1
-5.51178E-1,1.38946E-1
-5.30365E-1,1.77124E-1
-4.92721E-1,2.37930E-1
-4.51812E-1,3.14285E-1
-4.29229E-1,3.64395E-1
-4.24804E-1,4.00192E-1
-3.98178E-1,4.20440E-1
-3.46542E-1,4.37255E-1
-2.82440E-1,4.72106E-1
-2.14416E-1,5.16845E-1
-1.89453E-1,5.43243E-1
-1.76788E-1,5.63629E-1
-1.40014E-1,5.65338E-1
-0.68359E-1,5.56518E-1
0.16937E-1,5.50689E-1
0.79284E-1,5.52063E-1
1.11175E-1,5.68756E-1
1.42761E-1,5.69702E-1
1.81579E-1,5.30487E-1
2.25158E-1,4.85611E-1
2.85003E-1,4.50210E-1
3.27423E-1,4.33898E-1
3.63525E-1,4.37622E-1
3.94348E-1,4.05090E-1
4.15832E-1,3.45031E-1
4.45770E-1,2.78762E-1
4.81613E-1,2.23709E-1
5.09765E-1,1.83776E-1
5.23620E-1,1.44805E-1
5.09399E-1,0.90271E-1
4.82971E-1,0.34881E-1
4.77401E-1,-0.24505E-1
4.70428E-1,-0.70312E-1
4.78775E-1,-0.93002E-1
4.65164E-1,-1.25946E-1
4.28054E-1,-1.57714E-1
3.94058E-1,-2.0784E-1
3.61648E-1,-2.62374E-1
3.50067E-1,-2.96218E-1
3.37493E-1,-3.24630E-1
2.96188E-1,-3.33267E-1
2.47604E-1,-3.35098E-1
1.89102E-1,-3.61114E-1
1.45446E-1,-3.80538E-1
1.3591E-1,-4.13284E-1
1.14959E-1,-4.19525E-1
0.92926E-1,-3.99551E-1
0.44342E-1,-3.93371E-1
-0.29205E-1,-3.90670E-1
-0.75256E-1,-4.04922E-1
-1.08840E-1,-4.21875E-1
-1.19827E-1,-4.06158E-1
-1.28982E-1,-3.82080E-1
-1.85318E-1,-3.43612E-1
-2.33215E-1,-2.92968E-1
-2.71514E-1,-2.94860E-1
-2.92648E-1,-2.91732E-1
-2.78213E-1,-2.83309E-1
-2.90786E-1,-2.57537E-1
-3.23501E-1,-1.81198E-1
-3.45611E-1,-1.41311E-1
-3.82156E-1,-1.24603E-1
END
BEGIN
-8.77960E-1,1.06842E-1
-7.94708E-1,1.89239E-1
-8.03161E-1,2.25189E-1
-7.81890E-1,3.58398E-1
-7.12158E-1,4.21051E-1
-6.63330E-1,5.17272E-1
-5.30883E-1,5.54107E-1
-4.96887E-1,5.17791E-1
-4.96704E-1,5.75653E-1
-4.37988E-1,6.16149E-1
-4.07745E-1,6.71875E-1
-2.91168E-1,7.13256E-1
-2.53753E-1,6.65710E-1
-2.66937E-1,7.34039E-1
-1.53930E-1,7.96875E-1
-0.91278E-1,8.02917E-1
0.25512E-1,8.37402E-1
1.08917E-1,7.53112E-1
0.92285E-1,7.58728E-1
1.88110E-1,8.08410E-1
2.64282E-1,7.85522E-1
3.68499E-1,8.12225E-1
4.99633E-1,7.10601E-1
4.99328E-1,6.50146E-1
5.93383E-1,6.45019E-1
6.60095E-1,5.36743E-1
7.03399E-1,4.99054E-1
7.91412E-1,3.60839E-1
7.11517E-1,2.43896E-1
6.94702E-1,2.55828E-1
7.23266E-1,2.03247E-1
7.22839E-1,1.85882E-1
8.00872E-1,1.32019E-1
7.68219E-1,0.18341E-1
7.52563E-1,0.35095E-1
8.38989E-1,-0.07934E-1
8.72955E-1,-1.03729E-1
9.39392E-1,-2.29583E-1
8.51715E-1,-4.39605E-1
7.19879E-1,-4.43389E-1
7.36480E-1,-4.84008E-1
6.65374E-1,-5.78277E-1
6.29241E-1,-6.13128E-1
5.58258E-1,-7.30072E-1
4.22485E-1,-7.15667E-1
4.37133E-1,-7.09106E-1
3.77838E-1,-8.05419E-1
3.02612E-1,-8.17321E-1
2.44354E-1,-9.09393E-1
0.44921E-1,-9.24835E-1
-0.18371E-1,-8.29071E-1
-0.57586E-1,-8.34594E-1
-1.25030E-1,-7.97729E-1
-1.42272E-1,-8.03710E-1
-2.48870E-1,-8.17291E-1
-3.08319E-1,-7.47253E-1
-3.36883E-1,-7.47558E-1
-4.11163E-1,-7.24395E-1
-4.50439E-1,-7.20794E-1
-5.84869E-1,-7.22045E-1
-6.79138E-1,-5.75805E-1
-6.70806E-1,-5.01678E-1
-7.10662E-1,-4.37713E-1
-6.90979E-1,-3.73657E-1
-7.30865E-1,-3.82476E-1
-8.04138E-1,-2.88360E-1
-7.79083E-1,-2.17895E-1
-8.14483E-1,-1.92840E-1
-8.44543E-1,-1.16027E-1
-8.82171E-1,-0.63629E-1
-9.33563E-1,0.73516E-1
-8.57910E-1,1.96472E-1
-8.2547E-1,2.43560E-1
-7.73071E-1,3.29376E-1
-7.13684E-1,3.44085E-1
-7.15454E-1,3.85376E-1
-6.67266E-1,4.40490E-1
-6.54785E-1,4.59228E-1
-6.39984E-1,5.31555E-1
-5.93627E-1,5.67291E-1
-5.98571E-1,6.24847E-1
-5.43273E-1,7.29736E-1
-4.62097E-1,7.83660E-1
-3.70269E-1,8.48877E-1
-2.51800E-1,8.35662E-1
-2.32574E-1,8.31543E-1
-1.57531E-1,8.97644E-1
-0.57464E-1,8.7677E-1
-0.17883E-1,8.85498E-1
0.71319E-1,8.92272E-1
1.12762E-1,8.77624E-1
1.92352E-1,9.36218E-1
3.46130E-1,9.12323E-1
4.22454E-1,8.43994E-1
5.06317E-1,7.94403E-1
5.50903E-1,7.05200E-1
5.80749E-1,6.76635E-1
6.50085E-1,6.15631E-1
6.62506E-1,5.53192E-1
7.06451E-1,5.37567E-1
7.66387E-1,4.80804E-1
7.97332E-1,4.37652E-1
8.74084E-1,3.88977E-1
9.21508E-1,2.85553E-1
9.56909E-1,2.07031E-1
1.00860E0,0.84228E-1
9.70886E-1,-0.47729E-1
9.39666E-1,-1.15753E-1
9.22821E-1,-2.02117E-1
8.82110E-1,-2.78472E-1
8.50769E-1,-3.55957E-1
7.87567E-1,-4.29321E-1
7.45056E-1,-4.53704E-1
7.34344E-1,-5.09429E-1
6.93176E-1,-5.83496E-1
6.36138E-1,-6.47064E-1
5.62377E-1,-7.12310E-1
4.79644E-1,-7.44262E-1
4.17846E-1,-7.74871E-1
3.35571E-1,-8.09692E-1
2.57598E-1,-8.03955E-1
2.0047E-1,-8.05267E-1
1.33148E-1,-8.06915E-1
0.74951E-1,-7.99713E-1
0.17944E-1,-8.00140E-1
-0.42175E-1,-7.92022E-1
-0.86334E-1,-7.79876E-1
-1.33392E-1,-7.84362E-1
-2.04132E-1,-7.80822E-1
-2.79144E-1,-7.59948E-1
-3.48968E-1,-7.16766E-1
-3.90441E-1,-6.71386E-1
-4.22729E-1,-6.47155E-1
-4.68536E-1,-6.18377E-1
-5.15869E-1,-5.80200E-1
-5.56518E-1,-5.31677E-1
-5.82305E-1,-4.82727E-1
-6.06262E-1,-4.48913E-1
-6.47766E-1,-4.19342E-1
-6.88140E-1,-3.69201E-1
-7.18231E-1,-3.17962E-1
-7.47650E-1,-2.55676E-1
-7.61596E-1,-1.89605E-1
-7.70782E-1,-1.31256E-1
-7.77069E-1,-0.72082E-1
-7.82440E-1,-0.14190E-1
-7.78686E-1,0.54718E-1
-7.58331E-1,1.07757E-1
-7.39196E-1,1.50787E-1
-7.38250E-1,1.80328E-1
-7.50030E-1,2.36908E-1
-7.47894E-1,3.07495E-1
-7.23785E-1,3.84429E-1
-6.79504E-1,4.43573E-1
-6.41449E-1,4.75433E-1
-6.29211E-1,5.24871E-1
-5.88073E-1,5.96191E-1
-5.24505E-1,6.45935E-1
-4.75799E-1,6.80297E-1
-4.23950E-1,7.08648E-1
-3.93585E-1,7.41668E-1
-3.44268E-1,8.02246E-1
-2.69165E-1,8.42224E-1
-1.90307E-1,8.74694E-1
-1.01593E-1,8.92089E-1
-0.28076E-1,8.96118E-1
0.42846E-1,9.06951E-1
1.34155E-1,9.03991E-1
2.16308E-1,8.76007E-1
2.87231E-1,8.44207E-1
3.52600E-1,8.04229E-1
3.89221E-1,7.77160E-1
4.62646E-1,7.66571E-1
5.2771E-1,7.29003E-1
5.93566E-1,6.87255E-1
6.50421E-1,6.19567E-1
6.8396E-1,5.63232E-1
7.41241E-1,5.16967E-1
7.82074E-1,4.43512E-1
8.18054E-1,3.83483E-1
8.49121E-1,3.08715E-1
8.59588E-1,2.40142E-1
8.81988E-1,1.79901E-1
8.93158E-1,0.85754E-1
8.88763E-1,0.2771E-1
9.03778E-1,-0.52764E-1
8.79791E-1,-1.25427E-1
8.82049E-1,-1.82098E-1
8.60107E-1,-2.75299E-1
8.05694E-1,-3.21655E-1
7.98248E-1,-3.76373E-1
7.58270E-1,-4.44122E-1
7.51861E-1,-4.91851E-1
7.21130E-1,-5.95031E-1
6.28753E-1,-6.53076E-1
5.85968E-1,-6.77307E-1
5.15533E-1,-7.33947E-1
4.63745E-1,-7.36846E-1
4.35302E-1,-8.15582E-1
3.06518E-1,-8.67095E-1
2.40570E-1,-8.31939E-1
END
BEGIN
-7.72308E-1,0.94055E-1
-7.94525E-1,1.58905E-1
-7.20123E-1,2.74414E-1
-6.71844E-1,2.45086E-1
-7.47680E-1,3.12194E-1
-6.83898E-1,4.37255E-1
-6.56158E-1,4.78179E-1
-5.90820E-1,5.96313E-1
-4.85534E-1,5.82000E-1
-5.28747E-1,6.01898E-1
-4.67224E-1,7.39196E-1
-3.64624E-1,7.68188E-1
-2.70813E-1,8.32275E-1
-1.34521E-1,7.96173E-1
-1.40564E-1,7.67272E-1
-0.73089E-1,8.59222E-1
0.46203E-1,8.43963E-1
1.23565E-1,8.60382E-1
2.77801E-1,7.95532E-1
2.67822E-1,6.8396E-1
2.71972E-1,7.32605E-1
3.84826E-1,7.16217E-1
4.23584E-1,6.86767E-1
5.42968E-1,6.63757E-1
5.74707E-1,5.32897E-1
5.51361E-1,5.32928E-1
6.46606E-1,5.20874E-1
6.92077E-1,4.48883E-1
7.78686E-1,4.03411E-1
8.19213E-1,2.38525E-1
7.44873E-1,1.8573E-1
7.86651E-1,1.80999E-1
8.16223E-1,1.12640E-1
8.77197E-1,0.61340E-1
9.04602E-1,-1.26800E-1
7.63977E-1,-2.05993E-1
7.58331E-1,-1.80755E-1
7.85888E-1,-2.49206E-1
8.01910E-1,-3.10363E-1
8.13324E-1,-4.78179E-1
6.30889E-1,-5.76171E-1
5.67688E-1,-5.14282E-1
5.78491E-1,-5.49987E-1
5.58654E-1,-5.91857E-1
5.69458E-1,-7.07092E-1
3.97277E-1,-8.35296E-1
2.81280E-1,-7.54608E-1
2.84240E-1,-7.59368E-1
2.30377E-1,-7.88147E-1
2.18689E-1,-8.40942E-1
0.65643E-1,-9.59228E-1
-1.10199E-1,-8.61450E-1
-1.13891E-1,-7.97576E-1
-1.60339E-1,-7.96051E-1
-1.75262E-1,-7.85919E-1
-2.56774E-1,-8.68804E-1
-4.48852E-1,-7.94372E-1
-4.57458E-1,-6.72119E-1
-4.79797E-1,-6.54235E-1
-5.01525E-1,-6.14318E-1
-5.39886E-1,-6.58081E-1
-7.16735E-1,-6.07818E-1
-7.35931E-1,-4.37591E-1
-7.12066E-1,-3.90502E-1
-7.23083E-1,-3.33374E-1
-7.16217E-1,-3.38409E-1
-8.46679E-1,-3.33190E-1
-9.08844E-1,-1.46728E-1
-8.39202E-1,-0.68878E-1
-8.41522E-1,-0.23986E-1
-8.22753E-1,0.15808E-1
-8.91571E-1,0.32592E-1
-9.55505E-1,2.13439E-1
-8.44177E-1,3.39111E-1
-7.96478E-1,3.68377E-1
-7.47894E-1,4.26696E-1
-7.28881E-1,4.35852E-1
-7.60711E-1,5.37597E-1
-6.59027E-1,6.67388E-1
-5.61615E-1,6.88812E-1
-4.91821E-1,7.14080E-1
-4.50073E-1,7.04345E-1
-4.60144E-1,7.65075E-1
-3.53973E-1,8.69812E-1
-2.42706E-1,8.60717E-1
-1.68609E-1,8.79669E-1
-0.68573E-1,8.47381E-1
-0.66925E-1,8.22143E-1
-0.24169E-1,8.97125E-1
1.00311E-1,9.05883E-1
1.75811E-1,8.83758E-1
2.74566E-1,8.50982E-1
3.04962E-1,7.90710E-1
3.34472E-1,8.18267E-1
4.51110E-1,8.22662E-1
5.42572E-1,7.69439E-1
6.39007E-1,6.95678E-1
6.55670E-1,5.79284E-1
6.43219E-1,5.68969E-1
7.37518E-1,5.55755E-1
8.09326E-1,4.61669E-1
8.57635E-1,3.76922E-1
8.72467E-1,2.53509E-1
8.30474E-1,2.06634E-1
8.77166E-1,1.85760E-1
9.16412E-1,0.86975E-1
9.21661E-1,0.09033E-1
9.28710E-1,-1.14288E-1
8.46160E-1,-1.98059E-1
8.33099E-1,-2.07183E-1
8.55835E-1,-2.90405E-1
8.26873E-1,-3.78509E-1
7.91626E-1,-4.78454E-1
6.74133E-1,-5.49408E-1
6.17309E-1,-5.27801E-1
6.21276E-1,-5.72082E-1
5.77026E-1,-6.47583E-1
5.16632E-1,-7.17193E-1
4.01245E-1,-7.62847E-1
3.27148E-1,-7.22686E-1
3.21167E-1,-7.20794E-1
2.85125E-1,-7.73712E-1
2.12005E-1,-8.18664E-1
1.04095E-1,-8.46344E-1
0.10650E-1,-7.96234E-1
-0.02197E-1,-7.64129E-1
-0.2771E-1,-7.88452E-1
-0.97320E-1,-8.12835E-1
-1.97235E-1,-8.14788E-1
-2.93060E-1,-7.43133E-1
-3.01818E-1,-6.83258E-1
-3.11401E-1,-6.87713E-1
-3.70727E-1,-7.03796E-1
-4.57519E-1,-6.81366E-1
-5.29083E-1,-6.09008E-1
-5.46722E-1,-5.41503E-1
-5.59600E-1,-5.09063E-1
-5.93048E-1,-4.94812E-1
-6.53411E-1,-4.62738E-1
-7.04589E-1,-3.94470E-1
-7.22168E-1,-3.18023E-1
-7.23663E-1,-2.62573E-1
-7.30468E-1,-2.29797E-1
-7.67913E-1,-2.00866E-1
-8.08807E-1,-1.32843E-1
-8.14849E-1,-0.51879E-1
-8.05816E-1,0.14801E-1
-7.93548E-1,0.70892E-1
-8.08929E-1,1.11938E-1
-8.32946E-1,1.93084E-1
-8.13842E-1,2.83721E-1
-7.65655E-1,3.51470E-1
-7.20031E-1,3.97735E-1
-6.92230E-1,4.27185E-1
-6.94305E-1,4.94140E-1
-6.52557E-1,5.80444E-1
-5.94116E-1,6.38732E-1
-5.31524E-1,6.84539E-1
-4.64080E-1,7.06268E-1
-4.28100E-1,7.38739E-1
-3.55712E-1,8.02734E-1
-2.68341E-1,8.25286E-1
-2.02941E-1,8.40393E-1
-1.28295E-1,8.44940E-1
-0.82916E-1,8.29132E-1
-0.34851E-1,8.57086E-1
0.56488E-1,8.60015E-1
1.21429E-1,8.46221E-1
1.95068E-1,8.39721E-1
2.53143E-1,8.10028E-1
2.98156E-1,8.02856E-1
3.79913E-1,7.85583E-1
4.41558E-1,7.41699E-1
5.05584E-1,7.06481E-1
5.60577E-1,6.51611E-1
5.91430E-1,6.14288E-1
6.51001E-1,5.82977E-1
6.96319E-1,5.14679E-1
7.30163E-1,4.63867E-1
7.73345E-1,4.01092E-1
8.01910E-1,3.38195E-1
8.32672E-1,2.84545E-1
8.58703E-1,2.08435E-1
8.64044E-1,1.44195E-1
8.82385E-1,0.72723E-1
8.84521E-1,-0.05127E-1
8.81958E-1,-0.76904E-1
8.78631E-1,-1.50421E-1
8.55957E-1,-2.14172E-1
8.41278E-1,-2.72827E-1
8.16680E-1,-3.38928E-1
7.95288E-1,-4.12750E-1
7.57385E-1,-4.84558E-1
7.14202E-1,-5.49102E-1
6.67663E-1,-5.98632E-1
6.21093E-1,-6.40777E-1
5.85144E-1,-6.88201E-1
5.16326E-1,-7.56774E-1
4.32312E-1,-8.02917E-1
3.53271E-1,-8.19488E-1
2.97332E-1,-8.28521E-1
END
BEGIN
-5.42144E-1,-0.98754E-1
-5.58197E-1,-0.36865E-1
-5.64056E-1,0.24200E-1
-5.67108E-1,0.74340E-1
-5.60302E-1,1.44439E-1
-5.37536E-1,2.06543E-1
-5.14984E-1,2.77496E-1
-4.85000E-1,3.32366E-1
-4.59411E-1,3.87832E-1
-4.20013E-1,4.35348E-1
-3.78143E-1,4.72503E-1
-3.25042E-1,5.12237E-1
-2.70874E-1,5.42175E-1
-2.13409E-1,5.80719E-1
-1.54754E-1,5.97686E-1
-0.93811E-1,6.10717E-1
-0.27984E-1,6.18438E-1
0.39276E-1,6.15631E-1
1.02508E-1,6.16210E-1
1.66870E-1,5.93780E-1
2.18078E-1,5.73028E-1
2.72094E-1,5.43426E-1
3.25988E-1,5.07476E-1
3.80874E-1,4.57061E-1
4.23858E-1,4.02771E-1
4.62310E-1,3.58337E-1
4.96398E-1,2.96752E-1
5.21759E-1,2.35748E-1
5.39184E-1,1.57379E-1
5.46814E-1,0.97381E-1
5.57952E-1,0.32928E-1
5.56762E-1,-0.29754E-1
5.46112E-1,-0.78918E-1
5.28533E-1,-1.32690E-1
5.07385E-1,-1.73248E-1
4.79095E-1,-2.39257E-1
4.37210E-1,-2.79525E-1
4.03335E-1,-3.14086E-1
3.71643E-1,-3.53958E-1
3.10943E-1,-3.89907E-1
2.56668E-1,-4.11285E-1
2.08160E-1,-4.25750E-1
1.54617E-1,-4.45419E-1
1.10244E-1,-4.55291E-1
0.48385E-1,-4.70642E-1
0.00030E-1,-4.59915E-1
-0.47256E-1,-4.48043E-1
-0.94131E-1,-4.37652E-1
-1.37237E-1,-4.12124E-1
-1.83731E-1,-4.04541E-1
-2.44308E-1,-3.53454E-1
-2.67211E-1,-3.23165E-1
-3.03955E-1,-3.05984E-1
-3.40271E-1,-2.71331E-1
-3.62686E-1,-2.40051E-1
-3.92852E-1,-1.94244E-1
-3.98193E-1,-1.52664E-1
-4.13147E-1,-1.16928E-1
-4.25750E-1,-0.69213E-1
-4.17800E-1,-0.25466E-1
-4.30664E-1,0.13504E-1
-4.11468E-1,0.80047E-1
-3.95629E-1,1.06308E-1
-4.01809E-1,1.51687E-1
-3.82537E-1,2.04162E-1
-3.65829E-1,2.38449E-1
-3.40606E-1,2.89245E-1
-3.12149E-1,3.09753E-1
-2.90298E-1,3.37066E-1
-2.49069E-1,3.59863E-1
-2.07458E-1,3.62167E-1
-1.66778E-1,3.99414E-1
-0.94116E-1,4.11407E-1
-0.55282E-1,4.13604E-1
-0.13671E-1,4.33410E-1
0.36331E-1,4.28527E-1
0.84289E-1,4.24118E-1
1.42822E-1,4.06921E-1
1.83380E-1,3.96942E-1
2.26074E-1,3.93722E-1
2.65884E-1,3.74221E-1
2.86804E-1,3.35540E-1
3.10257E-1,3.01269E-1
3.4375E-1,2.56744E-1
3.73840E-1,2.14630E-1
4.07211E-1,1.69311E-1
4.18045E-1,1.19140E-1
4.26376E-1,0.84030E-1
4.31121E-1,0.28701E-1
4.30908E-1,-0.19973E-1
4.33471E-1,-0.63629E-1
4.28039E-1,-1.07589E-1
4.02084E-1,-1.35543E-1
3.89495E-1,-1.69311E-1
3.61434E-1,-2.19024E-1
3.28308E-1,-2.64846E-1
2.95959E-1,-3.07052E-1
2.59506E-1,-3.31878E-1
2.28210E-1,-3.59115E-1
1.80938E-1,-3.84613E-1
1.41662E-1,-4.06784E-1
1.12838E-1,-4.35882E-1
0.76934E-1,-4.61822E-1
0.47607E-1,-4.50607E-1
0.25665E-1,-4.46472E-1
-0.20538E-1,-4.43679E-1
-0.70785E-1,-4.43664E-1
-1.35635E-1,-4.42077E-1
-1.71661E-1,-4.13726E-1
-1.85592E-1,-4.07592E-1
-2.26532E-1,-3.92303E-1
-2.64846E-1,-3.61557E-1
-3.10455E-1,-3.37310E-1
-3.45733E-1,-3.06488E-1
-3.55346E-1,-2.91473E-1
-3.75473E-1,-2.81723E-1
-3.92486E-1,-2.50335E-1
-4.12155E-1,-2.14325E-1
-4.263E-1,-1.59606E-1
-4.18411E-1,-1.28402E-1
-4.37133E-1,-1.16043E-1
-4.60006E-1,-0.80047E-1
-4.71008E-1,-0.40664E-1
-4.76104E-1,0.03463E-1
-4.70397E-1,0.32104E-1
-4.77462E-1,0.50613E-1
-4.89502E-1,0.79711E-1
-4.91943E-1,1.18377E-1
-4.83673E-1,1.53366E-1
-4.63104E-1,1.81030E-1
-4.53521E-1,1.95846E-1
-4.51644E-1,2.25006E-1
-4.44000E-1,2.71453E-1
-4.20455E-1,3.15506E-1
-3.96942E-1,3.40759E-1
-3.87207E-1,3.64410E-1
-3.65585E-1,3.93920E-1
-3.48739E-1,4.21203E-1
-3.24096E-1,4.60510E-1
-2.96951E-1,4.81750E-1
-2.80960E-1,4.93957E-1
-2.53418E-1,5.08575E-1
-2.19482E-1,5.13641E-1
-1.85791E-1,5.38909E-1
-1.31317E-1,5.63537E-1
-0.93444E-1,5.68023E-1
-0.61492E-1,5.77026E-1
-0.14679E-1,5.72723E-1
0.33416E-1,5.78491E-1
1.12976E-1,5.83435E-1
1.55853E-1,5.68542E-1
1.75048E-1,5.77056E-1
2.06726E-1,5.74707E-1
2.30529E-1,5.47058E-1
2.77771E-1,5.31433E-1
3.32717E-1,4.86007E-1
3.65005E-1,4.63623E-1
4.05227E-1,4.47464E-1
4.33181E-1,4.01443E-1
4.57412E-1,3.59405E-1
5.01892E-1,2.96600E-1
5.23803E-1,2.46643E-1
5.60852E-1,2.23083E-1
5.94085E-1,1.79809E-1
5.79162E-1,1.35376E-1
5.82214E-1,1.08306E-1
5.88043E-1,0.43029E-1
5.80749E-1,-0.07293E-1
5.86120E-1,-0.55847E-1
5.49469E-1,-1.10656E-1
5.112E-1,-1.31530E-1
4.87564E-1,-1.92840E-1
4.45373E-1,-2.53219E-1
4.23370E-1,-3.08212E-1
3.86047E-1,-3.62335E-1
3.41308E-1,-3.61465E-1
3.24920E-1,-3.77685E-1
2.63412E-1,-4.09912E-1
2.07733E-1,-4.27734E-1
1.56555E-1,-4.59014E-1
1.02386E-1,-4.48288E-1
0.90423E-1,-4.32937E-1
0.34912E-1,-4.32769E-1
-0.33203E-1,-4.06951E-1
-0.97412E-1,-4.09530E-1
-1.70455E-1,-3.93753E-1
-1.74408E-1,-3.68591E-1
-1.96380E-1,-3.73672E-1
-2.30041E-1,-3.27758E-1
-2.51739E-1,-3.02246E-1
-3.13476E-1,-2.75909E-1
-3.27621E-1,-2.24700E-1
-3.19351E-1,-2.17346E-1
-3.26217E-1,-1.74408E-1
-3.18542E-1,-1.25976E-1
-3.60427E-1,-0.76385E-1
-3.80569E-1,0.03112E-1
-3.59863E-1,0.08972E-1
-3.66897E-1,0.24520E-1
-3.35952E-1,0.51696E-1
-3.49502E-1,0.84259E-1
END
