CITIFILE A.01.01
#NA VERSION HP8510C.08.10
NAME DATA
#NA REGISTER 1
VAR FREQ MAG 201
DATA S[1,1] RI
DATA S[2,1] RI
DATA S[1,2] RI
DATA S[2,2] RI
SEG_LIST_BEGIN
SEG 8000000000 12000000000 201
SEG_LIST_END
COMMENT       YEAR MONTH DAY HOUR MINUTE SECONDS
CONSTANT TIME 2013   09   26  20    38    26.0
BEGIN
-4.76409E-1,-2.54333E-1
-4.98275E-1,-2.01797E-1
-5.18737E-1,-1.36932E-1
-5.35980E-1,-0.88867E-1
-5.50872E-1,-0.33783E-1
-5.43090E-1,0.12908E-1
-5.34942E-1,0.65246E-1
-5.19592E-1,1.20788E-1
-5.13763E-1,1.86889E-1
-4.95208E-1,2.43240E-1
-4.74227E-1,2.79708E-1
-4.41131E-1,3.16543E-1
-4.02206E-1,3.53317E-1
-3.62426E-1,4.09210E-1
-3.14971E-1,4.50698E-1
-2.78335E-1,4.80621E-1
-2.34405E-1,5.0E-1
-1.85852E-1,5.06866E-1
-1.34765E-1,5.31189E-1
-0.58563E-1,5.43792E-1
-0.05310E-1,5.50140E-1
0.39703E-1,5.50445E-1
0.81268E-1,5.37200E-1
1.29730E-1,5.19226E-1
1.85699E-1,4.98413E-1
2.36358E-1,4.83764E-1
2.81723E-1,4.64950E-1
3.16589E-1,4.41375E-1
3.50235E-1,4.00589E-1
3.79287E-1,3.68408E-1
4.28558E-1,3.25042E-1
4.64019E-1,2.74658E-1
4.84405E-1,2.37686E-1
4.94888E-1,1.92016E-1
5.02014E-1,1.55426E-1
5.23803E-1,0.82336E-1
5.18524E-1,0.22522E-1
5.23223E-1,-0.15869E-1
5.27496E-1,-0.55725E-1
5.08300E-1,-1.03179E-1
4.87350E-1,-1.55136E-1
4.57977E-1,-2.01156E-1
4.41406E-1,-2.49069E-1
4.25567E-1,-2.85736E-1
3.98910E-1,-3.22036E-1
3.67797E-1,-3.43826E-1
3.15124E-1,-3.73443E-1
2.76382E-1,-3.98712E-1
2.41745E-1,-4.26788E-1
2.14218E-1,-4.53826E-1
1.64291E-1,-4.58694E-1
1.25381E-1,-4.56100E-1
0.83633E-1,-4.61166E-1
0.36117E-1,-4.71466E-1
-0.05203E-1,-4.76303E-1
-0.44708E-1,-4.76211E-1
-0.77270E-1,-4.64843E-1
-1.19003E-1,-4.42230E-1
-1.62063E-1,-4.23233E-1
-1.99295E-1,-4.04190E-1
-2.28027E-1,-4.01260E-1
-2.10601E-1,-5.13427E-1
-0.67794E-1,-4.22637E-1
-2.94479E-1,-3.16833E-1
-3.31512E-1,-2.87063E-1
-3.55957E-1,-2.61611E-1
-3.78524E-1,-2.36618E-1
-3.86169E-1,-2.13577E-1
-3.88168E-1,-1.72744E-1
-3.95736E-1,-1.30035E-1
-4.01413E-1,-0.92834E-1
-4.20288E-1,-0.72616E-1
-4.22302E-1,-0.42541E-1
-4.00131E-1,-0.20965E-1
-3.93051E-1,-0.00534E-1
-3.92807E-1,0.39245E-1
-3.97674E-1,0.76232E-1
-3.96469E-1,1.03530E-1
-3.94592E-1,1.19155E-1
-3.81958E-1,1.38397E-1
-3.62594E-1,1.77169E-1
-3.29513E-1,2.16705E-1
-3.19168E-1,2.42141E-1
-3.14346E-1,2.69897E-1
-2.93991E-1,2.77542E-1
-2.75665E-1,2.92388E-1
-2.33856E-1,3.1987E-1
-2.03750E-1,3.40820E-1
-1.79107E-1,3.69232E-1
-1.58889E-1,3.85299E-1
-1.38290E-1,3.93051E-1
-0.96115E-1,4.03579E-1
-0.42938E-1,3.94439E-1
-0.11505E-1,4.06387E-1
0.26657E-1,4.18869E-1
0.52612E-1,4.14428E-1
0.79742E-1,4.08294E-1
1.24923E-1,3.86505E-1
1.68655E-1,3.75518E-1
2.20047E-1,3.63891E-1
2.55340E-1,3.52081E-1
2.81204E-1,3.38028E-1
3.24035E-1,3.00354E-1
3.50250E-1,2.35656E-1
3.81942E-1,1.90856E-1
4.16473E-1,1.51245E-1
4.27322E-1,1.15081E-1
4.34371E-1,0.72769E-1
4.20486E-1,0.09033E-1
4.16793E-1,-0.46569E-1
4.23538E-1,-1.10275E-1
4.19021E-1,-1.54602E-1
4.08233E-1,-1.86264E-1
3.76709E-1,-2.32650E-1
3.2547E-1,-2.83462E-1
2.82669E-1,-3.37478E-1
2.47421E-1,-3.80935E-1
2.20092E-1,-4.06112E-1
1.74209E-1,-4.19723E-1
1.14410E-1,-4.18609E-1
0.53573E-1,-4.41787E-1
-0.10925E-1,-4.61227E-1
-0.51391E-1,-4.75250E-1
-0.88211E-1,-4.72244E-1
-1.34750E-1,-4.52087E-1
-2.01004E-1,-4.31015E-1
-2.75512E-1,-4.01550E-1
-3.19000E-1,-3.84780E-1
-3.53393E-1,-3.70407E-1
-3.81576E-1,-3.30139E-1
-4.08371E-1,-2.75833E-1
-4.56237E-1,-2.13974E-1
-4.89212E-1,-1.68212E-1
-5.12573E-1,-1.44897E-1
-5.23895E-1,-1.09832E-1
-5.19378E-1,-0.55084E-1
-5.26580E-1,0.17608E-1
-5.29296E-1,0.94329E-1
-5.39611E-1,1.30523E-1
-5.44097E-1,1.62323E-1
-5.16418E-1,1.99005E-1
-4.75509E-1,2.56561E-1
-4.32434E-1,3.27728E-1
-4.10247E-1,3.76556E-1
-4.05181E-1,4.11392E-1
-3.78891E-1,4.30145E-1
-3.26721E-1,4.46167E-1
-2.59948E-1,4.80072E-1
-1.93695E-1,5.21270E-1
-1.68212E-1,5.46569E-1
-1.54571E-1,5.66223E-1
-1.17767E-1,5.66436E-1
-0.46386E-1,5.55236E-1
0.38970E-1,5.46691E-1
0.97930E-1,5.46600E-1
1.29791E-1,5.63232E-1
1.58996E-1,5.62866E-1
1.98089E-1,5.22888E-1
2.41302E-1,4.77386E-1
3.00125E-1,4.40475E-1
3.41247E-1,4.23629E-1
3.77182E-1,4.24819E-1
4.04892E-1,3.91098E-1
4.24301E-1,3.30764E-1
4.51385E-1,2.63809E-1
4.84680E-1,2.08297E-1
5.11444E-1,1.69555E-1
5.22979E-1,1.33819E-1
5.08789E-1,0.80627E-1
4.81079E-1,0.25466E-1
4.75708E-1,-0.32882E-1
4.68917E-1,-0.79574E-1
4.77096E-1,-1.02981E-1
4.62326E-1,-1.34887E-1
4.23309E-1,-1.66412E-1
3.86718E-1,-2.15301E-1
3.52737E-1,-2.69027E-1
3.40744E-1,-3.00872E-1
3.28964E-1,-3.28765E-1
2.88574E-1,-3.35022E-1
2.40524E-1,-3.35861E-1
1.82037E-1,-3.61389E-1
1.37481E-1,-3.80752E-1
1.25778E-1,-4.13436E-1
1.06124E-1,-4.19647E-1
0.83328E-1,-3.97689E-1
0.33996E-1,-3.88671E-1
-0.39520E-1,-3.84307E-1
-0.86029E-1,-3.96301E-1
-1.17340E-1,-4.12246E-1
-1.26815E-1,-3.96255E-1
-1.34353E-1,-3.71063E-1
-1.89559E-1,-3.31863E-1
-2.36785E-1,-2.79983E-1
-2.75604E-1,-2.81906E-1
-2.96127E-1,-2.79083E-1
-2.81616E-1,-2.69897E-1
-2.93304E-1,-2.43728E-1
-3.24081E-1,-1.64581E-1
-3.43917E-1,-1.24221E-1
-3.78494E-1,-1.08276E-1
END
BEGIN
-8.73901E-1,1.05133E-1
-7.91564E-1,1.89025E-1
-7.99194E-1,2.24517E-1
-7.78808E-1,3.56475E-1
-7.08709E-1,4.18701E-1
-6.61102E-1,5.14801E-1
-5.28289E-1,5.53283E-1
-4.93042E-1,5.16387E-1
-4.92858E-1,5.73089E-1
-4.33929E-1,6.13311E-1
-4.04266E-1,6.68396E-1
-2.88604E-1,7.09930E-1
-2.50152E-1,6.61773E-1
-2.64892E-1,7.27478E-1
-1.53381E-1,7.91137E-1
-0.90515E-1,7.97088E-1
0.24200E-1,8.31817E-1
1.08459E-1,7.48504E-1
0.92346E-1,7.52563E-1
1.86187E-1,8.02215E-1
2.62023E-1,7.79876E-1
3.63372E-1,8.07861E-1
4.95239E-1,7.06268E-1
4.94415E-1,6.45355E-1
5.88348E-1,6.41998E-1
6.55212E-1,5.33569E-1
6.96594E-1,4.9646E-1
7.85461E-1,3.60168E-1
7.07519E-1,2.43225E-1
6.90063E-1,2.54669E-1
7.18292E-1,2.02484E-1
7.16949E-1,1.85241E-1
7.94769E-1,1.33239E-1
7.64221E-1,0.2005E-1
7.47436E-1,0.34881E-1
8.33648E-1,-0.06744E-1
8.66851E-1,-1.01165E-1
9.33898E-1,-2.24426E-1
8.48968E-1,-4.34570E-1
7.16735E-1,-4.39819E-1
7.33398E-1,-4.79248E-1
6.62933E-1,-5.73761E-1
6.27746E-1,-6.07208E-1
5.58105E-1,-7.24548E-1
4.22851E-1,-7.12066E-1
4.36309E-1,-7.04498E-1
3.77197E-1,-8.00659E-1
3.02063E-1,-8.12591E-1
2.46307E-1,-9.03503E-1
0.48248E-1,-9.22210E-1
-0.17639E-1,-8.26141E-1
-0.56701E-1,-8.30474E-1
-1.24054E-1,-7.94403E-1
-1.40777E-1,-7.99163E-1
-2.45147E-1,-8.14819E-1
-3.06518E-1,-7.45452E-1
-3.34472E-1,-7.44354E-1
-4.08996E-1,-7.22168E-1
-4.47357E-1,-7.16491E-1
-5.78796E-1,-7.20703E-1
-6.76483E-1,-5.76385E-1
-6.72912E-1,-4.87548E-1
-7.21893E-1,-4.01672E-1
-6.89117E-1,-3.69903E-1
-7.26074E-1,-3.79211E-1
-8.00781E-1,-2.87780E-1
-7.75207E-1,-2.15332E-1
-8.10119E-1,-1.91467E-1
-8.39843E-1,-1.15264E-1
-8.7677E-1,-0.63171E-1
-9.29443E-1,0.71106E-1
-8.54675E-1,1.95068E-1
-8.21289E-1,2.42218E-1
-7.70690E-1,3.27545E-1
-7.10052E-1,3.43536E-1
-7.10571E-1,3.84948E-1
-6.62963E-1,4.39636E-1
-6.48223E-1,4.57000E-1
-6.35345E-1,5.27587E-1
-5.87982E-1,5.64331E-1
-5.92895E-1,6.19659E-1
-5.40252E-1,7.23663E-1
-4.59137E-1,7.7771E-1
-3.69995E-1,8.43078E-1
-2.50122E-1,8.3078E-1
-2.30560E-1,8.24890E-1
-1.57348E-1,8.90441E-1
-0.57098E-1,8.71185E-1
-0.18463E-1,8.78021E-1
0.68786E-1,8.85559E-1
1.10412E-1,8.71398E-1
1.88049E-1,9.28588E-1
3.41186E-1,9.07562E-1
4.18579E-1,8.38836E-1
5.01373E-1,7.89886E-1
5.45288E-1,7.02453E-1
5.74096E-1,6.73889E-1
6.46118E-1,6.14959E-1
6.57959E-1,5.50964E-1
7.00653E-1,5.34240E-1
7.60101E-1,4.80102E-1
7.91748E-1,4.35852E-1
8.66973E-1,3.88000E-1
9.15222E-1,2.86865E-1
9.51049E-1,2.08648E-1
1.00256E0,0.87341E-1
9.66369E-1,-0.44281E-1
9.34845E-1,-1.13342E-1
9.19128E-1,-1.98791E-1
8.78479E-1,-2.75116E-1
8.47686E-1,-3.52447E-1
7.85614E-1,-4.26239E-1
7.41699E-1,-4.51568E-1
7.30926E-1,-5.06347E-1
6.91192E-1,-5.80291E-1
6.33728E-1,-6.42944E-1
5.62103E-1,-7.08618E-1
4.78607E-1,-7.41119E-1
4.16076E-1,-7.71301E-1
3.33679E-1,-8.05969E-1
2.55493E-1,-8.00781E-1
1.987E-1,-8.01239E-1
1.31042E-1,-8.03375E-1
0.73883E-1,-7.95196E-1
0.16845E-1,-7.95471E-1
-0.41961E-1,-7.87323E-1
-0.86151E-1,-7.74444E-1
-1.32995E-1,-7.79571E-1
-2.02850E-1,-7.75848E-1
-2.76702E-1,-7.55859E-1
-3.48175E-1,-7.12616E-1
-3.88885E-1,-6.65679E-1
-4.19738E-1,-6.41174E-1
-4.64843E-1,-6.13098E-1
-5.10864E-1,-5.74890E-1
-5.50964E-1,-5.28747E-1
-5.76812E-1,-4.78851E-1
-5.98602E-1,-4.47235E-1
-6.40197E-1,-4.21569E-1
-6.84753E-1,-3.72222E-1
-7.17193E-1,-3.19854E-1
-7.46917E-1,-2.54638E-1
-7.58697E-1,-1.86218E-1
-7.66967E-1,-1.29455E-1
-7.72399E-1,-0.69335E-1
-7.76367E-1,-0.11871E-1
-7.73101E-1,0.55542E-1
-7.51831E-1,1.07818E-1
-7.31781E-1,1.49780E-1
-7.30651E-1,1.78527E-1
-7.42309E-1,2.34130E-1
-7.41272E-1,3.02246E-1
-7.18872E-1,3.79730E-1
-6.74835E-1,4.39666E-1
-6.37664E-1,4.71435E-1
-6.24420E-1,5.20690E-1
-5.82916E-1,5.89843E-1
-5.21850E-1,6.38763E-1
-4.72991E-1,6.73522E-1
-4.23065E-1,7.01629E-1
-3.92700E-1,7.34100E-1
-3.44482E-1,7.94555E-1
-2.71026E-1,8.33679E-1
-1.93420E-1,8.67919E-1
-1.05804E-1,8.86566E-1
-0.32714E-1,8.90991E-1
0.39459E-1,9.02099E-1
1.31378E-1,8.98834E-1
2.13134E-1,8.72161E-1
2.85339E-1,8.39813E-1
3.49182E-1,7.99865E-1
3.86840E-1,7.72796E-1
4.58709E-1,7.61718E-1
5.23162E-1,7.24639E-1
5.89172E-1,6.84082E-1
6.46728E-1,6.17523E-1
6.80023E-1,5.61737E-1
7.37121E-1,5.14648E-1
7.77954E-1,4.41284E-1
8.13018E-1,3.81012E-1
8.44696E-1,3.06854E-1
8.54522E-1,2.37365E-1
8.76220E-1,1.78161E-1
8.86505E-1,0.85754E-1
8.81958E-1,0.26916E-1
8.96759E-1,-0.52307E-1
8.73657E-1,-1.23809E-1
8.75640E-1,-1.79962E-1
8.54431E-1,-2.73315E-1
8.00445E-1,-3.18939E-1
7.92694E-1,-3.7323E-1
7.53234E-1,-4.41253E-1
7.45086E-1,-4.88922E-1
7.14935E-1,-5.89691E-1
6.22497E-1,-6.47918E-1
5.80566E-1,-6.71081E-1
5.11383E-1,-7.27600E-1
4.59289E-1,-7.2995E-1
4.31579E-1,-8.07647E-1
3.03344E-1,-8.58825E-1
2.38342E-1,-8.24981E-1
END
BEGIN
-7.67211E-1,0.94146E-1
-7.88970E-1,1.58477E-1
-7.14569E-1,2.71331E-1
-6.69006E-1,2.42919E-1
-7.43255E-1,3.10852E-1
-6.79107E-1,4.34112E-1
-6.51916E-1,4.73846E-1
-5.86944E-1,5.91339E-1
-4.83825E-1,5.76324E-1
-5.26886E-1,5.98571E-1
-4.63775E-1,7.34710E-1
-3.61511E-1,7.62878E-1
-2.67761E-1,8.25927E-1
-1.34918E-1,7.89032E-1
-1.41357E-1,7.62512E-1
-0.72509E-1,8.53607E-1
0.45196E-1,8.37616E-1
1.21856E-1,8.5495E-1
2.73864E-1,7.88604E-1
2.62603E-1,6.80053E-1
2.69012E-1,7.29705E-1
3.80706E-1,7.12188E-1
4.19128E-1,6.82983E-1
5.37658E-1,6.59515E-1
5.68695E-1,5.29724E-1
5.45562E-1,5.31921E-1
6.41326E-1,5.19165E-1
6.85394E-1,4.48211E-1
7.72064E-1,4.03656E-1
8.11950E-1,2.39898E-1
7.39410E-1,1.89514E-1
7.81921E-1,1.84265E-1
8.13354E-1,1.16149E-1
8.74176E-1,0.63995E-1
9.00604E-1,-1.23565E-1
7.61047E-1,-2.02148E-1
7.56103E-1,-1.77490E-1
7.83569E-1,-2.4646E-1
7.99591E-1,-3.08044E-1
8.10180E-1,-4.75524E-1
6.28906E-1,-5.71563E-1
5.66955E-1,-5.10437E-1
5.78033E-1,-5.46722E-1
5.57891E-1,-5.88531E-1
5.68603E-1,-7.04803E-1
3.95202E-1,-8.31390E-1
2.81829E-1,-7.50518E-1
2.83844E-1,-7.56195E-1
2.29980E-1,-7.84698E-1
2.17834E-1,-8.37066E-1
0.64331E-1,-9.54559E-1
-1.08703E-1,-8.55682E-1
-1.11267E-1,-7.92999E-1
-1.58508E-1,-7.92633E-1
-1.73034E-1,-7.83233E-1
-2.56622E-1,-8.65570E-1
-4.46289E-1,-7.90069E-1
-4.54193E-1,-6.69616E-1
-4.76104E-1,-6.51580E-1
-4.98962E-1,-6.12701E-1
-5.38818E-1,-6.55273E-1
-7.17010E-1,-6.12731E-1
-7.49267E-1,-4.40033E-1
-7.07122E-1,-3.88580E-1
-7.18231E-1,-3.33313E-1
-7.13409E-1,-3.38745E-1
-8.4375E-1,-3.29956E-1
-9.02282E-1,-1.44805E-1
-8.33252E-1,-0.69397E-1
-8.36151E-1,-0.24658E-1
-8.18939E-1,0.15228E-1
-8.87298E-1,0.33996E-1
-9.47540E-1,2.13928E-1
-8.35937E-1,3.34259E-1
-7.90924E-1,3.63433E-1
-7.45117E-1,4.21020E-1
-7.26684E-1,4.32251E-1
-7.56347E-1,5.35430E-1
-6.53778E-1,6.61224E-1
-5.58563E-1,6.82128E-1
-4.91302E-1,7.06573E-1
-4.50714E-1,6.99218E-1
-4.58099E-1,7.61749E-1
-3.51318E-1,8.62762E-1
-2.42370E-1,8.53332E-1
-1.69189E-1,8.71887E-1
-0.71746E-1,8.40789E-1
-0.70312E-1,8.18176E-1
-0.25878E-1,8.92852E-1
0.98449E-1,9.01306E-1
1.73217E-1,8.79089E-1
2.69836E-1,8.45916E-1
3.00140E-1,7.87536E-1
3.30047E-1,8.16009E-1
4.47296E-1,8.19549E-1
5.38482E-1,7.66326E-1
6.33087E-1,6.93084E-1
6.49475E-1,5.78521E-1
6.38610E-1,5.69854E-1
7.34680E-1,5.55053E-1
8.05511E-1,4.60235E-1
8.53210E-1,3.76922E-1
8.67462E-1,2.54119E-1
8.26904E-1,2.09167E-1
8.74023E-1,1.86981E-1
9.12292E-1,0.87768E-1
9.17236E-1,0.08667E-1
9.23706E-1,-1.13098E-1
8.42163E-1,-1.95465E-1
8.29162E-1,-2.04162E-1
8.51959E-1,-2.88452E-1
8.23547E-1,-3.76098E-1
7.87262E-1,-4.76226E-1
6.71142E-1,-5.45654E-1
6.15448E-1,-5.25054E-1
6.19079E-1,-5.69946E-1
5.74737E-1,-6.44928E-1
5.13916E-1,-7.14172E-1
3.98834E-1,-7.57629E-1
3.25744E-1,-7.18170E-1
3.19732E-1,-7.17285E-1
2.83477E-1,-7.69683E-1
2.10357E-1,-8.13690E-1
1.03424E-1,-8.40240E-1
0.12176E-1,-7.90679E-1
-0.01525E-1,-7.60833E-1
-0.27893E-1,-7.84393E-1
-0.97961E-1,-8.09356E-1
-1.97601E-1,-8.09112E-1
-2.90405E-1,-7.38006E-1
-2.99255E-1,-6.78924E-1
-3.09875E-1,-6.83380E-1
-3.69232E-1,-6.98669E-1
-4.55658E-1,-6.74896E-1
-5.23101E-1,-6.03179E-1
-5.40588E-1,-5.38482E-1
-5.53253E-1,-5.06927E-1
-5.87127E-1,-4.93377E-1
-6.48529E-1,-4.63745E-1
-7.03125E-1,-3.95629E-1
-7.20123E-1,-3.16009E-1
-7.23053E-1,-2.60711E-1
-7.28485E-1,-2.26257E-1
-7.64526E-1,-1.96899E-1
-8.03253E-1,-1.28112E-1
-8.07312E-1,-0.48248E-1
-7.97943E-1,0.16143E-1
-7.86346E-1,0.70770E-1
-8.00903E-1,1.11328E-1
-8.25164E-1,1.92352E-1
-8.05206E-1,2.82257E-1
-7.56927E-1,3.46832E-1
-7.14172E-1,3.92700E-1
-6.86554E-1,4.22149E-1
-6.89697E-1,4.88037E-1
-6.46392E-1,5.75073E-1
-5.88165E-1,6.32019E-1
-5.26855E-1,6.75781E-1
-4.62402E-1,6.97570E-1
-4.27124E-1,7.29156E-1
-3.55590E-1,7.94006E-1
-2.68615E-1,8.16497E-1
-2.06512E-1,8.30230E-1
-1.32659E-1,8.37646E-1
-0.87707E-1,8.22509E-1
-0.39306E-1,8.51684E-1
0.52459E-1,8.55957E-1
1.17584E-1,8.41766E-1
1.91070E-1,8.35327E-1
2.48809E-1,8.05267E-1
2.93670E-1,7.98492E-1
3.75152E-1,7.81219E-1
4.36798E-1,7.37793E-1
5.00122E-1,7.03918E-1
5.54657E-1,6.49841E-1
5.86151E-1,6.13372E-1
6.46148E-1,5.82275E-1
6.92443E-1,5.14465E-1
7.25463E-1,4.62707E-1
7.68554E-1,4.01458E-1
7.97912E-1,3.37097E-1
8.27362E-1,2.83172E-1
8.54095E-1,2.08252E-1
8.59008E-1,1.44439E-1
8.76922E-1,0.73303E-1
8.79699E-1,-0.03967E-1
8.76953E-1,-0.75927E-1
8.74450E-1,-1.48376E-1
8.52325E-1,-2.12493E-1
8.36425E-1,-2.70996E-1
8.13262E-1,-3.36883E-1
7.91290E-1,-4.11865E-1
7.51190E-1,-4.82360E-1
7.08465E-1,-5.46356E-1
6.62109E-1,-5.95367E-1
6.16119E-1,-6.36047E-1
5.79986E-1,-6.85363E-1
5.09765E-1,-7.51281E-1
4.27063E-1,-7.96051E-1
3.48297E-1,-8.13751E-1
2.95043E-1,-8.21685E-1
END
BEGIN
-5.41595E-1,-1.09527E-1
-5.59692E-1,-0.48919E-1
-5.66741E-1,0.11535E-1
-5.71197E-1,0.61096E-1
-5.66650E-1,1.31134E-1
-5.45806E-1,1.94671E-1
-5.24871E-1,2.64984E-1
-4.96292E-1,3.20083E-1
-4.71267E-1,3.75915E-1
-4.32601E-1,4.25079E-1
-3.89785E-1,4.64691E-1
-3.36120E-1,5.06225E-1
-2.82409E-1,5.38116E-1
-2.26348E-1,5.77453E-1
-1.67968E-1,5.95214E-1
-1.07391E-1,6.10443E-1
-0.40100E-1,6.19323E-1
0.28015E-1,6.17858E-1
0.90759E-1,6.19110E-1
1.55456E-1,5.98266E-1
2.08038E-1,5.77545E-1
2.63793E-1,5.48828E-1
3.19549E-1,5.13641E-1
3.76037E-1,4.64065E-1
4.19769E-1,4.11392E-1
4.58175E-1,3.68652E-1
4.93011E-1,3.08075E-1
5.19470E-1,2.47528E-1
5.37841E-1,1.69921E-1
5.45776E-1,1.10656E-1
5.57769E-1,0.47790E-1
5.57128E-1,-0.15106E-1
5.46661E-1,-0.65002E-1
5.29449E-1,-1.20910E-1
5.07354E-1,-1.63482E-1
4.80285E-1,-2.30621E-1
4.38980E-1,-2.72201E-1
4.06921E-1,-3.07418E-1
3.76632E-1,-3.47564E-1
3.16467E-1,-3.84384E-1
2.63214E-1,-4.06494E-1
2.15683E-1,-4.21081E-1
1.64047E-1,-4.40475E-1
1.20575E-1,-4.51248E-1
0.58822E-1,-4.66903E-1
0.09521E-1,-4.56848E-1
-0.38665E-1,-4.46731E-1
-0.84976E-1,-4.37698E-1
-1.27655E-1,-4.14840E-1
-1.73614E-1,-4.08798E-1
-2.34161E-1,-3.59588E-1
-2.56820E-1,-3.30154E-1
-2.93335E-1,-3.14437E-1
-3.29742E-1,-2.81524E-1
-3.52371E-1,-2.51129E-1
-3.83316E-1,-2.06283E-1
-3.90060E-1,-1.64306E-1
-4.06417E-1,-1.27899E-1
-4.2099E-1,-0.81481E-1
-4.15756E-1,-0.38818E-1
-4.31228E-1,-0.01251E-1
-4.15252E-1,0.64788E-1
-3.98590E-1,0.91415E-1
-4.07196E-1,1.37817E-1
-3.89450E-1,1.89315E-1
-3.74191E-1,2.24029E-1
-3.50677E-1,2.75634E-1
-3.22387E-1,2.98416E-1
-3.00186E-1,3.27529E-1
-2.59170E-1,3.52630E-1
-2.18627E-1,3.58413E-1
-1.79901E-1,3.97857E-1
-1.09069E-1,4.12490E-1
-0.72006E-1,4.16427E-1
-0.30990E-1,4.38095E-1
0.19561E-1,4.35668E-1
0.67977E-1,4.32113E-1
1.27121E-1,4.16030E-1
1.68792E-1,4.05990E-1
2.12463E-1,4.01947E-1
2.54333E-1,3.82385E-1
2.78106E-1,3.44650E-1
3.04092E-1,3.11080E-1
3.40271E-1,2.68158E-1
3.72116E-1,2.26593E-1
4.05899E-1,1.81854E-1
4.17984E-1,1.32400E-1
4.26620E-1,0.97900E-1
4.34112E-1,0.42434E-1
4.34555E-1,-0.07171E-1
4.37377E-1,-0.52169E-1
4.31778E-1,-0.97961E-1
4.06478E-1,-1.27624E-1
3.95584E-1,-1.62994E-1
3.69476E-1,-2.15026E-1
3.39157E-1,-2.61550E-1
3.07251E-1,-3.05084E-1
2.68295E-1,-3.28689E-1
2.38296E-1,-3.53439E-1
1.92016E-1,-3.79501E-1
1.52542E-1,-4.02160E-1
1.23214E-1,-4.31030E-1
0.86639E-1,-4.55795E-1
0.56747E-1,-4.44702E-1
0.32943E-1,-4.41299E-1
-0.13900E-1,-4.40246E-1
-0.65063E-1,-4.42199E-1
-1.29486E-1,-4.42199E-1
-1.64123E-1,-4.14810E-1
-1.76940E-1,-4.09149E-1
-2.16842E-1,-3.94775E-1
-2.54409E-1,-3.64898E-1
-3.00476E-1,-3.41827E-1
-3.34594E-1,-3.11355E-1
-3.43719E-1,-2.96691E-1
-3.64349E-1,-2.87384E-1
-3.82324E-1,-2.56210E-1
-4.04327E-1,-2.21160E-1
-4.19464E-1,-1.68228E-1
-4.12811E-1,-1.39343E-1
-4.31152E-1,-1.28585E-1
-4.54177E-1,-0.94650E-1
-4.66476E-1,-0.55816E-1
-4.72702E-1,-0.13107E-1
-4.68078E-1,0.14007E-1
-4.75799E-1,0.32074E-1
-4.87518E-1,0.59341E-1
-4.91165E-1,0.98251E-1
-4.84252E-1,1.35192E-1
-4.65683E-1,1.64520E-1
-4.58999E-1,1.80542E-1
-4.58953E-1,2.10083E-1
-4.53567E-1,2.54760E-1
-4.31716E-1,2.99255E-1
-4.09149E-1,3.25027E-1
-4.01138E-1,3.50555E-1
-3.80798E-1,3.81500E-1
-3.65097E-1,4.10339E-1
-3.40362E-1,4.50775E-1
-3.10043E-1,4.71832E-1
-2.92144E-1,4.83154E-1
-2.64755E-1,4.99496E-1
-2.31079E-1,5.06988E-1
-1.98944E-1,5.34240E-1
-1.46484E-1,5.61065E-1
-1.09252E-1,5.66619E-1
-0.77758E-1,5.76782E-1
-0.31494E-1,5.73974E-1
0.16326E-1,5.81268E-1
0.94085E-1,5.89233E-1
1.37695E-1,5.74432E-1
1.55456E-1,5.82641E-1
1.8927E-1,5.79559E-1
2.14325E-1,5.52215E-1
2.63732E-1,5.38177E-1
3.21411E-1,4.94583E-1
3.54492E-1,4.73098E-1
3.94455E-1,4.5755E-1
4.23202E-1,4.12887E-1
4.4664E-1,3.72573E-1
4.92248E-1,3.11660E-1
5.14892E-1,2.62054E-1
5.49438E-1,2.39563E-1
5.82336E-1,1.97357E-1
5.67443E-1,1.51489E-1
5.71075E-1,1.22589E-1
5.79711E-1,0.55053E-1
5.74310E-1,0.02594E-1
5.81512E-1,-0.45837E-1
5.45898E-1,-1.01348E-1
5.09613E-1,-1.21643E-1
4.88845E-1,-1.81732E-1
4.48043E-1,-2.42126E-1
4.27734E-1,-2.9599E-1
3.91403E-1,-3.48968E-1
3.47091E-1,-3.47061E-1
3.31161E-1,-3.62884E-1
2.70904E-1,-3.96545E-1
2.14996E-1,-4.16168E-1
1.64581E-1,-4.48516E-1
1.10519E-1,-4.39697E-1
1.00326E-1,-4.25750E-1
0.46173E-1,-4.27597E-1
-0.20034E-1,-4.04418E-1
-0.82565E-1,-4.09606E-1
-1.53198E-1,-3.94928E-1
-1.56295E-1,-3.70895E-1
-1.76879E-1,-3.76342E-1
-2.10952E-1,-3.31527E-1
-2.34832E-1,-3.06610E-1
-2.98263E-1,-2.81845E-1
-3.14163E-1,-2.32406E-1
-3.07479E-1,-2.26409E-1
-3.16131E-1,-1.85806E-1
-3.10852E-1,-1.39114E-1
-3.55377E-1,-0.92712E-1
-3.77594E-1,-0.15335E-1
-3.57482E-1,-0.11215E-1
-3.65814E-1,0.03601E-1
-3.36074E-1,0.31875E-1
-3.50723E-1,0.64727E-1
END
