CITIFILE A.01.01
#NA VERSION HP8510C.08.10
NAME DATA
#NA REGISTER 1
VAR FREQ MAG 201
DATA S[1,1] RI
DATA S[2,1] RI
DATA S[1,2] RI
DATA S[2,2] RI
SEG_LIST_BEGIN
SEG 8000000000 12000000000 201
SEG_LIST_END
COMMENT       YEAR MONTH DAY HOUR MINUTE SECONDS
CONSTANT TIME 2013   10   28  00    14    42.0
BEGIN
-4.16564E-1,-1.69128E-1
-4.28894E-1,-1.23046E-1
-4.39773E-1,-0.64529E-1
-4.46502E-1,-0.18890E-1
-4.50149E-1,0.3125E-1
-4.34265E-1,0.73089E-1
-4.18777E-1,1.13723E-1
-4.01199E-1,1.55334E-1
-3.89373E-1,2.08755E-1
-3.65325E-1,2.53265E-1
-3.39172E-1,2.81127E-1
-3.01971E-1,3.05587E-1
-2.66250E-1,3.28216E-1
-2.29339E-1,3.70605E-1
-1.85806E-1,3.97232E-1
-1.51504E-1,4.14276E-1
-1.09344E-1,4.22348E-1
-0.68252E-1,4.17434E-1
-0.27771E-1,4.32006E-1
0.35263E-1,4.36111E-1
0.75790E-1,4.34585E-1
1.13784E-1,4.29275E-1
1.45355E-1,4.08721E-1
1.77887E-1,3.88778E-1
2.19177E-1,3.67782E-1
2.51190E-1,3.54538E-1
2.83111E-1,3.36227E-1
3.05191E-1,3.11370E-1
3.23761E-1,2.76565E-1
3.44192E-1,2.53875E-1
3.81286E-1,2.21435E-1
4.07043E-1,1.82479E-1
4.19418E-1,1.52999E-1
4.21203E-1,1.1409E-1
4.25094E-1,0.84915E-1
4.43695E-1,0.20843E-1
4.35714E-1,-0.27252E-1
4.37866E-1,-0.55297E-1
4.32678E-1,-0.87341E-1
4.10049E-1,-1.21810E-1
3.89251E-1,-1.67480E-1
3.59771E-1,-2.04544E-1
3.48587E-1,-2.41867E-1
3.33374E-1,-2.70584E-1
3.07861E-1,-2.91610E-1
2.79632E-1,-3.07128E-1
2.26440E-1,-3.29956E-1
1.92108E-1,-3.46283E-1
1.65420E-1,-3.68057E-1
1.42623E-1,-3.82095E-1
1.04980E-1,-3.76144E-1
0.68695E-1,-3.67736E-1
0.31448E-1,-3.65417E-1
-0.08300E-1,-3.75885E-1
-0.41336E-1,-3.77746E-1
-0.6633E-1,-3.71505E-1
-0.91934E-1,-3.57086E-1
-1.28570E-1,-3.27255E-1
-1.64779E-1,-3.08319E-1
-1.97464E-1,-2.89535E-1
-2.11975E-1,-2.81463E-1
-2.26791E-1,-2.60665E-1
-2.37319E-1,-2.22724E-1
-2.51052E-1,-1.93389E-1
-2.84500E-1,-1.67327E-1
-3.02780E-1,-1.44012E-1
-3.09829E-1,-1.29104E-1
-3.10241E-1,-1.07574E-1
-3.02505E-1,-0.62866E-1
-3.04718E-1,-0.21713E-1
-3.08593E-1,0.14114E-1
-3.11264E-1,0.23727E-1
-3.02719E-1,0.36209E-1
-2.68692E-1,0.53512E-1
-2.49908E-1,0.70037E-1
-2.46009E-1,1.07513E-1
-2.4646E-1,1.32431E-1
-2.47329E-1,1.39679E-1
-2.39746E-1,1.44546E-1
-2.13470E-1,1.53511E-1
-1.88598E-1,1.85028E-1
-1.57486E-1,2.18772E-1
-1.50360E-1,2.29843E-1
-1.49040E-1,2.39105E-1
-1.24839E-1,2.27035E-1
-1.04148E-1,2.26448E-1
-0.62454E-1,2.49496E-1
-0.35278E-1,2.60376E-1
-0.30319E-1,2.77145E-1
-0.22079E-1,2.80258E-1
-0.10360E-1,2.71041E-1
0.26245E-1,2.74368E-1
0.76446E-1,2.64541E-1
0.93093E-1,2.67669E-1
1.07894E-1,2.74505E-1
1.11923E-1,2.56713E-1
1.22077E-1,2.44026E-1
1.61682E-1,2.19490E-1
1.90773E-1,2.06726E-1
2.18536E-1,2.10060E-1
2.32338E-1,2.06398E-1
2.36152E-1,1.96510E-1
2.68341E-1,1.61926E-1
2.91030E-1,1.00753E-1
3.14636E-1,0.68847E-1
3.37814E-1,0.45242E-1
3.27972E-1,0.23620E-1
3.18771E-1,-0.01113E-1
3.02780E-1,-0.58898E-1
2.95867E-1,-1.04400E-1
3.06320E-1,-1.45889E-1
2.99072E-1,-1.65695E-1
2.85217E-1,-1.67633E-1
2.55920E-1,-2.01110E-1
2.06047E-1,-2.47253E-1
1.7453E-1,-2.91519E-1
1.54205E-1,-3.21929E-1
1.36749E-1,-3.20816E-1
1.03561E-1,-3.16391E-1
0.42205E-1,-3.08197E-1
-0.08316E-1,-3.21899E-1
-0.52063E-1,-3.45489E-1
-0.70404E-1,-3.51455E-1
-0.78353E-1,-3.37829E-1
-1.13311E-1,-3.10684E-1
-1.69799E-1,-2.84500E-1
-2.32681E-1,-2.70187E-1
-2.62451E-1,-2.68447E-1
-2.70889E-1,-2.59658E-1
-2.78289E-1,-2.20230E-1
-2.94342E-1,-1.56402E-1
-3.34396E-1,-1.02752E-1
-3.69979E-1,-0.78033E-1
-3.82980E-1,-0.74981E-1
-3.76251E-1,-0.62255E-1
-3.56948E-1,-0.11245E-1
-3.52462E-1,0.57647E-1
-3.67324E-1,1.20712E-1
-3.90777E-1,1.41616E-1
-3.92715E-1,1.46987E-1
-3.59375E-1,1.63543E-1
-3.03543E-1,2.14752E-1
-2.60833E-1,2.78289E-1
-2.55371E-1,3.25195E-1
-2.61062E-1,3.43978E-1
-2.45422E-1,3.39187E-1
-1.88644E-1,3.42407E-1
-1.17034E-1,3.63220E-1
-0.65353E-1,4.09530E-1
-0.60913E-1,4.36294E-1
-0.77316E-1,4.45877E-1
-0.54458E-1,4.30908E-1
0.21301E-1,4.02603E-1
1.05835E-1,3.88748E-1
1.58905E-1,4.03106E-1
1.67404E-1,4.28817E-1
1.69296E-1,4.33898E-1
1.89697E-1,3.81881E-1
2.16461E-1,3.23349E-1
2.68081E-1,2.99850E-1
2.99804E-1,3.10470E-1
3.30047E-1,3.47991E-1
3.53546E-1,3.21090E-1
3.62487E-1,2.50091E-1
3.87771E-1,1.78146E-1
4.33319E-1,1.24343E-1
4.60022E-1,0.99334E-1
4.67514E-1,0.86486E-1
4.41986E-1,0.42556E-1
4.00528E-1,-0.09918E-1
3.99307E-1,-0.71685E-1
3.97995E-1,-1.17553E-1
4.16107E-1,-1.17569E-1
4.08874E-1,-1.30401E-1
3.61511E-1,-1.49627E-1
3.25439E-1,-1.98455E-1
2.92083E-1,-2.64679E-1
2.92633E-1,-2.92999E-1
3.03909E-1,-3.11538E-1
2.69073E-1,-3.06701E-1
2.17895E-1,-2.95288E-1
1.52435E-1,-3.29498E-1
1.03271E-1,-3.56689E-1
1.16104E-1,-3.91693E-1
1.15066E-1,-3.97354E-1
1.04202E-1,-3.57849E-1
0.53237E-1,-3.45459E-1
-0.39733E-1,-3.47320E-1
-0.87371E-1,-3.68957E-1
-1.04507E-1,-4.04281E-1
-0.95016E-1,-3.89404E-1
-0.87249E-1,-3.55743E-1
-1.57287E-1,-3.07113E-1
-2.25372E-1,-2.45567E-1
-2.63900E-1,-2.64221E-1
-2.76428E-1,-2.80960E-1
-2.35076E-1,-2.76367E-1
-2.36885E-1,-2.44567E-1
-2.84896E-1,-1.41113E-1
-3.16116E-1,-0.86746E-1
-3.63647E-1,-0.91842E-1
END
BEGIN
-8.88610E-1,0.51116E-1
-8.22814E-1,1.51550E-1
-8.18634E-1,1.89788E-1
-8.13720E-1,3.10577E-1
-7.53418E-1,3.83483E-1
-7.19726E-1,4.80285E-1
-5.97168E-1,5.48217E-1
-5.40679E-1,5.24444E-1
-5.33416E-1,5.74096E-1
-4.76104E-1,6.17431E-1
-4.487E-1,6.67999E-1
-3.42712E-1,7.27783E-1
-2.82959E-1,6.90582E-1
-2.89947E-1,7.38128E-1
-1.92657E-1,8.03405E-1
-1.27777E-1,8.12164E-1
-0.25024E-1,8.57360E-1
0.77423E-1,7.94586E-1
0.77758E-1,7.83264E-1
1.60675E-1,8.27545E-1
2.36877E-1,8.06762E-1
3.24066E-1,8.35327E-1
4.62860E-1,7.63031E-1
4.83184E-1,6.94335E-1
5.67535E-1,6.89605E-1
6.46881E-1,5.93627E-1
6.88385E-1,5.52642E-1
7.90039E-1,4.41131E-1
7.46307E-1,3.09478E-1
7.27874E-1,2.98431E-1
7.58514E-1,2.41180E-1
7.52990E-1,2.08038E-1
8.20678E-1,1.62719E-1
8.08563E-1,0.46569E-1
7.85553E-1,0.39337E-1
8.53210E-1,-0.01220E-1
8.79577E-1,-0.91003E-1
9.35577E-1,-1.90826E-1
8.90991E-1,-3.84063E-1
7.66845E-1,-4.26513E-1
7.68188E-1,-4.64874E-1
7.07977E-1,-5.62652E-1
6.60980E-1,-5.99304E-1
6.11053E-1,-7.06146E-1
4.77661E-1,-7.27508E-1
4.65026E-1,-7.15362E-1
4.17144E-1,-8.00079E-1
3.33770E-1,-8.17932E-1
2.94342E-1,-8.89404E-1
1.24664E-1,-9.46899E-1
0.25177E-1,-8.72619E-1
-0.21698E-1,-8.71154E-1
-1.05255E-1,-8.40667E-1
-1.29852E-1,-8.23455E-1
-2.17559E-1,-8.45489E-1
-2.9776E-1,-7.83172E-1
-3.26385E-1,-7.68463E-1
-3.99841E-1,-7.47711E-1
-4.33868E-1,-7.25555E-1
-5.29724E-1,-7.46185E-1
-6.55395E-1,-6.41021E-1
-6.68762E-1,-5.48645E-1
-7.1521E-1,-4.87213E-1
-7.12036E-1,-3.99292E-1
-7.20275E-1,-3.95935E-1
-7.98156E-1,-3.30963E-1
-7.85980E-1,-2.41485E-1
-8.04534E-1,-2.16217E-1
-8.37860E-1,-1.45813E-1
-8.57513E-1,-1.01379E-1
-9.26666E-1,-0.07690E-1
-8.95172E-1,1.32690E-1
-8.59252E-1,1.93298E-1
-8.28949E-1,2.90161E-1
-7.56286E-1,3.36944E-1
-7.44171E-1,3.69720E-1
-7.01843E-1,4.34143E-1
-6.68060E-1,4.52941E-1
-6.59393E-1,5.10986E-1
-6.08581E-1,5.59295E-1
-5.99151E-1,5.96618E-1
-5.69244E-1,6.84356E-1
-4.99267E-1,7.46093E-1
-4.27978E-1,8.11767E-1
-3.12347E-1,8.33801E-1
-2.67242E-1,8.25683E-1
-2.08740E-1,8.80432E-1
-1.06903E-1,8.83667E-1
-0.58441E-1,8.81835E-1
0.17120E-1,8.96545E-1
0.75073E-1,8.84460E-1
1.39007E-1,9.22607E-1
2.68341E-1,9.24743E-1
3.58764E-1,8.73565E-1
4.38812E-1,8.34075E-1
5.02960E-1,7.62817E-1
5.42511E-1,7.25433E-1
6.14288E-1,6.73736E-1
6.48651E-1,6.06628E-1
6.86889E-1,5.76477E-1
7.42523E-1,5.28350E-1
7.82562E-1,4.79461E-1
8.44635E-1,4.26818E-1
8.94348E-1,3.41278E-1
9.28955E-1,2.62664E-1
9.73846E-1,1.67053E-1
9.72442E-1,0.47821E-1
9.52392E-1,-0.32623E-1
9.46563E-1,-1.17370E-1
9.19830E-1,-2.05383E-1
8.91540E-1,-2.83477E-1
8.49975E-1,-3.65417E-1
8.04107E-1,-4.13757E-1
7.81311E-1,-4.66369E-1
7.47406E-1,-5.40008E-1
6.88659E-1,-6.04095E-1
6.35833E-1,-6.66076E-1
5.62591E-1,-7.20336E-1
5.00061E-1,-7.57843E-1
4.26818E-1,-8.08837E-1
3.31115E-1,-8.23181E-1
2.65014E-1,-8.20037E-1
1.98150E-1,-8.33831E-1
1.2677E-1,-8.33252E-1
0.65826E-1,-8.34777E-1
-0.04180E-1,-8.30200E-1
-0.56640E-1,-8.01239E-1
-0.91705E-1,-8.00476E-1
-1.58172E-1,-8.06701E-1
-2.32696E-1,-7.97241E-1
-3.16192E-1,-7.69195E-1
-3.71185E-1,-7.11883E-1
-3.9328E-1,-6.81274E-1
-4.39209E-1,-6.61315E-1
-4.91760E-1,-6.23443E-1
-5.39917E-1,-5.81817E-1
-5.80291E-1,-5.25878E-1
-5.93017E-1,-4.82177E-1
-6.26312E-1,-4.67407E-1
-6.77307E-1,-4.22790E-1
-7.11090E-1,-3.73382E-1
-7.56103E-1,-3.11462E-1
-7.72979E-1,-2.33123E-1
-7.79022E-1,-1.82312E-1
-7.98522E-1,-1.25E-1
-8.03924E-1,-0.61065E-1
-8.11889E-1,0.07385E-1
-7.97271E-1,0.79437E-1
-7.66357E-1,1.31988E-1
-7.64923E-1,1.54418E-1
-7.79418E-1,2.13562E-1
-7.75451E-1,2.78595E-1
-7.63488E-1,3.60015E-1
-7.12829E-1,4.33624E-1
-6.72241E-1,4.62982E-1
-6.62719E-1,5.17730E-1
-6.16912E-1,5.89660E-1
-5.59997E-1,6.4151E-1
-5.01892E-1,6.87072E-1
-4.31823E-1,7.09045E-1
-3.98315E-1,7.24609E-1
-3.61175E-1,7.75177E-1
-3.04657E-1,8.11157E-1
-2.38616E-1,8.62854E-1
-1.41387E-1,8.85314E-1
-0.75439E-1,8.90075E-1
0.00366E-1,9.11499E-1
0.96557E-1,9.04205E-1
1.72119E-1,8.86230E-1
2.50274E-1,8.58642E-1
3.16558E-1,8.20068E-1
3.57605E-1,7.94403E-1
4.34631E-1,7.80914E-1
4.92523E-1,7.41729E-1
5.61584E-1,7.06848E-1
6.22039E-1,6.36108E-1
6.52648E-1,5.83068E-1
7.13226E-1,5.39642E-1
7.50579E-1,4.63378E-1
7.84606E-1,4.11132E-1
8.19854E-1,3.36395E-1
8.27606E-1,2.66418E-1
8.47381E-1,2.14477E-1
8.66424E-1,1.21978E-1
8.57727E-1,0.69366E-1
8.83606E-1,-0.04241E-1
8.59649E-1,-0.81787E-1
8.6026E-1,-1.30218E-1
8.49121E-1,-2.23358E-1
7.89367E-1,-2.71484E-1
7.88024E-1,-3.15338E-1
7.56164E-1,-3.89312E-1
7.42706E-1,-4.31488E-1
7.22076E-1,-5.20111E-1
6.39648E-1,-5.86975E-1
6.00677E-1,-6.00921E-1
5.49865E-1,-6.66290E-1
4.90753E-1,-6.75476E-1
4.74578E-1,-7.44293E-1
3.59558E-1,-8.11279E-1
2.87506E-1,-7.72583E-1
END
BEGIN
-7.84759E-1,0.68817E-1
-8.03680E-1,1.36627E-1
-7.37915E-1,2.40722E-1
-7.03613E-1,2.24029E-1
-7.66113E-1,2.99804E-1
-7.06237E-1,4.14764E-1
-6.80267E-1,4.63501E-1
-6.15692E-1,5.71411E-1
-5.27923E-1,5.66009E-1
-5.60058E-1,6.01532E-1
-4.92553E-1,7.24792E-1
-3.99139E-1,7.56500E-1
-3.07922E-1,8.15460E-1
-1.90856E-1,7.91503E-1
-1.87164E-1,7.81494E-1
-1.12091E-1,8.64410E-1
-0.02044E-1,8.5495E-1
0.78857E-1,8.72314E-1
2.16003E-1,8.16253E-1
2.17315E-1,7.31750E-1
2.41027E-1,7.78595E-1
3.51867E-1,7.60925E-1
4.00787E-1,7.36511E-1
5.16235E-1,7.07611E-1
5.51971E-1,5.94909E-1
5.48858E-1,5.94574E-1
6.47399E-1,5.74279E-1
6.98883E-1,5.03692E-1
7.85308E-1,4.50103E-1
8.25042E-1,2.97058E-1
7.70477E-1,2.42431E-1
8.17230E-1,2.27294E-1
8.51440E-1,1.53472E-1
9.10034E-1,0.91400E-1
9.30297E-1,-0.85693E-1
8.08929E-1,-1.65985E-1
8.05938E-1,-1.55731E-1
8.31970E-1,-2.30987E-1
8.45214E-1,-3.02856E-1
8.45459E-1,-4.62249E-1
6.82159E-1,-5.55786E-1
6.22345E-1,-5.13580E-1
6.27075E-1,-5.56121E-1
6.01287E-1,-6.06933E-1
5.95367E-1,-7.19574E-1
4.33471E-1,-8.33374E-1
3.25073E-1,-7.69043E-1
3.16833E-1,-7.78930E-1
2.59491E-1,-8.10913E-1
2.33276E-1,-8.62243E-1
0.86242E-1,-9.59106E-1
-0.68603E-1,-8.78082E-1
-0.85418E-1,-8.25042E-1
-1.37115E-1,-8.24493E-1
-1.66137E-1,-8.15582E-1
-2.52533E-1,-8.74847E-1
-4.15100E-1,-8.05175E-1
-4.34356E-1,-7.01934E-1
-4.61090E-1,-6.80847E-1
-4.92553E-1,-6.47064E-1
-5.42388E-1,-6.69433E-1
-6.86584E-1,-6.10046E-1
-7.03735E-1,-4.71801E-1
-6.94671E-1,-4.29138E-1
-7.14660E-1,-3.78234E-1
-7.25769E-1,-3.68377E-1
-8.33648E-1,-3.37066E-1
-8.73443E-1,-1.83136E-1
-8.26873E-1,-1.14654E-1
-8.32763E-1,-0.71533E-1
-8.32916E-1,-0.28564E-1
-8.90716E-1,0.13885E-1
-9.21630E-1,1.67297E-1
-8.39996E-1,2.63458E-1
-8.11218E-1,3.00872E-1
-7.80639E-1,3.63067E-1
-7.64770E-1,3.97857E-1
-7.72003E-1,4.95910E-1
-6.84417E-1,5.97503E-1
-6.09130E-1,6.24755E-1
-5.58410E-1,6.56768E-1
-5.22735E-1,6.78833E-1
-5.05188E-1,7.44323E-1
-4.08508E-1,8.23608E-1
-3.19244E-1,8.29742E-1
-2.50061E-1,8.52905E-1
-1.71539E-1,8.47229E-1
-1.45629E-1,8.51989E-1
-0.80505E-1,9.13757E-1
0.34210E-1,9.17907E-1
1.10382E-1,9.00329E-1
1.95098E-1,8.78143E-1
2.37793E-1,8.45459E-1
2.89367E-1,8.67034E-1
4.04052E-1,8.58367E-1
4.88769E-1,8.06335E-1
5.71106E-1,7.43225E-1
6.02447E-1,6.60369E-1
6.23687E-1,6.44012E-1
7.15637E-1,6.14837E-1
7.81890E-1,5.25177E-1
8.27667E-1,4.45617E-1
8.49853E-1,3.41400E-1
8.38409E-1,2.88604E-1
8.84796E-1,2.51525E-1
9.23736E-1,1.60797E-1
9.36187E-1,0.78796E-1
9.41162E-1,-0.33294E-1
8.84429E-1,-1.13739E-1
8.76037E-1,-1.45446E-1
8.95080E-1,-2.31414E-1
8.71002E-1,-3.21624E-1
8.4021E-1,-4.17175E-1
7.45788E-1,-4.90264E-1
6.90216E-1,-4.96917E-1
6.81427E-1,-5.43487E-1
6.39770E-1,-6.20147E-1
5.79986E-1,-6.92138E-1
4.81048E-1,-7.37640E-1
4.11254E-1,-7.25616E-1
3.85131E-1,-7.31353E-1
3.45336E-1,-7.79754E-1
2.68493E-1,-8.24157E-1
1.71447E-1,-8.50341E-1
0.83557E-1,-8.26141E-1
0.45532E-1,-8.013E-1
0.16479E-1,-8.14483E-1
-0.55969E-1,-8.37860E-1
-1.47277E-1,-8.30413E-1
-2.31018E-1,-7.82928E-1
-2.66296E-1,-7.39715E-1
-2.87353E-1,-7.26898E-1
-3.41705E-1,-7.38220E-1
-4.23797E-1,-7.09747E-1
-4.83367E-1,-6.50665E-1
-5.19317E-1,-6.00769E-1
-5.47302E-1,-5.56457E-1
-5.74920E-1,-5.40161E-1
-6.37664E-1,-5.08392E-1
-6.80175E-1,-4.40856E-1
-7.03277E-1,-3.79852E-1
-7.26196E-1,-3.20556E-1
-7.34283E-1,-2.77984E-1
-7.73254E-1,-2.49420E-1
-8.08013E-1,-1.77246E-1
-8.12103E-1,-1.0849E-1
-8.18542E-1,-0.42755E-1
-8.11981E-1,0.23864E-1
-8.31451E-1,0.68603E-1
-8.55041E-1,1.59881E-1
-8.25012E-1,2.37274E-1
-7.94189E-1,2.92480E-1
-7.59155E-1,3.52569E-1
-7.28088E-1,3.91479E-1
-7.32666E-1,4.67163E-1
-6.78436E-1,5.57128E-1
-6.28173E-1,6.02935E-1
-5.75653E-1,6.53533E-1
-5.06469E-1,6.84417E-1
-4.59442E-1,7.17193E-1
-3.78021E-1,7.68249E-1
-3.12652E-1,7.76886E-1
-2.72613E-1,8.03863E-1
-2.02026E-1,8.30505E-1
-1.49078E-1,8.21380E-1
-1.00433E-1,8.52722E-1
-0.03143E-1,8.61633E-1
0.61218E-1,8.48724E-1
1.30706E-1,8.51562E-1
1.94763E-1,8.30017E-1
2.42492E-1,8.19610E-1
3.24157E-1,8.05694E-1
3.86261E-1,7.63488E-1
4.51446E-1,7.35504E-1
5.13000E-1,6.88446E-1
5.50231E-1,6.46301E-1
6.03546E-1,6.18377E-1
6.52282E-1,5.52642E-1
6.84234E-1,5.02471E-1
7.31536E-1,4.47143E-1
7.68676E-1,3.82080E-1
7.92114E-1,3.30993E-1
8.22570E-1,2.64709E-1
8.29132E-1,2.01568E-1
8.50067E-1,1.36505E-1
8.60412E-1,0.56854E-1
8.58917E-1,-0.14801E-1
8.63006E-1,-0.78887E-1
8.44970E-1,-1.43402E-1
8.30993E-1,-1.95709E-1
8.12469E-1,-2.61627E-1
7.93975E-1,-3.36883E-1
7.59643E-1,-4.03717E-1
7.31445E-1,-4.68322E-1
6.91741E-1,-5.19226E-1
6.52587E-1,-5.59570E-1
6.18011E-1,-6.03485E-1
5.58441E-1,-6.71264E-1
4.87854E-1,-7.26013E-1
4.10461E-1,-7.53051E-1
3.64654E-1,-7.62298E-1
END
BEGIN
-4.13360E-1,-1.73797E-1
-4.39163E-1,-1.24740E-1
-4.57473E-1,-0.75943E-1
-4.72869E-1,-0.40206E-1
-4.81475E-1,0.15014E-1
-4.70535E-1,0.69366E-1
-4.63501E-1,1.35452E-1
-4.46823E-1,1.93466E-1
-4.40567E-1,2.46215E-1
-4.21630E-1,2.93716E-1
-3.92196E-1,3.29254E-1
-3.51699E-1,3.69125E-1
-3.05358E-1,4.05136E-1
-2.64465E-1,4.50073E-1
-2.20657E-1,4.79446E-1
-1.73355E-1,4.99588E-1
-1.21368E-1,5.11810E-1
-0.59448E-1,5.17211E-1
-0.03814E-1,5.24688E-1
0.54870E-1,5.23223E-1
1.02600E-1,5.18249E-1
1.46499E-1,4.99374E-1
1.93924E-1,4.74304E-1
2.49343E-1,4.32189E-1
2.94265E-1,3.92272E-1
3.36868E-1,3.64273E-1
3.72345E-1,3.16589E-1
3.94531E-1,2.69577E-1
4.16671E-1,1.99630E-1
4.25994E-1,1.44455E-1
4.48532E-1,0.93032E-1
4.60327E-1,0.40634E-1
4.55551E-1,0.05096E-1
4.43496E-1,-0.39062E-1
4.20532E-1,-0.73074E-1
4.08432E-1,-1.26358E-1
3.84826E-1,-1.66519E-1
3.63403E-1,-1.93679E-1
3.46054E-1,-2.21313E-1
2.94830E-1,-2.51937E-1
2.55828E-1,-2.66311E-1
2.26104E-1,-2.87551E-1
1.91787E-1,-3.12652E-1
1.65512E-1,-3.24447E-1
1.20788E-1,-3.44604E-1
0.83801E-1,-3.34030E-1
0.53680E-1,-3.37310E-1
0.19332E-1,-3.44787E-1
-0.10757E-1,-3.34259E-1
-0.41564E-1,-3.38653E-1
-0.98007E-1,-3.03527E-1
-1.14288E-1,-2.85812E-1
-1.47003E-1,-2.91153E-1
-1.82037E-1,-2.80990E-1
-2.04391E-1,-2.72430E-1
-2.38929E-1,-2.44094E-1
-2.46498E-1,-2.14622E-1
-2.70629E-1,-1.99798E-1
-2.96783E-1,-1.72988E-1
-3.03024E-1,-1.47964E-1
-3.25378E-1,-1.27365E-1
-3.24386E-1,-0.67520E-1
-3.19824E-1,-0.48858E-1
-3.48083E-1,-0.15426E-1
-3.55804E-1,0.29098E-1
-3.61572E-1,0.59768E-1
-3.60061E-1,1.15066E-1
-3.41995E-1,1.40701E-1
-3.41140E-1,1.70562E-1
-3.23303E-1,2.01568E-1
-2.99652E-1,2.12524E-1
-2.83096E-1,2.55340E-1
-2.18215E-1,2.88848E-1
-1.84539E-1,3.00674E-1
-1.58554E-1,3.35067E-1
-1.19476E-1,3.48846E-1
-0.82946E-1,3.63449E-1
-0.19683E-1,3.68850E-1
0.24185E-1,3.64975E-1
0.61416E-1,3.76495E-1
0.96206E-1,3.78021E-1
1.17736E-1,3.62319E-1
1.48757E-1,3.43307E-1
1.86370E-1,3.03604E-1
2.19146E-1,2.74322E-1
2.62512E-1,2.45010E-1
2.78915E-1,2.11319E-1
2.94921E-1,1.96746E-1
3.20068E-1,1.47903E-1
3.24707E-1,0.99411E-1
3.40530E-1,0.62805E-1
3.46298E-1,0.25970E-1
3.33999E-1,0.10223E-1
3.36364E-1,-0.14648E-1
3.14727E-1,-0.63674E-1
2.91610E-1,-1.07193E-1
2.67746E-1,-1.52404E-1
2.42042E-1,-1.68739E-1
2.36953E-1,-1.89537E-1
2.00325E-1,-2.24067E-1
1.64161E-1,-2.43476E-1
1.44287E-1,-2.75299E-1
1.22161E-1,-2.98202E-1
1.19033E-1,-2.94555E-1
1.10809E-1,-2.9776E-1
0.76293E-1,-2.88742E-1
0.42419E-1,-2.94174E-1
-0.14190E-1,-3.03588E-1
-0.33157E-1,-2.88147E-1
-0.30410E-1,-2.99972E-1
-0.59402E-1,-2.96478E-1
-0.87722E-1,-2.76687E-1
-1.34292E-1,-2.6474E-1
-1.62506E-1,-2.46444E-1
-1.67053E-1,-2.60299E-1
-1.84036E-1,-2.73376E-1
-1.93740E-1,-2.60376E-1
-2.14576E-1,-2.40097E-1
-2.34039E-1,-1.95701E-1
-2.33703E-1,-1.80564E-1
-2.58132E-1,-1.90506E-1
-2.88925E-1,-1.78176E-1
-3.10913E-1,-1.53976E-1
-3.26370E-1,-1.12167E-1
-3.27789E-1,-0.90164E-1
-3.52005E-1,-0.83770E-1
-3.82354E-1,-0.69610E-1
-4.06021E-1,-0.42053E-1
-4.10034E-1,-0.05523E-1
-3.93112E-1,0.22552E-1
-3.93966E-1,0.33294E-1
-4.10675E-1,0.58166E-1
-4.26193E-1,1.00433E-1
-4.20837E-1,1.51916E-1
-3.98376E-1,1.81961E-1
-3.94409E-1,2.03933E-1
-3.84979E-1,2.41989E-1
-3.81835E-1,2.74612E-1
-3.75289E-1,3.25439E-1
-3.47885E-1,3.55529E-1
-3.31680E-1,3.60549E-1
-3.12789E-1,3.77212E-1
-2.81524E-1,3.86108E-1
-2.64251E-1,4.15741E-1
-2.21969E-1,4.55001E-1
-1.84677E-1,4.60723E-1
-1.62643E-1,4.66003E-1
-1.19110E-1,4.67239E-1
-0.80459E-1,4.79705E-1
-0.05432E-1,5.10589E-1
0.4776E-1,5.03936E-1
0.57220E-1,5.04882E-1
0.76293E-1,5.07263E-1
0.95352E-1,4.81216E-1
1.31897E-1,4.81903E-1
1.98593E-1,4.54666E-1
2.29110E-1,4.29153E-1
2.50137E-1,4.18655E-1
2.69607E-1,3.78738E-1
2.74047E-1,3.47717E-1
3.15490E-1,3.21289E-1
3.60717E-1,2.95318E-1
4.02267E-1,2.84957E-1
4.47540E-1,2.56942E-1
4.32418E-1,2.14721E-1
4.38262E-1,2.07443E-1
4.67819E-1,1.47750E-1
4.63684E-1,0.99029E-1
4.78591E-1,0.70068E-1
4.51492E-1,0.21026E-1
4.16427E-1,0.19134E-1
4.18472E-1,-0.30120E-1
3.89526E-1,-0.98815E-1
3.80737E-1,-1.47888E-1
3.63769E-1,-2.04055E-1
3.27468E-1,-1.96319E-1
3.40606E-1,-2.01965E-1
2.98767E-1,-2.51754E-1
2.48352E-1,-2.77114E-1
2.14721E-1,-3.19595E-1
1.69906E-1,-3.19107E-1
1.82388E-1,-3.01986E-1
1.46301E-1,-3.20617E-1
0.74630E-1,-3.07113E-1
0.12725E-1,-3.25561E-1
-0.67047E-1,-3.32382E-1
-0.61935E-1,-3.12194E-1
-0.63125E-1,-3.40820E-1
-1.03912E-1,-3.08013E-1
-1.28479E-1,-2.87323E-1
-2.07168E-1,-2.81463E-1
-2.36030E-1,-2.34138E-1
-2.11799E-1,-2.44148E-1
-2.21527E-1,-2.24342E-1
-2.16659E-1,-1.74614E-1
-2.74139E-1,-1.32904E-1
-3.21441E-1,-0.47988E-1
-2.96112E-1,-0.44708E-1
-3.10836E-1,-0.58319E-1
-2.8479E-1,-0.31173E-1
-3.04809E-1,-0.04730E-1
END
