CITIFILE A.01.01
#NA VERSION HP8510C.08.10
NAME DATA
#NA REGISTER 1
VAR FREQ MAG 201
DATA S[1,1] RI
DATA S[2,1] RI
DATA S[1,2] RI
DATA S[2,2] RI
SEG_LIST_BEGIN
SEG 8000000000 12000000000 201
SEG_LIST_END
COMMENT       YEAR MONTH DAY HOUR MINUTE SECONDS
CONSTANT TIME 2013   10   28  00    17    00.0
BEGIN
-4.21234E-1,-2.42858E-1
-4.40246E-1,-1.97830E-1
-4.59045E-1,-1.40502E-1
-4.71725E-1,-0.94101E-1
-4.84893E-1,-0.42846E-1
-4.75219E-1,0.01434E-1
-4.67224E-1,0.44174E-1
-4.54147E-1,0.90194E-1
-4.49783E-1,1.46347E-1
-4.32601E-1,1.97052E-1
-4.08981E-1,2.29873E-1
-3.76754E-1,2.60208E-1
-3.43582E-1,2.88192E-1
-3.11676E-1,3.37387E-1
-2.69287E-1,3.70864E-1
-2.35153E-1,3.95538E-1
-1.93206E-1,4.09317E-1
-1.53152E-1,4.10614E-1
-1.13891E-1,4.32098E-1
-0.47729E-1,4.44549E-1
-0.03616E-1,4.48349E-1
0.37216E-1,4.47921E-1
0.70755E-1,4.31366E-1
1.0672E-1,4.16976E-1
1.51290E-1,4.00268E-1
1.86889E-1,3.91464E-1
2.24029E-1,3.77563E-1
2.49649E-1,3.54766E-1
2.73468E-1,3.24264E-1
2.99133E-1,3.03085E-1
3.41339E-1,2.75360E-1
3.75122E-1,2.37258E-1
3.92028E-1,2.06573E-1
3.98651E-1,1.68380E-1
4.07714E-1,1.38855E-1
4.33273E-1,0.75393E-1
4.31579E-1,0.25482E-1
4.38308E-1,-0.06347E-1
4.36813E-1,-0.38375E-1
4.20578E-1,-0.75683E-1
4.04876E-1,-1.24771E-1
3.79104E-1,-1.66168E-1
3.72650E-1,-2.07931E-1
3.60168E-1,-2.39791E-1
3.39431E-1,-2.65213E-1
3.13888E-1,-2.85736E-1
2.63580E-1,-3.14788E-1
2.31887E-1,-3.37158E-1
2.04208E-1,-3.66104E-1
1.83807E-1,-3.84506E-1
1.44607E-1,-3.86459E-1
1.07955E-1,-3.83041E-1
0.70861E-1,-3.87588E-1
0.28823E-1,-4.03274E-1
-0.06744E-1,-4.10949E-1
-0.34866E-1,-4.11193E-1
-0.63552E-1,-4.01123E-1
-1.04324E-1,-3.77166E-1
-1.45858E-1,-3.62426E-1
-1.83654E-1,-3.47122E-1
-2.02377E-1,-3.44207E-1
-2.24975E-1,-3.2547E-1
-2.38967E-1,-2.87719E-1
-2.58300E-1,-2.63290E-1
-2.99270E-1,-2.38311E-1
-3.23349E-1,-2.16079E-1
-3.38226E-1,-2.01004E-1
-3.44268E-1,-1.79351E-1
-3.43338E-1,-1.33972E-1
-3.5289E-1,-0.90087E-1
-3.61282E-1,-0.52169E-1
-3.71398E-1,-0.41915E-1
-3.68774E-1,-0.23468E-1
-3.37173E-1,-0.01876E-1
-3.23776E-1,0.16128E-1
-3.25134E-1,0.57647E-1
-3.32153E-1,0.85723E-1
-3.36074E-1,1.01532E-1
-3.31298E-1,1.10031E-1
-3.10195E-1,1.23748E-1
-2.89581E-1,1.64276E-1
-2.58377E-1,2.06131E-1
-2.52410E-1,2.23083E-1
-2.51937E-1,2.38739E-1
-2.27088E-1,2.32879E-1
-2.07771E-1,2.40371E-1
-1.64230E-1,2.71286E-1
-1.37313E-1,2.88864E-1
-1.28051E-1,3.13324E-1
-1.16287E-1,3.20037E-1
-1.0289E-1,3.18023E-1
-0.6073E-1,3.29330E-1
-0.04516E-1,3.22326E-1
0.14480E-1,3.31390E-1
0.35812E-1,3.42025E-1
0.44265E-1,3.26782E-1
0.60119E-1,3.18618E-1
1.05514E-1,2.98706E-1
1.41571E-1,2.91763E-1
1.80282E-1,2.95517E-1
1.99600E-1,2.90222E-1
2.08801E-1,2.82440E-1
2.50137E-1,2.48825E-1
2.81372E-1,1.84906E-1
3.12866E-1,1.50802E-1
3.42834E-1,1.24389E-1
3.37814E-1,1.00616E-1
3.36853E-1,0.72296E-1
3.26522E-1,0.08239E-1
3.24569E-1,-0.40863E-1
3.41568E-1,-0.89462E-1
3.37142E-1,-1.14807E-1
3.27957E-1,-1.22848E-1
3.02429E-1,-1.63726E-1
2.54425E-1,-2.18063E-1
2.24639E-1,-2.71102E-1
2.02865E-1,-3.09402E-1
1.87179E-1,-3.15460E-1
1.52679E-1,-3.19732E-1
0.88211E-1,-3.17779E-1
0.36926E-1,-3.39706E-1
-0.12451E-1,-3.71017E-1
-0.34256E-1,-3.82278E-1
-0.48584E-1,-3.76220E-1
-0.88073E-1,-3.53546E-1
-1.51107E-1,-3.34243E-1
-2.24212E-1,-3.22769E-1
-2.59628E-1,-3.22067E-1
-2.76001E-1,-3.16238E-1
-2.91961E-1,-2.77496E-1
-3.15170E-1,-2.14828E-1
-3.6586E-1,-1.6008E-1
-4.05044E-1,-1.30279E-1
-4.24057E-1,-1.27441E-1
-4.24743E-1,-1.11312E-1
-4.11178E-1,-0.56625E-1
-4.15100E-1,0.15609E-1
-4.33242E-1,0.87265E-1
-4.58206E-1,1.11404E-1
-4.64981E-1,1.20620E-1
-4.34463E-1,1.43508E-1
-3.81500E-1,1.99951E-1
-3.40560E-1,2.72766E-1
-3.31512E-1,3.24279E-1
-3.40057E-1,3.45108E-1
-3.25180E-1,3.46588E-1
-2.67898E-1,3.52798E-1
-1.98196E-1,3.80355E-1
-1.40472E-1,4.33914E-1
-1.36169E-1,4.60525E-1
-1.53533E-1,4.74792E-1
-1.29470E-1,4.64828E-1
-0.54336E-1,4.40460E-1
0.35522E-1,4.34875E-1
0.92529E-1,4.48745E-1
0.99685E-1,4.78653E-1
1.06002E-1,4.89852E-1
1.30722E-1,4.41406E-1
1.63894E-1,3.89480E-1
2.28851E-1,3.63357E-1
2.65518E-1,3.60549E-1
2.84500E-1,3.92761E-1
3.00964E-1,3.71734E-1
3.06869E-1,3.10318E-1
3.38226E-1,2.47985E-1
3.87435E-1,1.96243E-1
4.17831E-1,1.78634E-1
4.33517E-1,1.68746E-1
4.11148E-1,1.24694E-1
3.76724E-1,0.76675E-1
3.83132E-1,0.12924E-1
3.83407E-1,-0.29556E-1
4.12368E-1,-0.25863E-1
4.10797E-1,-0.42648E-1
3.68927E-1,-0.61370E-1
3.41201E-1,-1.15097E-1
3.10867E-1,-1.84494E-1
3.20907E-1,-2.11425E-1
3.38317E-1,-2.40127E-1
3.03604E-1,-2.37533E-1
2.59094E-1,-2.30194E-1
1.93634E-1,-2.72079E-1
1.4888E-1,-2.98294E-1
1.68960E-1,-3.43689E-1
1.66244E-1,-3.55743E-1
1.58828E-1,-3.20724E-1
1.07696E-1,-3.16619E-1
0.12741E-1,-3.21029E-1
-0.31646E-1,-3.51364E-1
-0.55343E-1,-3.94744E-1
-0.46463E-1,-3.80706E-1
-0.39291E-1,-3.53897E-1
-1.14425E-1,-3.07754E-1
-1.79252E-1,-2.48672E-1
-2.24288E-1,-2.76077E-1
-2.40875E-1,-2.91366E-1
-2.00393E-1,-2.92099E-1
-2.08084E-1,-2.63595E-1
-2.56591E-1,-1.60736E-1
-2.93212E-1,-1.15188E-1
-3.47045E-1,-1.16912E-1
END
BEGIN
-8.98437E-1,0.41442E-1
-8.33923E-1,1.36261E-1
-8.36120E-1,1.78772E-1
-8.28308E-1,3.03497E-1
-7.69256E-1,3.75335E-1
-7.3349E-1,4.73144E-1
-6.14593E-1,5.35705E-1
-5.67199E-1,5.16204E-1
-5.60821E-1,5.73364E-1
-5.03204E-1,6.21704E-1
-4.72564E-1,6.78558E-1
-3.66729E-1,7.35290E-1
-3.10607E-1,7.04254E-1
-3.13385E-1,7.62115E-1
-2.08770E-1,8.27758E-1
-1.40502E-1,8.38928E-1
-0.31127E-1,8.80981E-1
0.68450E-1,8.18237E-1
0.71716E-1,8.13629E-1
1.63482E-1,8.57635E-1
2.43194E-1,8.35907E-1
3.39294E-1,8.60565E-1
4.75860E-1,7.80120E-1
4.96307E-1,7.13348E-1
5.85784E-1,7.05719E-1
6.63299E-1,6.05529E-1
7.08190E-1,5.63110E-1
8.05603E-1,4.42718E-1
7.55035E-1,3.14849E-1
7.40112E-1,3.08258E-1
7.70904E-1,2.49176E-1
7.69073E-1,2.18139E-1
8.39386E-1,1.66839E-1
8.22448E-1,0.51452E-1
8.03070E-1,0.47027E-1
8.77777E-1,0.03112E-1
9.06646E-1,-0.91369E-1
9.64508E-1,-2.03887E-1
9.03595E-1,-4.02648E-1
7.76947E-1,-4.33837E-1
7.84576E-1,-4.75250E-1
7.18933E-1,-5.73822E-1
6.74163E-1,-6.11846E-1
6.15051E-1,-7.23999E-1
4.8172E-1,-7.32635E-1
4.79095E-1,-7.25860E-1
4.24987E-1,-8.17596E-1
3.42498E-1,-8.35754E-1
2.92419E-1,-9.15405E-1
1.09985E-1,-9.5578E-1
0.26855E-1,-8.73962E-1
-0.18951E-1,-8.77380E-1
-0.9729E-1,-8.46740E-1
-1.21795E-1,-8.40637E-1
-2.18627E-1,-8.58459E-1
-2.91564E-1,-7.95532E-1
-3.23486E-1,-7.87933E-1
-3.99475E-1,-7.68005E-1
-4.40368E-1,-7.51800E-1
-5.52642E-1,-7.62329E-1
-6.65161E-1,-6.41449E-1
-6.72912E-1,-5.57952E-1
-7.18627E-1,-4.96643E-1
-7.14141E-1,-4.17846E-1
-7.36785E-1,-4.16564E-1
-8.13537E-1,-3.39294E-1
-7.9953E-1,-2.56561E-1
-8.26171E-1,-2.30804E-1
-8.62426E-1,-1.56646E-1
-8.89251E-1,-1.04309E-1
-9.50500E-1,0.04730E-1
-9.05242E-1,1.39892E-1
-8.71154E-1,1.98120E-1
-8.36334E-1,2.90771E-1
-7.72216E-1,3.31024E-1
-7.63275E-1,3.70208E-1
-7.19818E-1,4.33624E-1
-6.93908E-1,4.56329E-1
-6.81854E-1,5.20843E-1
-6.34033E-1,5.69122E-1
-6.24755E-1,6.17126E-1
-5.85815E-1,7.09777E-1
-5.12085E-1,7.71362E-1
-4.31640E-1,8.37554E-1
-3.15429E-1,8.50891E-1
-2.75054E-1,8.46893E-1
-2.09594E-1,9.05578E-1
-1.06201E-1,9.04266E-1
-0.58288E-1,9.05181E-1
0.22216E-1,9.16107E-1
0.75866E-1,9.05395E-1
1.46575E-1,9.49859E-1
2.85186E-1,9.45678E-1
3.74298E-1,8.90411E-1
4.58404E-1,8.46038E-1
5.16479E-1,7.68432E-1
5.55145E-1,7.32940E-1
6.26464E-1,6.77948E-1
6.54846E-1,6.138E-1
6.96106E-1,5.88043E-1
7.52685E-1,5.37445E-1
7.91259E-1,4.93621E-1
8.61938E-1,4.43298E-1
9.13879E-1,3.52661E-1
9.53247E-1,2.72613E-1
1.0047E0,1.66992E-1
9.92218E-1,0.41046E-1
9.71435E-1,-0.37200E-1
9.61975E-1,-1.23657E-1
9.32983E-1,-2.10449E-1
9.05853E-1,-2.90863E-1
8.56689E-1,-3.69934E-1
8.16375E-1,-4.11224E-1
8.00537E-1,-4.67529E-1
7.66204E-1,-5.44647E-1
7.09991E-1,-6.13922E-1
6.47949E-1,-6.80511E-1
5.74859E-1,-7.28637E-1
5.11993E-1,-7.69073E-1
4.37652E-1,-8.16864E-1
3.49853E-1,-8.30474E-1
2.81860E-1,-8.33129E-1
2.15576E-1,-8.46069E-1
1.48468E-1,-8.51104E-1
0.84747E-1,-8.56536E-1
0.14831E-1,-8.58093E-1
-0.44555E-1,-8.36700E-1
-0.84350E-1,-8.36120E-1
-1.56524E-1,-8.43597E-1
-2.35900E-1,-8.31298E-1
-3.20098E-1,-8.03497E-1
-3.82629E-1,-7.49115E-1
-4.09576E-1,-7.14569E-1
-4.57580E-1,-6.94213E-1
-5.17059E-1,-6.54724E-1
-5.65216E-1,-6.09375E-1
-6.09771E-1,-5.54901E-1
-6.28906E-1,-5.03906E-1
-6.62078E-1,-4.84649E-1
-7.17407E-1,-4.36767E-1
-7.51068E-1,-3.79150E-1
-7.95776E-1,-3.14697E-1
-8.15033E-1,-2.30590E-1
-8.16833E-1,-1.7453E-1
-8.34045E-1,-1.15631E-1
-8.39386E-1,-0.45929E-1
-8.41156E-1,0.24505E-1
-8.27514E-1,0.97259E-1
-7.93579E-1,1.54602E-1
-7.88635E-1,1.76391E-1
-8.02642E-1,2.39410E-1
-7.94067E-1,3.06549E-1
-7.79235E-1,3.87176E-1
-7.25860E-1,4.62951E-1
-6.79687E-1,4.90875E-1
-6.71661E-1,5.43365E-1
-6.22283E-1,6.16272E-1
-5.63415E-1,6.62628E-1
-5.12298E-1,7.07153E-1
-4.49035E-1,7.32940E-1
-4.21356E-1,7.63397E-1
-3.66088E-1,8.33740E-1
-2.87597E-1,8.63464E-1
-2.14782E-1,9.01275E-1
-1.15356E-1,9.19860E-1
-0.45806E-1,9.17175E-1
0.28533E-1,9.34509E-1
1.27319E-1,9.25140E-1
2.02423E-1,8.97064E-1
2.74963E-1,8.69049E-1
3.40881E-1,8.29315E-1
3.78418E-1,8.03649E-1
4.59808E-1,7.92572E-1
5.19287E-1,7.49054E-1
5.84350E-1,7.11944E-1
6.46575E-1,6.42852E-1
6.77948E-1,5.88134E-1
7.40020E-1,5.44555E-1
7.80059E-1,4.62921E-1
8.11004E-1,4.09027E-1
8.48236E-1,3.35815E-1
8.58581E-1,2.63610E-1
8.80127E-1,2.07916E-1
8.97460E-1,1.10656E-1
8.87725E-1,0.54565E-1
9.10614E-1,-0.18615E-1
8.88549E-1,-0.97198E-1
8.90747E-1,-1.51947E-1
8.76007E-1,-2.48535E-1
8.14666E-1,-2.98187E-1
8.11248E-1,-3.46008E-1
7.78076E-1,-4.18670E-1
7.68585E-1,-4.69848E-1
7.36236E-1,-5.67749E-1
6.45996E-1,-6.31774E-1
6.02630E-1,-6.47583E-1
5.44586E-1,-7.07763E-1
4.90234E-1,-7.15026E-1
4.65484E-1,-7.92938E-1
3.38470E-1,-8.52691E-1
2.66479E-1,-8.09112E-1
END
BEGIN
-8.04138E-1,0.55725E-1
-8.28186E-1,1.21276E-1
-7.64068E-1,2.40661E-1
-7.14843E-1,2.21954E-1
-7.86346E-1,2.85858E-1
-7.33642E-1,4.13116E-1
-7.05535E-1,4.61303E-1
-6.47949E-1,5.80871E-1
-5.44464E-1,5.80322E-1
-5.79284E-1,6.01654E-1
-5.24871E-1,7.35473E-1
-4.24957E-1,7.74688E-1
-3.34777E-1,8.43475E-1
-1.99340E-1,8.25531E-1
-1.92321E-1,8.02246E-1
-1.25915E-1,8.90991E-1
-0.07293E-1,8.87390E-1
0.74981E-1,9.06036E-1
2.27569E-1,8.56597E-1
2.39654E-1,7.53997E-1
2.52777E-1,7.93640E-1
3.66333E-1,7.80975E-1
4.15893E-1,7.51464E-1
5.33660E-1,7.27722E-1
5.79559E-1,6.05773E-1
5.67657E-1,5.94940E-1
6.62323E-1,5.78277E-1
7.14050E-1,5.05706E-1
7.99224E-1,4.56298E-1
8.49456E-1,3.00354E-1
7.89672E-1,2.33856E-1
8.27331E-1,2.21069E-1
8.60534E-1,1.49139E-1
9.15527E-1,0.92742E-1
9.47753E-1,-0.82672E-1
8.25073E-1,-1.77063E-1
8.11431E-1,-1.64947E-1
8.36883E-1,-2.36145E-1
8.48938E-1,-3.02734E-1
8.58673E-1,-4.58740E-1
6.97784E-1,-5.66833E-1
6.26464E-1,-5.23529E-1
6.30279E-1,-5.61401E-1
6.04370E-1,-6.08306E-1
6.07482E-1,-7.15728E-1
4.51355E-1,-8.42407E-1
3.31634E-1,-7.80639E-1
3.24157E-1,-7.86163E-1
2.66723E-1,-8.16955E-1
2.46917E-1,-8.65692E-1
1.0495E-1,-9.77783E-1
-0.66070E-1,-8.99475E-1
-0.83068E-1,-8.38287E-1
-1.34216E-1,-8.37982E-1
-1.58660E-1,-8.26080E-1
-2.37640E-1,-8.98254E-1
-4.18945E-1,-8.36669E-1
-4.42138E-1,-7.19940E-1
-4.66644E-1,-6.98516E-1
-4.96063E-1,-6.60553E-1
-5.37139E-1,-6.93206E-1
-7.01538E-1,-6.47186E-1
-7.30255E-1,-4.89654E-1
-7.12860E-1,-4.39147E-1
-7.30163E-1,-3.83758E-1
-7.29583E-1,-3.80065E-1
-8.49365E-1,-3.68530E-1
-9.12017E-1,-1.96441E-1
-8.53332E-1,-1.16027E-1
-8.57269E-1,-0.72814E-1
-8.49060E-1,-0.29113E-1
-9.12170E-1,-0.03265E-1
-9.70336E-1,1.64032E-1
-8.76434E-1,2.85339E-1
-8.36669E-1,3.20770E-1
-7.98248E-1,3.85253E-1
-7.76214E-1,4.06921E-1
-8.02124E-1,5.04852E-1
-7.11822E-1,6.29089E-1
-6.22253E-1,6.59271E-1
-5.60882E-1,6.90734E-1
-5.17334E-1,6.97662E-1
-5.16357E-1,7.56835E-1
-4.20440E-1,8.55743E-1
-3.15094E-1,8.61206E-1
-2.42126E-1,8.84460E-1
-1.47644E-1,8.70636E-1
-1.28997E-1,8.55499E-1
-0.81451E-1,9.24285E-1
0.40039E-1,9.375E-1
1.19537E-1,9.17633E-1
2.13745E-1,8.95538E-1
2.57263E-1,8.46344E-1
2.93426E-1,8.68164E-1
4.07043E-1,8.72070E-1
4.97009E-1,8.22326E-1
5.90789E-1,7.60101E-1
6.26129E-1,6.58508E-1
6.28814E-1,6.37603E-1
7.18933E-1,6.21398E-1
7.91259E-1,5.33813E-1
8.41857E-1,4.55505E-1
8.71734E-1,3.42529E-1
8.47473E-1,2.81890E-1
8.88366E-1,2.55676E-1
9.33563E-1,1.66290E-1
9.44610E-1,0.85693E-1
9.60601E-1,-0.27984E-1
8.99719E-1,-1.19537E-1
8.82476E-1,-1.45324E-1
9.06524E-1,-2.26776E-1
8.84460E-1,-3.15673E-1
8.60534E-1,-4.11712E-1
7.65106E-1,-4.97619E-1
7.00531E-1,-4.99481E-1
6.97876E-1,-5.42419E-1
6.59210E-1,-6.21643E-1
6.05072E-1,-6.95282E-1
5.04974E-1,-7.53509E-1
4.25567E-1,-7.39105E-1
4.02740E-1,-7.40051E-1
3.66577E-1,-7.92327E-1
2.92205E-1,-8.39660E-1
1.93908E-1,-8.77655E-1
0.93139E-1,-8.53546E-1
0.58166E-1,-8.23181E-1
0.32257E-1,-8.41247E-1
-0.41473E-1,-8.69689E-1
-1.37908E-1,-8.71215E-1
-2.38372E-1,-8.23394E-1
-2.73315E-1,-7.69439E-1
-2.90741E-1,-7.59491E-1
-3.47808E-1,-7.75299E-1
-4.36462E-1,-7.50305E-1
-5.08819E-1,-6.89483E-1
-5.47363E-1,-6.27563E-1
-5.72509E-1,-5.81634E-1
-6.03607E-1,-5.66589E-1
-6.70410E-1,-5.33935E-1
-7.20306E-1,-4.65667E-1
-7.49725E-1,-3.92120E-1
-7.66876E-1,-3.25378E-1
-7.73681E-1,-2.81646E-1
-8.13720E-1,-2.49633E-1
-8.49731E-1,-1.74896E-1
-8.57421E-1,-0.98754E-1
-8.58429E-1,-0.25024E-1
-8.45916E-1,0.43273E-1
-8.63647E-1,0.89660E-1
-8.84368E-1,1.82281E-1
-8.56872E-1,2.60437E-1
-8.22723E-1,3.24371E-1
-7.79327E-1,3.86383E-1
-7.44323E-1,4.22027E-1
-7.46093E-1,4.97680E-1
-6.91894E-1,5.84289E-1
-6.43188E-1,6.33544E-1
-5.86731E-1,6.86676E-1
-5.16082E-1,7.13439E-1
-4.76409E-1,7.49481E-1
-3.95355E-1,8.18084E-1
-3.11554E-1,8.36425E-1
-2.54882E-1,8.60046E-1
-1.76178E-1,8.74847E-1
-1.23016E-1,8.58978E-1
-0.69793E-1,8.86718E-1
0.26580E-1,8.87695E-1
0.90515E-1,8.75915E-1
1.64276E-1,8.74877E-1
2.28210E-1,8.49456E-1
2.7771E-1,8.38134E-1
3.61389E-1,8.16253E-1
4.20623E-1,7.72064E-1
4.88922E-1,7.41790E-1
5.48004E-1,6.89422E-1
5.81970E-1,6.49322E-1
6.40228E-1,6.17736E-1
6.84082E-1,5.46264E-1
7.17041E-1,4.97009E-1
7.62725E-1,4.35943E-1
7.95471E-1,3.72009E-1
8.25317E-1,3.20404E-1
8.51867E-1,2.45605E-1
8.55468E-1,1.84997E-1
8.77014E-1,1.13464E-1
8.79394E-1,0.34698E-1
8.81622E-1,-0.32501E-1
8.85864E-1,-1.05072E-1
8.638E-1,-1.66992E-1
8.52813E-1,-2.23327E-1
8.27392E-1,-2.92907E-1
8.07922E-1,-3.62945E-1
7.76367E-1,-4.36431E-1
7.39685E-1,-5.03662E-1
7.00683E-1,-5.55297E-1
6.53259E-1,-5.99578E-1
6.14410E-1,-6.38244E-1
5.58532E-1,-7.06634E-1
4.80987E-1,-7.64892E-1
4.02221E-1,-7.89306E-1
3.51409E-1,-8.02887E-1
END
BEGIN
-4.27764E-1,-1.14410E-1
-4.45663E-1,-0.63720E-1
-4.56268E-1,-0.15564E-1
-4.64233E-1,0.19882E-1
-4.63653E-1,0.74157E-1
-4.45007E-1,1.24481E-1
-4.31091E-1,1.87439E-1
-4.09133E-1,2.39440E-1
-3.98391E-1,2.87567E-1
-3.75396E-1,3.29299E-1
-3.42849E-1,3.57955E-1
-3.00796E-1,3.91235E-1
-2.54180E-1,4.20898E-1
-2.11563E-1,4.59945E-1
-1.69250E-1,4.82864E-1
-1.23016E-1,4.97772E-1
-0.72265E-1,5.04852E-1
-0.13549E-1,5.05798E-1
0.40405E-1,5.10437E-1
0.95581E-1,5.04058E-1
1.40075E-1,4.96139E-1
1.81503E-1,4.74594E-1
2.26135E-1,4.47799E-1
2.79022E-1,4.04327E-1
3.21044E-1,3.61923E-1
3.61114E-1,3.33267E-1
3.93997E-1,2.84484E-1
4.14474E-1,2.35855E-1
4.34082E-1,1.64062E-1
4.41894E-1,1.08169E-1
4.62616E-1,0.54702E-1
4.72412E-1,0.01846E-1
4.65667E-1,-0.35507E-1
4.51400E-1,-0.81069E-1
4.27261E-1,-1.17477E-1
4.09942E-1,-1.7453E-1
3.81835E-1,-2.14202E-1
3.57498E-1,-2.42843E-1
3.35296E-1,-2.72659E-1
2.77862E-1,-3.04473E-1
2.31124E-1,-3.19473E-1
1.96197E-1,-3.3815E-1
1.55731E-1,-3.61908E-1
1.23214E-1,-3.7146E-1
0.70327E-1,-3.88336E-1
0.26168E-1,-3.73352E-1
-0.09872E-1,-3.68560E-1
-0.48065E-1,-3.69720E-1
-0.81375E-1,-3.51745E-1
-1.17660E-1,-3.49838E-1
-1.77398E-1,-3.01757E-1
-1.92535E-1,-2.73803E-1
-2.25021E-1,-2.71408E-1
-2.58926E-1,-2.50518E-1
-2.77206E-1,-2.33108E-1
-3.07846E-1,-1.95510E-1
-3.08548E-1,-1.55929E-1
-3.23944E-1,-1.34506E-1
-3.42559E-1,-1.02111E-1
-3.38913E-1,-0.72448E-1
-3.54385E-1,-0.46844E-1
-3.40408E-1,0.17135E-1
-3.26049E-1,0.36193E-1
-3.44360E-1,0.70266E-1
-3.40332E-1,1.13235E-1
-3.37783E-1,1.40502E-1
-3.25576E-1,1.92703E-1
-2.98934E-1,2.10937E-1
-2.92877E-1,2.33352E-1
-2.6828E-1,2.57843E-1
-2.40524E-1,2.60345E-1
-2.18002E-1,2.99148E-1
-1.46774E-1,3.20480E-1
-1.15219E-1,3.21579E-1
-0.88577E-1,3.49624E-1
-0.49301E-1,3.55361E-1
-0.14312E-1,3.62060E-1
0.45913E-1,3.59161E-1
0.85144E-1,3.48877E-1
1.17736E-1,3.57879E-1
1.50451E-1,3.54858E-1
1.66610E-1,3.35342E-1
1.92886E-1,3.13522E-1
2.26715E-1,2.71682E-1
2.54577E-1,2.42111E-1
2.95379E-1,2.12081E-1
3.08532E-1,1.77719E-1
3.23043E-1,1.62674E-1
3.44696E-1,1.12304E-1
3.47076E-1,0.64819E-1
3.6203E-1,0.28045E-1
3.67767E-1,-0.09887E-1
3.53942E-1,-0.26596E-1
3.55850E-1,-0.53344E-1
3.33160E-1,-1.05819E-1
3.07174E-1,-1.50634E-1
2.82287E-1,-1.97784E-1
2.55752E-1,-2.18444E-1
2.46124E-1,-2.44461E-1
2.03582E-1,-2.81158E-1
1.62017E-1,-3.02398E-1
1.39053E-1,-3.35327E-1
1.10916E-1,-3.63342E-1
0.99426E-1,-3.59039E-1
0.8638E-1,-3.61526E-1
0.43869E-1,-3.54766E-1
0.00518E-1,-3.57833E-1
-0.65124E-1,-3.65402E-1
-0.93872E-1,-3.42880E-1
-0.96344E-1,-3.48587E-1
-1.33514E-1,-3.39416E-1
-1.68319E-1,-3.08929E-1
-2.19299E-1,-2.89520E-1
-2.54348E-1,-2.59674E-1
-2.58163E-1,-2.61062E-1
-2.75726E-1,-2.66403E-1
-2.86682E-1,-2.40219E-1
-3.04611E-1,-2.08755E-1
-3.21624E-1,-1.51153E-1
-3.11508E-1,-1.25396E-1
-3.29666E-1,-1.29043E-1
-3.54278E-1,-1.07238E-1
-3.65844E-1,-0.75622E-1
-3.73107E-1,-0.27648E-1
-3.60641E-1,0.01098E-1
-3.73016E-1,0.06515E-1
-3.95126E-1,0.21163E-1
-4.06906E-1,0.49133E-1
-4.02191E-1,0.83160E-1
-3.72940E-1,1.10900E-1
-3.63418E-1,1.13250E-1
-3.74664E-1,1.30767E-1
-3.84704E-1,1.69830E-1
-3.71826E-1,2.13836E-1
-3.43643E-1,2.37945E-1
-3.35296E-1,2.51312E-1
-3.26126E-1,2.80822E-1
-3.23028E-1,3.07525E-1
-3.14712E-1,3.52172E-1
-2.88894E-1,3.75396E-1
-2.72460E-1,3.73794E-1
-2.55966E-1,3.83407E-1
-2.29202E-1,3.88214E-1
-2.13546E-1,4.16870E-1
-1.71737E-1,4.52331E-1
-1.37176E-1,4.54467E-1
-1.18118E-1,4.57656E-1
-0.77194E-1,4.56939E-1
-0.39367E-1,4.70428E-1
0.38040E-1,4.98748E-1
0.87036E-1,4.90722E-1
0.95413E-1,4.9263E-1
1.14425E-1,4.95407E-1
1.31942E-1,4.69833E-1
1.73736E-1,4.71328E-1
2.40097E-1,4.38842E-1
2.72064E-1,4.14535E-1
2.98477E-1,4.02374E-1
3.21121E-1,3.60137E-1
3.36990E-1,3.25439E-1
3.91677E-1,2.75634E-1
4.21356E-1,2.25860E-1
4.49005E-1,2.08938E-1
4.81124E-1,1.77993E-1
4.58160E-1,1.38351E-1
4.62585E-1,1.26815E-1
4.81079E-1,0.62789E-1
4.71252E-1,0.13702E-1
4.76928E-1,-0.20462E-1
4.38217E-1,-0.68008E-1
3.96743E-1,-0.69946E-1
3.85299E-1,-1.22009E-1
3.46023E-1,-1.85882E-1
3.26446E-1,-2.33596E-1
2.97576E-1,-2.81601E-1
2.56118E-1,-2.66601E-1
2.5914E-1,-2.69073E-1
2.07611E-1,-3.05954E-1
1.52282E-1,-3.23471E-1
1.10229E-1,-3.54126E-1
0.63903E-1,-3.39599E-1
0.74432E-1,-3.13064E-1
0.34362E-1,-3.16909E-1
-0.34423E-1,-2.90588E-1
-0.96908E-1,-2.96539E-1
-1.6922E-1,-2.87796E-1
-1.56051E-1,-2.59353E-1
-1.53274E-1,-2.77252E-1
-1.83235E-1,-2.34626E-1
-2.00889E-1,-2.09556E-1
-2.70919E-1,-1.93557E-1
-2.84957E-1,-1.42532E-1
-2.51663E-1,-1.50146E-1
-2.48519E-1,-1.24763E-1
-2.3246E-1,-0.75622E-1
-2.81967E-1,-0.31173E-1
-3.15048E-1,0.52139E-1
-2.81478E-1,0.48538E-1
-2.85949E-1,0.33035E-1
-2.50747E-1,0.50781E-1
-2.69149E-1,0.75622E-1
END
