CITIFILE A.01.01
#NA VERSION HP8510C.08.10
NAME DATA
#NA REGISTER 1
VAR FREQ MAG 201
DATA S[1,1] RI
DATA S[2,1] RI
DATA S[1,2] RI
DATA S[2,2] RI
SEG_LIST_BEGIN
SEG 8000000000 12000000000 201
SEG_LIST_END
COMMENT       YEAR MONTH DAY HOUR MINUTE SECONDS
CONSTANT TIME 2013   10   28  00    19    33.0
BEGIN
-3.83499E-1,-2.41928E-1
-4.01763E-1,-1.99615E-1
-4.20410E-1,-1.44393E-1
-4.31961E-1,-1.00936E-1
-4.44900E-1,-0.52856E-1
-4.36447E-1,-0.11489E-1
-4.29061E-1,0.28778E-1
-4.17419E-1,0.72753E-1
-4.14428E-1,1.25808E-1
-3.99108E-1,1.73126E-1
-3.77944E-1,2.05551E-1
-3.47763E-1,2.34039E-1
-3.17703E-1,2.61611E-1
-2.88467E-1,3.07205E-1
-2.49969E-1,3.41033E-1
-2.19482E-1,3.66333E-1
-1.79992E-1,3.80798E-1
-1.41983E-1,3.83789E-1
-1.04904E-1,4.04541E-1
-0.42877E-1,4.18869E-1
-0.00518E-1,4.25643E-1
0.39169E-1,4.27963E-1
0.72067E-1,4.14245E-1
1.07162E-1,4.01779E-1
1.51916E-1,3.88549E-1
1.87789E-1,3.81469E-1
2.24960E-1,3.69033E-1
2.51953E-1,3.48220E-1
2.77359E-1,3.19412E-1
3.02429E-1,2.99545E-1
3.46038E-1,2.72201E-1
3.80050E-1,2.35900E-1
3.98437E-1,2.06420E-1
4.07302E-1,1.68930E-1
4.16564E-1,1.40899E-1
4.43969E-1,0.77682E-1
4.43084E-1,0.27740E-1
4.51538E-1,-0.03006E-1
4.52377E-1,-0.35293E-1
4.37393E-1,-0.72830E-1
4.22912E-1,-1.22085E-1
3.98651E-1,-1.63696E-1
3.92532E-1,-2.06710E-1
3.80905E-1,-2.38586E-1
3.61801E-1,-2.65396E-1
3.37173E-1,-2.85827E-1
2.87612E-1,-3.15216E-1
2.56469E-1,-3.39736E-1
2.29064E-1,-3.68637E-1
2.09808E-1,-3.88000E-1
1.71402E-1,-3.91754E-1
1.35025E-1,-3.87985E-1
0.98144E-1,-3.93219E-1
0.55557E-1,-4.09622E-1
0.21331E-1,-4.17495E-1
-0.05798E-1,-4.19616E-1
-0.33935E-1,-4.10171E-1
-0.73120E-1,-3.87405E-1
-1.15264E-1,-3.74252E-1
-1.52908E-1,-3.59787E-1
-1.71325E-1,-3.58261E-1
-1.94107E-1,-3.41812E-1
-2.08007E-1,-3.05770E-1
-2.27447E-1,-2.82775E-1
-2.68417E-1,-2.57766E-1
-2.93167E-1,-2.38113E-1
-3.10134E-1,-2.24990E-1
-3.15338E-1,-2.04284E-1
-3.15811E-1,-1.61819E-1
-3.27209E-1,-1.19262E-1
-3.36669E-1,-0.82275E-1
-3.48587E-1,-0.73181E-1
-3.49609E-1,-0.55633E-1
-3.21167E-1,-0.33721E-1
-3.08532E-1,-0.14541E-1
-3.10852E-1,0.26870E-1
-3.18435E-1,0.55236E-1
-3.24935E-1,0.71258E-1
-3.20312E-1,0.79330E-1
-3.00506E-1,0.93139E-1
-2.81570E-1,1.32782E-1
-2.54074E-1,1.75125E-1
-2.48977E-1,1.94404E-1
-2.50137E-1,2.10815E-1
-2.26715E-1,2.06588E-1
-2.07557E-1,2.14538E-1
-1.65504E-1,2.46910E-1
-1.38351E-1,2.66754E-1
-1.30462E-1,2.93045E-1
-1.19415E-1,3.01361E-1
-1.06033E-1,2.9953E-1
-0.65078E-1,3.12561E-1
-0.09079E-1,3.09326E-1
0.12313E-1,3.19320E-1
0.34225E-1,3.32611E-1
0.43777E-1,3.19442E-1
0.61370E-1,3.12377E-1
1.09024E-1,2.92038E-1
1.44744E-1,2.84652E-1
1.84661E-1,2.89352E-1
2.05017E-1,2.85186E-1
2.15560E-1,2.77313E-1
2.56897E-1,2.44705E-1
2.90313E-1,1.82052E-1
3.23425E-1,1.47064E-1
3.54721E-1,1.21627E-1
3.52615E-1,0.98068E-1
3.52920E-1,0.68878E-1
3.44482E-1,0.04348E-1
3.44436E-1,-0.46783E-1
3.62014E-1,-0.96038E-1
3.59115E-1,-1.22909E-1
3.50143E-1,-1.32446E-1
3.25225E-1,-1.74484E-1
2.78533E-1,-2.29843E-1
2.48519E-1,-2.85324E-1
2.28210E-1,-3.22982E-1
2.13119E-1,-3.31420E-1
1.7836E-1,-3.37600E-1
1.14502E-1,-3.36959E-1
0.62774E-1,-3.61282E-1
0.13031E-1,-3.93310E-1
-0.08194E-1,-4.06021E-1
-0.23056E-1,-4.01458E-1
-0.62744E-1,-3.80142E-1
-1.24984E-1,-3.63342E-1
-1.99539E-1,-3.54064E-1
-2.35778E-1,-3.52966E-1
-2.51617E-1,-3.49960E-1
-2.68905E-1,-3.13766E-1
-2.93350E-1,-2.53860E-1
-3.46893E-1,-2.02026E-1
-3.89160E-1,-1.70929E-1
-4.07608E-1,-1.69754E-1
-4.11682E-1,-1.55853E-1
-4.00116E-1,-1.03027E-1
-4.07043E-1,-0.33737E-1
-4.30038E-1,0.38467E-1
-4.54788E-1,0.63476E-1
-4.64691E-1,0.72036E-1
-4.37225E-1,0.95138E-1
-3.89755E-1,1.50207E-1
-3.55392E-1,2.24258E-1
-3.47702E-1,2.78518E-1
-3.58108E-1,3.00399E-1
-3.46771E-1,3.05206E-1
-2.90741E-1,3.14376E-1
-2.24807E-1,3.45504E-1
-1.69311E-1,4.03869E-1
-1.63147E-1,4.33059E-1
-1.81121E-1,4.48852E-1
-1.56967E-1,4.41101E-1
-0.83236E-1,4.21554E-1
0.07156E-1,4.21325E-1
0.67596E-1,4.38400E-1
0.77179E-1,4.67987E-1
0.87097E-1,4.76516E-1
1.08535E-1,4.24224E-1
1.33575E-1,3.75534E-1
1.97784E-1,3.58444E-1
2.36770E-1,3.59741E-1
2.57598E-1,3.95446E-1
2.77908E-1,3.78479E-1
2.87185E-1,3.20190E-1
3.21929E-1,2.60208E-1
3.73260E-1,2.09304E-1
4.06646E-1,1.931E-1
4.26742E-1,1.83273E-1
4.09164E-1,1.39938E-1
3.77883E-1,0.91629E-1
3.86886E-1,0.27389E-1
3.89877E-1,-0.16326E-1
4.21630E-1,-0.15487E-1
4.22332E-1,-0.33126E-1
3.83926E-1,-0.53054E-1
3.58551E-1,-1.08017E-1
3.30078E-1,-1.78848E-1
3.41827E-1,-2.09350E-1
3.59497E-1,-2.39395E-1
3.27682E-1,-2.39685E-1
2.84179E-1,-2.35336E-1
2.19268E-1,-2.78228E-1
1.75506E-1,-3.06991E-1
1.94076E-1,-3.56369E-1
1.91299E-1,-3.69934E-1
1.84753E-1,-3.37829E-1
1.32690E-1,-3.36166E-1
0.38559E-1,-3.42422E-1
-0.06973E-1,-3.75656E-1
-0.32760E-1,-4.19525E-1
-0.23727E-1,-4.08172E-1
-0.17791E-1,-3.83407E-1
-0.91857E-1,-3.40606E-1
-1.59866E-1,-2.85171E-1
-2.08694E-1,-3.12759E-1
-2.25555E-1,-3.29483E-1
-1.86904E-1,-3.34213E-1
-1.97280E-1,-3.06716E-1
-2.49633E-1,-2.07191E-1
-2.91732E-1,-1.59194E-1
-3.47991E-1,-1.58645E-1
END
BEGIN
-8.70056E-1,0.48858E-1
-8.03802E-1,1.39404E-1
-8.05969E-1,1.77795E-1
-7.97912E-1,2.98217E-1
-7.39105E-1,3.67279E-1
-7.04681E-1,4.61456E-1
-5.86303E-1,5.18035E-1
-5.42205E-1,4.95208E-1
-5.39611E-1,5.49499E-1
-4.85229E-1,5.95092E-1
-4.57763E-1,6.50665E-1
-3.54522E-1,7.04895E-1
-3.05542E-1,6.72180E-1
-3.11401E-1,7.31506E-1
-2.09503E-1,7.96966E-1
-1.45874E-1,8.09570E-1
-0.37780E-1,8.52325E-1
0.55419E-1,7.89764E-1
0.56152E-1,7.90557E-1
1.47522E-1,8.36914E-1
2.25372E-1,8.17901E-1
3.22631E-1,8.43536E-1
4.54956E-1,7.63580E-1
4.74243E-1,7.01477E-1
5.64666E-1,6.95220E-1
6.40136E-1,5.97442E-1
6.85638E-1,5.57586E-1
7.80487E-1,4.38446E-1
7.30926E-1,3.17962E-1
7.19757E-1,3.13262E-1
7.52441E-1,2.55920E-1
7.54333E-1,2.25738E-1
8.25561E-1,1.72485E-1
8.08410E-1,0.5896E-1
7.92938E-1,0.54351E-1
8.67095E-1,0.07293E-1
8.94622E-1,-0.87585E-1
9.49310E-1,-2.01385E-1
8.85772E-1,-3.94897E-1
7.65350E-1,-4.23675E-1
7.70965E-1,-4.66003E-1
7.05871E-1,-5.63140E-1
6.61865E-1,-6.01043E-1
6.03027E-1,-7.10052E-1
4.72076E-1,-7.18719E-1
4.68933E-1,-7.12127E-1
4.13909E-1,-8.01788E-1
3.33648E-1,-8.18359E-1
2.84759E-1,-8.96087E-1
1.04614E-1,-9.35272E-1
0.22552E-1,-8.53790E-1
-0.21728E-1,-8.55896E-1
-0.98724E-1,-8.24737E-1
-1.21582E-1,-8.17077E-1
-2.15271E-1,-8.35296E-1
-2.86163E-1,-7.71514E-1
-3.15338E-1,-7.63916E-1
-3.88000E-1,-7.44140E-1
-4.26391E-1,-7.30011E-1
-5.37200E-1,-7.42065E-1
-6.49047E-1,-6.21643E-1
-6.52893E-1,-5.38940E-1
-6.96746E-1,-4.78179E-1
-6.87011E-1,-4.02618E-1
-7.09106E-1,-4.04632E-1
-7.84851E-1,-3.3078E-1
-7.68463E-1,-2.50183E-1
-7.94647E-1,-2.28363E-1
-8.30108E-1,-1.57318E-1
-8.59252E-1,-1.09344E-1
-9.22973E-1,0.00213E-1
-8.73840E-1,1.32690E-1
-8.40606E-1,1.86554E-1
-8.04748E-1,2.75756E-1
-7.42279E-1,3.09021E-1
-7.37518E-1,3.46099E-1
-6.96258E-1,4.05456E-1
-6.75445E-1,4.24469E-1
-6.66687E-1,4.89502E-1
-6.22253E-1,5.33721E-1
-6.20086E-1,5.82611E-1
-5.84259E-1,6.77002E-1
-5.13031E-1,7.38952E-1
-4.35058E-1,8.07495E-1
-3.19976E-1,8.17871E-1
-2.85919E-1,8.15246E-1
-2.22961E-1,8.76861E-1
-1.23687E-1,8.75701E-1
-0.78094E-1,8.80249E-1
0.01373E-1,8.93768E-1
0.51269E-1,8.84887E-1
1.21368E-1,9.33685E-1
2.60284E-1,9.31579E-1
3.47534E-1,8.78997E-1
4.31884E-1,8.37066E-1
4.88494E-1,7.61779E-1
5.27008E-1,7.31079E-1
6.00738E-1,6.78772E-1
6.30035E-1,6.15264E-1
6.72515E-1,5.92498E-1
7.30102E-1,5.43670E-1
7.69500E-1,5.00457E-1
8.40484E-1,4.5047E-1
8.93829E-1,3.62243E-1
9.34417E-1,2.84088E-1
9.86114E-1,1.79534E-1
9.76379E-1,0.55267E-1
9.56848E-1,-0.22460E-1
9.49310E-1,-1.09069E-1
9.22393E-1,-1.94366E-1
8.95355E-1,-2.74780E-1
8.47686E-1,-3.55377E-1
8.06884E-1,-3.96362E-1
7.90435E-1,-4.51538E-1
7.58667E-1,-5.27526E-1
7.03033E-1,-5.96771E-1
6.42578E-1,-6.61682E-1
5.69122E-1,-7.10510E-1
5.07385E-1,-7.49664E-1
4.33807E-1,-7.96264E-1
3.45703E-1,-8.09173E-1
2.79937E-1,-8.10150E-1
2.16735E-1,-8.21319E-1
1.51580E-1,-8.2547E-1
0.91186E-1,-8.30383E-1
0.25848E-1,-8.31420E-1
-0.31585E-1,-8.12866E-1
-0.70190E-1,-8.12805E-1
-1.38214E-1,-8.21624E-1
-2.17376E-1,-8.10882E-1
-2.96630E-1,-7.83966E-1
-3.56109E-1,-7.34497E-1
-3.84216E-1,-7.00927E-1
-4.29016E-1,-6.82556E-1
-4.87121E-1,-6.47796E-1
-5.34637E-1,-6.03698E-1
-5.76934E-1,-5.55053E-1
-6.00677E-1,-5.08117E-1
-6.33911E-1,-4.888E-1
-6.88964E-1,-4.44061E-1
-7.24487E-1,-3.89129E-1
-7.66998E-1,-3.28399E-1
-7.90557E-1,-2.49359E-1
-7.95349E-1,-1.91589E-1
-8.12133E-1,-1.35284E-1
-8.20861E-1,-0.67657E-1
-8.24188E-1,0.01953E-1
-8.14636E-1,0.69091E-1
-7.86041E-1,1.28570E-1
-7.81158E-1,1.52130E-1
-7.98187E-1,2.12799E-1
-7.90710E-1,2.81646E-1
-7.76916E-1,3.60412E-1
-7.28790E-1,4.37561E-1
-6.83410E-1,4.67895E-1
-6.73614E-1,5.19653E-1
-6.26373E-1,5.90515E-1
-5.70404E-1,6.33331E-1
-5.28869E-1,6.78039E-1
-4.67742E-1,7.13287E-1
-4.39086E-1,7.46673E-1
-3.86230E-1,8.18420E-1
-3.06427E-1,8.50280E-1
-2.34985E-1,8.89953E-1
-1.36291E-1,9.11682E-1
-0.64514E-1,9.10400E-1
0.07293E-1,9.28497E-1
1.08612E-1,9.21905E-1
1.83227E-1,8.94348E-1
2.56958E-1,8.68347E-1
3.23516E-1,8.29101E-1
3.61938E-1,8.04016E-1
4.41528E-1,7.9422E-1
5.01922E-1,7.50152E-1
5.67871E-1,7.14996E-1
6.30188E-1,6.47644E-1
6.61987E-1,5.92590E-1
7.24182E-1,5.50994E-1
7.64617E-1,4.69787E-1
7.95562E-1,4.16076E-1
8.33862E-1,3.45123E-1
8.44238E-1,2.72430E-1
8.65631E-1,2.18200E-1
8.84613E-1,1.22894E-1
8.72680E-1,0.67810E-1
8.98193E-1,-0.02899E-1
8.77563E-1,-0.82519E-1
8.79699E-1,-1.34674E-1
8.68347E-1,-2.29400E-1
8.06732E-1,-2.81127E-1
8.04565E-1,-3.25103E-1
7.73925E-1,-3.98529E-1
7.64801E-1,-4.47204E-1
7.37793E-1,-5.44738E-1
6.48529E-1,-6.11114E-1
6.05773E-1,-6.24786E-1
5.51635E-1,-6.84814E-1
4.97589E-1,-6.93725E-1
4.78088E-1,-7.71087E-1
3.51806E-1,-8.35907E-1
2.79571E-1,-7.92114E-1
END
BEGIN
-7.77374E-1,0.57708E-1
-7.97790E-1,1.19598E-1
-7.40875E-1,2.33123E-1
-6.92352E-1,2.20428E-1
-7.54211E-1,2.79724E-1
-7.06604E-1,3.97460E-1
-6.78588E-1,4.44183E-1
-6.26617E-1,5.54473E-1
-5.30212E-1,5.60272E-1
-5.57189E-1,5.81024E-1
-5.06469E-1,7.04193E-1
-4.14459E-1,7.43072E-1
-3.30383E-1,8.07952E-1
-2.04162E-1,7.96478E-1
-1.92260E-1,7.76672E-1
-1.29608E-1,8.58245E-1
-0.17822E-1,8.57879E-1
0.61126E-1,8.77136E-1
2.05810E-1,8.34014E-1
2.22717E-1,7.39685E-1
2.38464E-1,7.76580E-1
3.47259E-1,7.65075E-1
3.96911E-1,7.37518E-1
5.10284E-1,7.15850E-1
5.57434E-1,5.99273E-1
5.48278E-1,5.88073E-1
6.41601E-1,5.72784E-1
6.93512E-1,5.02655E-1
7.77282E-1,4.54498E-1
8.27728E-1,3.02734E-1
7.69683E-1,2.37609E-1
8.09234E-1,2.25067E-1
8.42742E-1,1.54785E-1
8.98559E-1,0.99853E-1
9.33319E-1,-0.75500E-1
8.10363E-1,-1.69555E-1
7.97729E-1,-1.57135E-1
8.23516E-1,-2.25891E-1
8.36273E-1,-2.91778E-1
8.50189E-1,-4.48211E-1
6.86981E-1,-5.58593E-1
6.13616E-1,-5.12817E-1
6.17858E-1,-5.48675E-1
5.92529E-1,-5.93414E-1
5.99151E-1,-6.98883E-1
4.45831E-1,-8.30200E-1
3.22265E-1,-7.66479E-1
3.14819E-1,-7.68035E-1
2.58789E-1,-7.97515E-1
2.41973E-1,-8.42193E-1
1.07208E-1,-9.56543E-1
-0.67840E-1,-8.82232E-1
-0.85540E-1,-8.17443E-1
-1.33911E-1,-8.15185E-1
-1.56646E-1,-7.99682E-1
-2.26013E-1,-8.69934E-1
-4.06158E-1,-8.18359E-1
-4.33136E-1,-7.00561E-1
-4.54437E-1,-6.76971E-1
-4.82818E-1,-6.37878E-1
-5.15716E-1,-6.67053E-1
-6.72119E-1,-6.32415E-1
-7.10388E-1,-4.78973E-1
-6.92169E-1,-4.26116E-1
-7.09075E-1,-3.71490E-1
-7.02728E-1,-3.63250E-1
-8.09997E-1,-3.60382E-1
-8.79241E-1,-2.02880E-1
-8.26080E-1,-1.19476E-1
-8.29040E-1,-0.76232E-1
-8.18817E-1,-0.3125E-1
-8.72741E-1,-0.11627E-1
-9.36889E-1,1.39068E-1
-8.55316E-1,2.60681E-1
-8.16314E-1,2.98889E-1
-7.79785E-1,3.63555E-1
-7.54272E-1,3.84979E-1
-7.80975E-1,4.72229E-1
-7.02117E-1,5.94512E-1
-6.17370E-1,6.27868E-1
-5.58807E-1,6.62750E-1
-5.13031E-1,6.71752E-1
-5.11810E-1,7.24395E-1
-4.25140E-1,8.21289E-1
-3.23577E-1,8.31420E-1
-2.53631E-1,8.56292E-1
-1.61590E-1,8.47717E-1
-1.39587E-1,8.33160E-1
-0.95001E-1,8.97735E-1
0.20752E-1,9.12597E-1
0.97351E-1,8.96881E-1
1.89544E-1,8.78662E-1
2.34375E-1,8.32977E-1
2.70813E-1,8.54705E-1
3.81317E-1,8.60382E-1
4.69635E-1,8.14422E-1
5.62286E-1,7.57385E-1
6.00311E-1,6.60064E-1
6.05560E-1,6.38855E-1
6.95770E-1,6.23565E-1
7.68005E-1,5.38024E-1
8.19061E-1,4.62036E-1
8.50585E-1,3.51715E-1
8.28094E-1,2.92388E-1
8.70147E-1,2.67150E-1
9.16473E-1,1.78100E-1
9.30114E-1,0.98754E-1
9.46594E-1,-0.15625E-1
8.85131E-1,-1.08154E-1
8.68774E-1,-1.31530E-1
8.94989E-1,-2.12005E-1
8.74877E-1,-3.01605E-1
8.52478E-1,-3.98437E-1
7.54669E-1,-4.85412E-1
6.88995E-1,-4.84375E-1
6.88079E-1,-5.23864E-1
6.51214E-1,-6.03241E-1
5.99090E-1,-6.76605E-1
4.98779E-1,-7.35595E-1
4.16961E-1,-7.19299E-1
3.96423E-1,-7.15271E-1
3.64471E-1,-7.65655E-1
2.93579E-1,-8.13385E-1
1.99218E-1,-8.52600E-1
0.97198E-1,-8.29986E-1
0.63629E-1,-7.95867E-1
0.42083E-1,-8.12683E-1
-0.27008E-1,-8.41583E-1
-1.16699E-1,-8.47259E-1
-2.18353E-1,-8.05786E-1
-2.55920E-1,-7.49389E-1
-2.67791E-1,-7.38159E-1
-3.20098E-1,-7.55981E-1
-4.03442E-1,-7.35687E-1
-4.76562E-1,-6.82800E-1
-5.19104E-1,-6.22467E-1
-5.42144E-1,-5.76324E-1
-5.70312E-1,-5.64605E-1
-6.34857E-1,-5.36224E-1
-6.85516E-1,-4.75006E-1
-7.20855E-1,-4.07287E-1
-7.40875E-1,-3.39141E-1
-7.4823E-1,-2.96478E-1
-7.87475E-1,-2.66754E-1
-8.24829E-1,-1.96899E-1
-8.36822E-1,-1.25427E-1
-8.42346E-1,-0.50201E-1
-8.32855E-1,0.17364E-1
-8.51226E-1,0.63140E-1
-8.72619E-1,1.53533E-1
-8.50677E-1,2.28881E-1
-8.22296E-1,2.95043E-1
-7.80700E-1,3.60229E-1
-7.46734E-1,3.97491E-1
-7.48199E-1,4.72900E-1
-6.94793E-1,5.57556E-1
-6.48284E-1,6.05163E-1
-5.96496E-1,6.55426E-1
-5.35339E-1,6.86309E-1
-4.98046E-1,7.29156E-1
-4.16198E-1,8.02063E-1
-3.33709E-1,8.22570E-1
-2.76611E-1,8.49823E-1
-1.95465E-1,8.66973E-1
-1.41998E-1,8.53363E-1
-0.88378E-1,8.80828E-1
0.08941E-1,8.83300E-1
0.73120E-1,8.73046E-1
1.48620E-1,8.72955E-1
2.11975E-1,8.47412E-1
2.61871E-1,8.36761E-1
3.45886E-1,8.14788E-1
4.05426E-1,7.71484E-1
4.73480E-1,7.42370E-1
5.32684E-1,6.89239E-1
5.66589E-1,6.50207E-1
6.24145E-1,6.19354E-1
6.68273E-1,5.48767E-1
7.01293E-1,5.00305E-1
7.46154E-1,4.39819E-1
7.78076E-1,3.78479E-1
8.08319E-1,3.27667E-1
8.35449E-1,2.54150E-1
8.38256E-1,1.94213E-1
8.60290E-1,1.25274E-1
8.61633E-1,0.48736E-1
8.67004E-1,-0.16540E-1
8.72375E-1,-0.88256E-1
8.50128E-1,-1.49353E-1
8.40942E-1,-2.03796E-1
8.15490E-1,-2.72308E-1
7.98858E-1,-3.37066E-1
7.71942E-1,-4.11346E-1
7.37457E-1,-4.79400E-1
7.00225E-1,-5.28564E-1
6.54357E-1,-5.74554E-1
6.15875E-1,-6.07543E-1
5.70190E-1,-6.77948E-1
4.93743E-1,-7.41394E-1
4.16107E-1,-7.67364E-1
3.65112E-1,-7.82348E-1
END
BEGIN
-4.45022E-1,-1.20651E-1
-4.64859E-1,-0.67230E-1
-4.76486E-1,-0.15274E-1
-4.85015E-1,0.23284E-1
-4.84588E-1,0.82046E-1
-4.65133E-1,1.36581E-1
-4.48822E-1,2.02865E-1
-4.24453E-1,2.58056E-1
-4.1008E-1,3.08609E-1
-3.83361E-1,3.52020E-1
-3.46725E-1,3.82507E-1
-3.00491E-1,4.16336E-1
-2.49069E-1,4.46289E-1
-2.02026E-1,4.84588E-1
-1.55242E-1,5.05798E-1
-1.05651E-1,5.18219E-1
-0.51849E-1,5.22064E-1
0.09674E-1,5.19226E-1
0.66436E-1,5.19348E-1
1.23077E-1,5.08697E-1
1.67251E-1,4.96734E-1
2.08633E-1,4.71283E-1
2.52044E-1,4.39910E-1
3.03100E-1,3.92578E-1
3.42697E-1,3.46771E-1
3.79135E-1,3.15612E-1
4.08309E-1,2.65609E-1
4.24636E-1,2.15545E-1
4.40399E-1,1.44302E-1
4.44549E-1,0.88256E-1
4.60601E-1,0.35354E-1
4.66827E-1,-0.15396E-1
4.57412E-1,-0.51055E-1
4.41574E-1,-0.94009E-1
4.16351E-1,-1.28952E-1
3.97277E-1,-1.82891E-1
3.69766E-1,-2.20138E-1
3.46237E-1,-2.46337E-1
3.24386E-1,-2.74169E-1
2.68936E-1,-3.03878E-1
2.23739E-1,-3.17703E-1
1.90658E-1,-3.34960E-1
1.52526E-1,-3.58535E-1
1.21887E-1,-3.68316E-1
0.71563E-1,-3.85665E-1
0.28656E-1,-3.72345E-1
-0.05889E-1,-3.68606E-1
-0.43609E-1,-3.72070E-1
-0.77056E-1,-3.57147E-1
-1.13281E-1,-3.57040E-1
-1.73034E-1,-3.12820E-1
-1.90139E-1,-2.86575E-1
-2.24609E-1,-2.8508E-1
-2.60742E-1,-2.65472E-1
-2.82089E-1,-2.48428E-1
-3.15338E-1,-2.11425E-1
-3.20526E-1,-1.71844E-1
-3.38653E-1,-1.48849E-1
-3.60519E-1,-1.14669E-1
-3.60092E-1,-0.8255E-1
-3.78616E-1,-0.54046E-1
-3.68927E-1,0.12710E-1
-3.55636E-1,0.3862E-1
-3.72863E-1,0.75820E-1
-3.68438E-1,1.23153E-1
-3.64135E-1,1.54937E-1
-3.50936E-1,2.10205E-1
-3.21487E-1,2.34252E-1
-3.10668E-1,2.59887E-1
-2.83493E-1,2.87933E-1
-2.51388E-1,2.94281E-1
-2.23815E-1,3.34655E-1
-1.48040E-1,3.57772E-1
-1.10687E-1,3.58856E-1
-0.79666E-1,3.85925E-1
-0.34042E-1,3.90029E-1
0.06729E-1,3.93188E-1
0.70953E-1,3.86535E-1
1.14196E-1,3.72375E-1
1.47903E-1,3.76083E-1
1.83425E-1,3.68789E-1
2.01934E-1,3.42544E-1
2.27966E-1,3.15338E-1
2.62344E-1,2.68661E-1
2.88772E-1,2.33535E-1
3.26614E-1,1.99981E-1
3.37310E-1,1.60995E-1
3.46847E-1,1.41632E-1
3.64364E-1,0.89401E-1
3.62976E-1,0.38528E-1
3.72497E-1,0.02090E-1
3.75030E-1,-0.35659E-1
3.56964E-1,-0.52352E-1
3.54629E-1,-0.78018E-1
3.29132E-1,-1.28036E-1
3.00918E-1,-1.70471E-1
2.74627E-1,-2.15530E-1
2.44651E-1,-2.32948E-1
2.34100E-1,-2.53677E-1
1.92764E-1,-2.87139E-1
1.51977E-1,-3.05221E-1
1.31057E-1,-3.35800E-1
1.04019E-1,-3.61999E-1
0.93246E-1,-3.56185E-1
0.81832E-1,-3.57803E-1
0.41641E-1,-3.5112E-1
0.00839E-1,-3.54507E-1
-0.61935E-1,-3.63937E-1
-0.89675E-1,-3.43734E-1
-0.91186E-1,-3.50128E-1
-1.26693E-1,-3.43551E-1
-1.61544E-1,-3.16253E-1
-2.12066E-1,-2.99575E-1
-2.48535E-1,-2.72918E-1
-2.54501E-1,-2.75344E-1
-2.72872E-1,-2.82058E-1
-2.86407E-1,-2.58575E-1
-3.07708E-1,-2.28195E-1
-3.29162E-1,-1.72439E-1
-3.23822E-1,-1.45355E-1
-3.44070E-1,-1.48254E-1
-3.72009E-1,-1.26419E-1
-3.86184E-1,-0.92514E-1
-3.96804E-1,-0.43716E-1
-3.88488E-1,-0.10818E-1
-4.01382E-1,-0.00534E-1
-4.24224E-1,0.17150E-1
-4.36874E-1,0.49850E-1
-4.32098E-1,0.85739E-1
-4.04510E-1,1.19567E-1
-3.92608E-1,1.27975E-1
-4.00558E-1,1.48483E-1
-4.08813E-1,1.90368E-1
-3.92486E-1,2.37442E-1
-3.62884E-1,2.64175E-1
-3.49517E-1,2.80502E-1
-3.35128E-1,3.10592E-1
-3.27972E-1,3.37204E-1
-3.15704E-1,3.81927E-1
-2.86224E-1,4.03747E-1
-2.65243E-1,4.04068E-1
-2.43408E-1,4.11727E-1
-2.13180E-1,4.14382E-1
-1.94824E-1,4.40033E-1
-1.50634E-1,4.72610E-1
-1.14624E-1,4.72213E-1
-0.92666E-1,4.71969E-1
-0.51406E-1,4.67071E-1
-0.13046E-1,4.76501E-1
0.62530E-1,5.01098E-1
1.09787E-1,4.89944E-1
1.18087E-1,4.89273E-1
1.35299E-1,4.88037E-1
1.51535E-1,4.61303E-1
1.92413E-1,4.60708E-1
2.56591E-1,4.26925E-1
2.88024E-1,4.01870E-1
3.13858E-1,3.83483E-1
3.28796E-1,3.40087E-1
3.41369E-1,3.07495E-1
3.92135E-1,2.57339E-1
4.17861E-1,2.09915E-1
4.43359E-1,1.94732E-1
4.72946E-1,1.65771E-1
4.50546E-1,1.28311E-1
4.52972E-1,1.17874E-1
4.71038E-1,0.56350E-1
4.62783E-1,0.09109E-1
4.69177E-1,-0.23788E-1
4.32769E-1,-0.70663E-1
3.91861E-1,-0.73074E-1
3.82186E-1,-1.23474E-1
3.45397E-1,-1.86035E-1
3.27560E-1,-2.34375E-1
3.00277E-1,-2.83096E-1
2.59201E-1,-2.69973E-1
2.62023E-1,-2.72171E-1
2.10739E-1,-3.10455E-1
1.56646E-1,-3.30047E-1
1.14303E-1,-3.62884E-1
0.66619E-1,-3.51532E-1
0.74951E-1,-3.25561E-1
0.33554E-1,-3.30154E-1
-0.36377E-1,-3.06106E-1
-1.00616E-1,-3.13003E-1
-1.74728E-1,-3.05542E-1
-1.66061E-1,-2.76458E-1
-1.65267E-1,-2.92770E-1
-1.97494E-1,-2.49916E-1
-2.17674E-1,-2.23243E-1
-2.89794E-1,-2.05230E-1
-3.08303E-1,-1.52526E-1
-2.77221E-1,-1.56127E-1
-2.75848E-1,-1.27395E-1
-2.61398E-1,-0.75210E-1
-3.10943E-1,-0.27923E-1
-3.44558E-1,0.57464E-1
-3.10012E-1,0.58349E-1
-3.13308E-1,0.46951E-1
-2.74765E-1,0.67321E-1
-2.91839E-1,0.94696E-1
END
