CITIFILE A.01.01
#NA VERSION HP8510C.08.10
NAME DATA
#NA REGISTER 1
VAR FREQ MAG 201
DATA S[1,1] RI
DATA S[2,1] RI
DATA S[1,2] RI
DATA S[2,2] RI
SEG_LIST_BEGIN
SEG 8000000000 12000000000 201
SEG_LIST_END
COMMENT       YEAR MONTH DAY HOUR MINUTE SECONDS
CONSTANT TIME 2013   10   28  00    12    10.0
BEGIN
-4.26605E-1,-2.38266E-1
-4.45785E-1,-1.93557E-1
-4.64386E-1,-1.35116E-1
-4.76776E-1,-0.88928E-1
-4.88678E-1,-0.36697E-1
-4.78561E-1,0.07644E-1
-4.69619E-1,0.50842E-1
-4.56222E-1,0.96633E-1
-4.51126E-1,1.53701E-1
-4.32632E-1,2.04101E-1
-4.08340E-1,2.37106E-1
-3.74847E-1,2.67028E-1
-3.42178E-1,2.93731E-1
-3.09112E-1,3.42620E-1
-2.66418E-1,3.76236E-1
-2.32605E-1,4.00253E-1
-1.90475E-1,4.13513E-1
-1.49231E-1,4.13894E-1
-1.09207E-1,4.34570E-1
-0.44311E-1,4.46258E-1
0.00930E-1,4.50119E-1
0.41564E-1,4.49066E-1
0.75241E-1,4.31839E-1
1.11068E-1,4.16992E-1
1.55181E-1,4.00283E-1
1.91101E-1,3.90045E-1
2.27767E-1,3.75320E-1
2.53692E-1,3.52676E-1
2.77679E-1,3.20816E-1
3.01605E-1,2.99087E-1
3.44162E-1,2.70721E-1
3.76785E-1,2.32482E-1
3.93585E-1,2.01660E-1
3.99124E-1,1.62841E-1
4.07028E-1,1.33499E-1
4.32174E-1,0.69992E-1
4.30023E-1,0.20477E-1
4.35775E-1,-0.11108E-1
4.34463E-1,-0.42968E-1
4.17190E-1,-0.79956E-1
4.01260E-1,-1.29333E-1
3.75289E-1,-1.69998E-1
3.68606E-1,-2.11517E-1
3.56094E-1,-2.42904E-1
3.34686E-1,-2.68936E-1
3.08563E-1,-2.88162E-1
2.57568E-1,-3.16909E-1
2.2612E-1,-3.39386E-1
1.98761E-1,-3.68164E-1
1.77780E-1,-3.86703E-1
1.38671E-1,-3.87725E-1
1.01196E-1,-3.83728E-1
0.63583E-1,-3.86962E-1
0.21652E-1,-4.03015E-1
-0.13397E-1,-4.10324E-1
-0.42053E-1,-4.09805E-1
-0.70205E-1,-3.99276E-1
-1.11221E-1,-3.74389E-1
-1.52359E-1,-3.59191E-1
-1.89315E-1,-3.43170E-1
-2.08129E-1,-3.40499E-1
-2.30651E-1,-3.21289E-1
-2.44140E-1,-2.83279E-1
-2.63183E-1,-2.58026E-1
-3.03756E-1,-2.32421E-1
-3.26934E-1,-2.10647E-1
-3.42330E-1,-1.95159E-1
-3.47137E-1,-1.73461E-1
-3.46069E-1,-1.27456E-1
-3.54888E-1,-0.83557E-1
-3.62167E-1,-0.45379E-1
-3.72253E-1,-0.35171E-1
-3.69216E-1,-0.16601E-1
-3.37204E-1,0.04516E-1
-3.23028E-1,0.22689E-1
-3.24340E-1,0.64163E-1
-3.29528E-1,0.93612E-1
-3.33053E-1,1.08184E-1
-3.27774E-1,1.15478E-1
-3.05938E-1,1.28326E-1
-2.84256E-1,1.68472E-1
-2.53143E-1,2.09350E-1
-2.47421E-1,2.25853E-1
-2.46856E-1,2.41272E-1
-2.21763E-1,2.34214E-1
-2.03002E-1,2.41188E-1
-1.58752E-1,2.71545E-1
-1.31744E-1,2.87979E-1
-1.22894E-1,3.12271E-1
-1.11267E-1,3.18313E-1
-0.98022E-1,3.15200E-1
-0.56320E-1,3.26034E-1
-0.01022E-1,3.18374E-1
0.19012E-1,3.26202E-1
0.3862E-1,3.37387E-1
0.46829E-1,3.22158E-1
0.62118E-1,3.13385E-1
1.07727E-1,2.92266E-1
1.41922E-1,2.84606E-1
1.80114E-1,2.88955E-1
1.99249E-1,2.83508E-1
2.07672E-1,2.74826E-1
2.47871E-1,2.41233E-1
2.78732E-1,1.76666E-1
3.09097E-1,1.43569E-1
3.38089E-1,1.17752E-1
3.32855E-1,0.94131E-1
3.31176E-1,0.66818E-1
3.20098E-1,0.02731E-1
3.17642E-1,-0.46615E-1
3.33892E-1,-0.93643E-1
3.29986E-1,-1.19506E-1
3.20282E-1,-1.26831E-1
2.94097E-1,-1.67038E-1
2.44926E-1,-2.21244E-1
2.14935E-1,-2.73330E-1
1.93618E-1,-3.10821E-1
1.77612E-1,-3.16268E-1
1.43142E-1,-3.19900E-1
0.78537E-1,-3.18038E-1
0.26596E-1,-3.38638E-1
-0.22308E-1,-3.69186E-1
-0.45211E-1,-3.65066E-1
-0.58013E-1,-3.72970E-1
-0.97625E-1,-3.49929E-1
-1.60980E-1,-3.29422E-1
-2.32757E-1,-3.17413E-1
-2.68524E-1,-3.15765E-1
-2.84378E-1,-3.09356E-1
-2.99804E-1,-2.70263E-1
-3.22647E-1,-2.06497E-1
-3.72741E-1,-1.51275E-1
-4.11453E-1,-1.21139E-1
-4.30084E-1,-1.18209E-1
-4.30007E-1,-1.01684E-1
-4.14749E-1,-0.46920E-1
-4.17755E-1,0.26596E-1
-4.35852E-1,0.98129E-1
-4.60296E-1,1.21032E-1
-4.65835E-1,1.31591E-1
-4.34387E-1,1.53762E-1
-3.81301E-1,2.10174E-1
-3.38455E-1,2.83386E-1
-3.30169E-1,3.33618E-1
-3.37951E-1,3.55331E-1
-3.22189E-1,3.56155E-1
-2.63885E-1,3.62243E-1
-1.93222E-1,3.89099E-1
-1.35452E-1,4.41879E-1
-1.30188E-1,4.67697E-1
-1.47506E-1,4.82070E-1
-1.23153E-1,4.70336E-1
-0.46691E-1,4.46273E-1
0.44540E-1,4.39041E-1
1.00570E-1,4.52621E-1
1.07803E-1,4.82299E-1
1.15799E-1,4.92675E-1
1.39617E-1,4.42596E-1
1.72882E-1,3.88732E-1
2.37655E-1,3.61557E-1
2.74093E-1,3.59115E-1
2.92175E-1,3.90014E-1
3.08761E-1,3.68637E-1
3.13613E-1,3.05847E-1
3.44207E-1,2.41470E-1
3.92089E-1,1.90078E-1
4.22393E-1,1.71905E-1
4.37698E-1,1.61010E-1
4.14993E-1,1.17446E-1
3.79577E-1,0.69244E-1
3.84201E-1,0.05264E-1
3.84399E-1,-0.38208E-1
4.13147E-1,-0.35659E-1
4.10125E-1,-0.51971E-1
3.67385E-1,-0.70983E-1
3.38790E-1,-1.23809E-1
3.07846E-1,-1.93679E-1
3.15979E-1,-2.20993E-1
3.32717E-1,-2.48062E-1
2.97515E-1,-2.45849E-1
2.51861E-1,-2.37976E-1
1.85714E-1,-2.78762E-1
1.39450E-1,-3.04260E-1
1.59606E-1,-3.49060E-1
1.56509E-1,-3.61007E-1
1.48193E-1,-3.24874E-1
0.96496E-1,-3.19915E-1
0.00442E-1,-3.23822E-1
-0.44296E-1,-3.51547E-1
-0.66558E-1,-3.94897E-1
-0.58334E-1,-3.806E-1
-0.50415E-1,-3.52432E-1
-1.25610E-1,-3.05923E-1
-1.91894E-1,-2.44674E-1
-2.35809E-1,-2.70324E-1
-2.52975E-1,-2.87902E-1
-2.11898E-1,-2.87872E-1
-2.19284E-1,-2.58346E-1
-2.68173E-1,-1.52832E-1
-3.02352E-1,-1.05239E-1
-3.56369E-1,-1.08856E-1
END
BEGIN
-9.02893E-1,0.36834E-1
-8.38073E-1,1.32446E-1
-8.40148E-1,1.74957E-1
-8.33953E-1,2.99621E-1
-7.74902E-1,3.73413E-1
-7.41058E-1,4.71954E-1
-6.21582E-1,5.36407E-1
-5.71472E-1,5.17425E-1
-5.65826E-1,5.73730E-1
-5.07171E-1,6.23138E-1
-4.77203E-1,6.78649E-1
-3.71063E-1,7.38037E-1
-3.13568E-1,7.07122E-1
-3.1604E-1,7.62817E-1
-2.12371E-1,8.29559E-1
-1.43920E-1,8.40179E-1
-0.36377E-1,8.84094E-1
0.66894E-1,8.21502E-1
0.70190E-1,8.15460E-1
1.60675E-1,8.59619E-1
2.40814E-1,8.38165E-1
3.34777E-1,8.63739E-1
4.73541E-1,7.85919E-1
4.95086E-1,7.16857E-1
5.82855E-1,7.11181E-1
6.62506E-1,6.10351E-1
7.06695E-1,5.68389E-1
8.06091E-1,4.50561E-1
7.57965E-1,3.18481E-1
7.41363E-1,3.11248E-1
7.72491E-1,2.52136E-1
7.69165E-1,2.20703E-1
8.39752E-1,1.70715E-1
8.23638E-1,0.53985E-1
8.03314E-1,0.49652E-1
8.77166E-1,0.07354E-1
9.06372E-1,-0.87310E-1
9.65332E-1,-1.96563E-1
9.08844E-1,-3.96362E-1
7.81890E-1,-4.30236E-1
7.88513E-1,-4.70703E-1
7.23999E-1,-5.70892E-1
6.80145E-1,-6.08245E-1
6.22558E-1,-7.20916E-1
4.88311E-1,-7.32330E-1
4.84619E-1,-7.24395E-1
4.31823E-1,-8.16894E-1
3.48877E-1,-8.34716E-1
3.00140E-1,-9.15313E-1
1.18896E-1,-9.59228E-1
0.32928E-1,-8.77563E-1
-0.13153E-1,-8.81317E-1
-0.92956E-1,-8.50860E-1
-1.17218E-1,-8.43170E-1
-2.12432E-1,-8.64044E-1
-2.88269E-1,-8.00354E-1
-3.19824E-1,-7.92816E-1
-3.95904E-1,-7.73529E-1
-4.36889E-1,-7.56988E-1
-5.46844E-1,-7.69897E-1
-6.63940E-1,-6.50878E-1
-6.71936E-1,-5.65673E-1
-7.19451E-1,-5.05188E-1
-7.16186E-1,-4.23828E-1
-7.3703E-1,-4.21569E-1
-8.14636E-1,-3.46923E-1
-8.01544E-1,-2.62054E-1
-8.27880E-1,-2.35748E-1
-8.64715E-1,-1.61499E-1
-8.91387E-1,-1.10229E-1
-9.54406E-1,-0.03418E-1
-9.12384E-1,1.33422E-1
-8.78082E-1,1.92504E-1
-8.45214E-1,2.86499E-1
-7.78747E-1,3.30139E-1
-7.69622E-1,3.68866E-1
-7.27233E-1,4.33349E-1
-6.99676E-1,4.56512E-1
-6.87133E-1,5.20568E-1
-6.39007E-1,5.70129E-1
-6.27929E-1,6.17828E-1
-5.91918E-1,7.08953E-1
-5.17822E-1,7.72338E-1
-4.38385E-1,8.39019E-1
-3.21991E-1,8.54522E-1
-2.7948E-1,8.50524E-1
-2.15881E-1,9.08630E-1
-1.12365E-1,9.08783E-1
-0.61615E-1,9.08813E-1
0.17669E-1,9.21173E-1
0.73852E-1,9.09332E-1
1.43371E-1,9.53002E-1
2.80242E-1,9.51110E-1
3.71368E-1,8.97674E-1
4.56268E-1,8.53424E-1
5.15411E-1,7.76611E-1
5.54443E-1,7.41027E-1
6.27075E-1,6.85791E-1
6.57653E-1,6.19354E-1
6.97631E-1,5.92712E-1
7.54486E-1,5.42724E-1
7.92755E-1,4.97802E-1
8.62731E-1,4.47021E-1
9.15832E-1,3.58093E-1
9.55261E-1,2.77587E-1
1.00628E0,1.74011E-1
9.97009E-1,0.46691E-1
9.75616E-1,-0.32897E-1
9.66949E-1,-1.19812E-1
9.38781E-1,-2.06298E-1
9.11468E-1,-2.88360E-1
8.63311E-1,-3.68774E-1
8.21624E-1,-4.0979E-1
8.05511E-1,-4.66705E-1
7.72369E-1,-5.43823E-1
7.15728E-1,-6.12915E-1
6.55151E-1,-6.80358E-1
5.80627E-1,-7.30316E-1
5.18341E-1,-7.69683E-1
4.43756E-1,-8.19458E-1
3.53881E-1,-8.33190E-1
2.87353E-1,-8.35845E-1
0.73944E-1,-8.38684E-1
1.52557E-1,-8.55194E-1
0.88989E-1,-8.60168E-1
0.17974E-1,-8.61999E-1
-0.41626E-1,-8.39355E-1
-0.81115E-1,-8.39569E-1
-1.53625E-1,-8.48053E-1
-2.33947E-1,-8.36059E-1
-3.18450E-1,-8.08898E-1
-3.82080E-1,-7.53570E-1
-4.07592E-1,-7.18383E-1
-4.56146E-1,-6.99493E-1
-5.16449E-1,-6.59332E-1
-5.65216E-1,-6.14929E-1
-6.10870E-1,-5.58898E-1
-6.29028E-1,-5.07049E-1
-6.62475E-1,-4.89257E-1
-7.18261E-1,-4.41070E-1
-7.51953E-1,-3.84063E-1
-7.97454E-1,-3.20526E-1
-8.17199E-1,-2.35961E-1
-8.19549E-1,-1.78894E-1
-8.37219E-1,-1.19476E-1
-8.42651E-1,-0.49133E-1
-8.45214E-1,0.21881E-1
-8.31634E-1,0.94787E-1
-7.96844E-1,1.52984E-1
-7.91168E-1,1.74987E-1
-8.06121E-1,2.36511E-1
-7.97363E-1,3.02917E-1
-7.83721E-1,3.85131E-1
-7.29766E-1,4.62280E-1
-6.84051E-1,4.89135E-1
-6.76178E-1,5.41992E-1
-6.26892E-1,6.14105E-1
-5.69152E-1,6.62262E-1
-5.17944E-1,7.08038E-1
-4.53033E-1,7.34100E-1
-4.26757E-1,7.65014E-1
-3.69812E-1,8.34869E-1
-2.92785E-1,8.64288E-1
-2.20214E-1,9.04327E-1
-1.20605E-1,9.22058E-1
-0.50201E-1,9.20867E-1
0.23773E-1,9.38568E-1
1.23352E-1,9.28466E-1
1.98608E-1,9.01733E-1
2.72033E-1,8.74084E-1
3.39080E-1,8.33679E-1
3.77166E-1,8.08044E-1
4.57275E-1,7.97271E-1
5.18310E-1,7.5354E-1
5.83343E-1,7.17224E-1
6.45324E-1,6.47735E-1
6.77459E-1,5.93353E-1
7.40448E-1,5.49377E-1
7.79632E-1,4.68170E-1
8.12530E-1,4.13085E-1
8.48999E-1,3.39843E-1
8.59466E-1,2.68890E-1
8.81286E-1,2.12249E-1
8.99658E-1,1.16088E-1
8.90502E-1,0.60028E-1
9.13665E-1,-0.13580E-1
8.92120E-1,-0.92681E-1
8.94531E-1,-1.47766E-1
8.80737E-1,-2.44171E-1
8.19213E-1,-2.94311E-1
8.16345E-1,-3.42712E-1
7.82379E-1,-4.16717E-1
7.72308E-1,-4.67010E-1
7.41333E-1,-5.64605E-1
6.51550E-1,-6.30157E-1
6.09161E-1,-6.45996E-1
5.51544E-1,-7.07855E-1
4.95513E-1,-7.15179E-1
4.72137E-1,-7.92175E-1
3.44574E-1,-8.53332E-1
2.72277E-1,-8.09661E-1
END
BEGIN
-8.06121E-1,0.52063E-1
-8.30658E-1,1.17858E-1
-7.66326E-1,2.37396E-1
-7.18261E-1,2.17742E-1
-7.91595E-1,2.82135E-1
-7.38281E-1,4.10217E-1
-7.10357E-1,4.58679E-1
-6.53045E-1,5.78521E-1
-5.49652E-1,5.78094E-1
-5.85449E-1,5.99975E-1
-5.30609E-1,7.36877E-1
-4.30175E-1,7.76367E-1
-3.39233E-1,8.45123E-1
-2.04559E-1,8.26599E-1
-1.97204E-1,8.03039E-1
-1.31347E-1,8.93096E-1
-0.11840E-1,8.89770E-1
0.70373E-1,9.09027E-1
2.23907E-1,8.59741E-1
2.35443E-1,7.57110E-1
2.48443E-1,7.97363E-1
3.63342E-1,7.85278E-1
4.12780E-1,7.55950E-1
5.30334E-1,7.32513E-1
5.76660E-1,6.10565E-1
5.66070E-1,6.00341E-1
6.60980E-1,5.84503E-1
7.13287E-1,5.11993E-1
7.98736E-1,4.61975E-1
8.48968E-1,3.06823E-1
7.90069E-1,2.40051E-1
8.29315E-1,2.26837E-1
8.63037E-1,1.54235E-1
9.18151E-1,0.97778E-1
9.50805E-1,-0.77575E-1
8.28521E-1,-1.71722E-1
8.15490E-1,-1.60247E-1
8.41125E-1,-2.31384E-1
8.53790E-1,-2.99163E-1
8.64440E-1,-4.56115E-1
7.02850E-1,-5.62866E-1
6.32476E-1,-5.19989E-1
6.36535E-1,-5.58898E-1
6.10565E-1,-6.06231E-1
6.13830E-1,-7.15118E-1
4.57885E-1,-8.4198E-1
3.39080E-1,-7.80181E-1
3.31115E-1,-7.86926E-1
2.73864E-1,-8.18115E-1
2.52746E-1,-8.68530E-1
1.10473E-1,-9.80163E-1
-0.59906E-1,-9.01550E-1
-0.77087E-1,-8.42437E-1
-1.27838E-1,-8.41705E-1
-1.52923E-1,-8.30413E-1
-2.32879E-1,-9.03442E-1
-4.15222E-1,-8.41827E-1
-4.38324E-1,-7.25463E-1
-4.62616E-1,-7.04956E-1
-4.92492E-1,-6.67755E-1
-5.35125E-1,-7.00103E-1
-7.00622E-1,-6.53289E-1
-7.29187E-1,-4.95575E-1
-7.12493E-1,-4.46563E-1
-7.30651E-1,-3.91418E-1
-7.30896E-1,-3.87725E-1
-8.51715E-1,-3.76586E-1
-9.13604E-1,-2.02972E-1
-8.55773E-1,-1.22894E-1
-8.61084E-1,-0.79162E-1
-8.52722E-1,-0.36224E-1
-9.17083E-1,-0.09918E-1
-9.75280E-1,1.59912E-1
-8.81256E-1,2.79846E-1
-8.42468E-1,3.15887E-1
-8.04748E-1,3.80828E-1
-7.83935E-1,4.02679E-1
-8.09753E-1,5.02197E-1
-7.19329E-1,6.27075E-1
-6.29516E-1,6.57592E-1
-5.69244E-1,6.89575E-1
-5.26519E-1,6.97174E-1
-5.24810E-1,7.58483E-1
-4.28772E-1,8.56445E-1
-3.23120E-1,8.63342E-1
-2.49481E-1,8.86871E-1
-1.55822E-1,8.73718E-1
-1.36566E-1,8.60351E-1
-0.87860E-1,9.29412E-1
0.34454E-1,9.43054E-1
1.13464E-1,9.23858E-1
2.08953E-1,9.01916E-1
2.53051E-1,8.54064E-1
2.90435E-1,8.75732E-1
4.04693E-1,8.79180E-1
4.95513E-1,8.29406E-1
5.88653E-1,7.67639E-1
6.25549E-1,6.67205E-1
6.29699E-1,6.45324E-1
7.21191E-1,6.28601E-1
7.93243E-1,5.40283E-1
8.42987E-1,4.62799E-1
8.74511E-1,3.50128E-1
8.51287E-1,2.88208E-1
8.92761E-1,2.60864E-1
9.38110E-1,1.71203E-1
9.49829E-1,0.90301E-1
9.64080E-1,-0.23040E-1
9.04449E-1,-1.14593E-1
8.88305E-1,-1.41357E-1
9.12139E-1,-2.23663E-1
8.90502E-1,-3.13537E-1
8.66180E-1,-4.10034E-1
7.71423E-1,-4.95025E-1
7.08007E-1,-4.9823E-1
7.04223E-1,-5.41229E-1
6.65741E-1,-6.21368E-1
6.10839E-1,-6.96014E-1
5.10681E-1,-7.52807E-1
4.32495E-1,-7.39746E-1
4.08905E-1,-7.41455E-1
3.72711E-1,-7.94372E-1
2.97790E-1,-8.42956E-1
1.987E-1,-8.80035E-1
0.99334E-1,-8.56018E-1
0.64056E-1,-8.26782E-1
0.36651E-1,-8.45489E-1
-0.37506E-1,-8.74267E-1
-1.34765E-1,-8.75976E-1
-2.34680E-1,-8.26873E-1
-2.69195E-1,-7.74536E-1
-2.87475E-1,-7.65136E-1
-3.45336E-1,-7.8125E-1
-4.35577E-1,-7.56347E-1
-5.08331E-1,-6.94397E-1
-5.46173E-1,-6.33056E-1
-5.72479E-1,-5.87799E-1
-6.02600E-1,-5.72631E-1
-6.70776E-1,-5.41015E-1
-7.2229E-1,-4.70764E-1
-7.50518E-1,-3.97796E-1
-7.68463E-1,-3.30261E-1
-7.75238E-1,-2.86254E-1
-8.15856E-1,-2.55218E-1
-8.52630E-1,-1.80786E-1
-8.59832E-1,-1.03607E-1
-8.60870E-1,-0.29602E-1
-8.49243E-1,0.38513E-1
-8.67218E-1,0.84533E-1
-8.88824E-1,1.78070E-1
-8.61877E-1,2.57690E-1
-8.27148E-1,3.21106E-1
-7.83416E-1,3.83300E-1
-7.48565E-1,4.19036E-1
-7.52075E-1,4.93957E-1
-6.97753E-1,5.82305E-1
-6.48407E-1,6.31256E-1
-5.92742E-1,6.84478E-1
-5.22827E-1,7.11822E-1
-4.83734E-1,7.49237E-1
-4.01855E-1,8.18908E-1
-3.17474E-1,8.36883E-1
-2.60742E-1,8.61053E-1
-1.81915E-1,8.76953E-1
-1.28753E-1,8.59893E-1
-0.76721E-1,8.89343E-1
0.20965E-1,8.90594E-1
0.85083E-1,8.78601E-1
1.58508E-1,8.78418E-1
2.23022E-1,8.52691E-1
2.71423E-1,8.42590E-1
3.56170E-1,8.21777E-1
4.15832E-1,7.77008E-1
4.84008E-1,7.48016E-1
5.44494E-1,6.95861E-1
5.78796E-1,6.55517E-1
6.36810E-1,6.25183E-1
6.82281E-1,5.54138E-1
7.15667E-1,5.04821E-1
7.62573E-1,4.43847E-1
7.95837E-1,3.80065E-1
8.25927E-1,3.28155E-1
8.53302E-1,2.53875E-1
8.56781E-1,1.92901E-1
8.79669E-1,1.22222E-1
8.83392E-1,0.43029E-1
8.85894E-1,-0.25482E-1
8.91174E-1,-0.98266E-1
8.69720E-1,-1.60919E-1
8.58429E-1,-2.17163E-1
8.34045E-1,-2.87353E-1
8.15307E-1,-3.59863E-1
7.83386E-1,-4.33441E-1
7.47802E-1,-5.00549E-1
7.08190E-1,-5.52703E-1
6.62231E-1,-5.97686E-1
6.23626E-1,-6.36688E-1
5.65551E-1,-7.07824E-1
4.87701E-1,-7.65228E-1
4.08721E-1,-7.90008E-1
3.58795E-1,-8.02856E-1
END
BEGIN
-4.24469E-1,-1.22924E-1
-4.43450E-1,-0.72235E-1
-4.54879E-1,-0.24566E-1
-4.64126E-1,0.10421E-1
-4.65240E-1,0.64102E-1
-4.47418E-1,1.14593E-1
-4.34829E-1,1.77032E-1
-4.14016E-1,2.29538E-1
-4.03961E-1,2.78091E-1
-3.82705E-1,3.19885E-1
-3.50677E-1,3.48999E-1
-3.09173E-1,3.83636E-1
-2.62344E-1,4.14001E-1
-2.21298E-1,4.53674E-1
-1.79443E-1,4.78485E-1
-1.33407E-1,4.94613E-1
-0.83648E-1,5.02960E-1
-0.24627E-1,5.05462E-1
0.29083E-1,5.10528E-1
0.85296E-1,5.06103E-1
1.29303E-1,4.99328E-1
1.71020E-1,4.79446E-1
2.15774E-1,4.54025E-1
2.69424E-1,4.10995E-1
3.12789E-1,3.69476E-1
3.53836E-1,3.41735E-1
3.87878E-1,2.94036E-1
4.09271E-1,2.46841E-1
4.30923E-1,1.75613E-1
4.39285E-1,1.20101E-1
4.61029E-1,0.66925E-1
4.72610E-1,0.13488E-1
4.66888E-1,-0.23712E-1
4.53537E-1,-0.69397E-1
4.29794E-1,-1.05575E-1
4.13574E-1,-1.63421E-1
3.85513E-1,-2.04864E-1
3.62258E-1,-2.33688E-1
3.41232E-1,-2.64480E-1
2.84988E-1,-2.97500E-1
2.39166E-1,-3.12851E-1
2.04498E-1,-3.32473E-1
1.64123E-1,-3.57574E-1
1.31622E-1,-3.68225E-1
0.80108E-1,-3.86230E-1
0.36102E-1,-3.71871E-1
-0.00015E-1,-3.67889E-1
-0.37643E-1,-3.69216E-1
-0.72372E-1,-3.52188E-1
-1.08596E-1,-3.51532E-1
-1.69281E-1,-3.05114E-1
-1.84249E-1,-2.77343E-1
-2.16507E-1,-2.75894E-1
-2.50320E-1,-2.55813E-1
-2.69027E-1,-2.38784E-1
-3.00796E-1,-2.0224E-1
-3.02368E-1,-1.63070E-1
-3.17672E-1,-1.42791E-1
-3.36898E-1,-1.10031E-1
-3.33801E-1,-0.80169E-1
-3.50570E-1,-0.55694E-1
-3.38607E-1,0.08438E-1
-3.24630E-1,0.27481E-1
-3.43124E-1,0.60043E-1
-3.40148E-1,1.02829E-1
-3.38165E-1,1.30157E-1
-3.27911E-1,1.82403E-1
-3.01437E-1,2.00668E-1
-2.96325E-1,2.22946E-1
-2.72903E-1,2.47665E-1
-2.45071E-1,2.50961E-1
-2.24166E-1,2.89276E-1
-1.54235E-1,3.12728E-1
-1.23703E-1,3.15017E-1
-0.98831E-1,3.43841E-1
-0.60180E-1,3.49807E-1
-0.25955E-1,3.57589E-1
0.34332E-1,3.56002E-1
0.73089E-1,3.47198E-1
1.05484E-1,3.57238E-1
1.37146E-1,3.55957E-1
1.53350E-1,3.37051E-1
1.79733E-1,3.16604E-1
2.14325E-1,2.75299E-1
2.43446E-1,2.47100E-1
2.85537E-1,2.18017E-1
2.99331E-1,1.84783E-1
3.13583E-1,1.71234E-1
3.37326E-1,1.22161E-1
3.40927E-1,0.74890E-1
3.56582E-1,0.39016E-1
3.63388E-1,0.01434E-1
3.51150E-1,-0.14816E-1
3.53530E-1,-0.40908E-1
3.32687E-1,-0.92895E-1
3.08319E-1,-1.38732E-1
2.85003E-1,-1.86721E-1
2.58773E-1,-2.07717E-1
2.51190E-1,-2.33306E-1
2.09793E-1,-2.70614E-1
1.68808E-1,-2.92388E-1
1.46987E-1,-3.26599E-1
1.19873E-1,-3.54721E-1
1.08551E-1,-3.51394E-1
0.96084E-1,-3.54782E-1
0.53619E-1,-3.48571E-1
0.10757E-1,-3.52645E-1
-0.55236E-1,-3.61480E-1
-0.83725E-1,-3.40026E-1
-0.85693E-1,-3.47061E-1
-1.22940E-1,-3.39157E-1
-1.57852E-1,-3.09936E-1
-2.09365E-1,-2.90817E-1
-2.444E-1,-2.62435E-1
-2.48428E-1,-2.64434E-1
-2.65960E-1,-2.70645E-1
-2.77038E-1,-2.45468E-1
-2.95944E-1,-2.14401E-1
-3.13400E-1,-1.57363E-1
-3.04336E-1,-1.31668E-1
-3.22418E-1,-1.36734E-1
-3.48098E-1,-1.15432E-1
-3.60199E-1,-0.81054E-1
-3.68438E-1,-0.37063E-1
-3.56979E-1,-0.09002E-1
-3.69506E-1,-0.04226E-1
-3.92288E-1,0.09536E-1
-4.05380E-1,0.37445E-1
-4.01718E-1,0.71136E-1
-3.72665E-1,0.98999E-1
-3.64395E-1,1.01898E-1
-3.76312E-1,1.19445E-1
-3.87817E-1,1.57852E-1
-3.75747E-1,2.02148E-1
-3.48892E-1,2.26364E-1
-3.41018E-1,2.39334E-1
-3.32687E-1,2.69470E-1
-3.30795E-1,2.97241E-1
-3.24081E-1,3.42269E-1
-2.98370E-1,3.66317E-1
-2.82928E-1,3.65539E-1
-2.66754E-1,3.76281E-1
-2.39913E-1,3.82492E-1
-2.25738E-1,4.10644E-1
-1.84738E-1,4.48028E-1
-1.50177E-1,4.51126E-1
-1.32034E-1,4.55535E-1
-0.90866E-1,4.56680E-1
-0.54458E-1,4.71298E-1
0.22674E-1,5.02502E-1
0.72586E-1,4.95239E-1
0.80352E-1,4.97436E-1
0.99273E-1,5.02288E-1
1.17843E-1,4.77432E-1
1.59774E-1,4.79843E-1
2.27569E-1,4.50759E-1
2.60574E-1,4.26101E-1
2.87338E-1,4.16641E-1
3.12927E-1,3.75518E-1
3.30505E-1,3.41461E-1
3.86123E-1,2.91656E-1
4.17404E-1,2.40478E-1
4.44702E-1,2.24914E-1
4.79568E-1,1.94351E-1
4.57656E-1,1.54113E-1
4.62295E-1,1.43325E-1
4.83627E-1,0.79498E-1
4.74426E-1,0.28793E-1
4.82086E-1,-0.05813E-1
4.45129E-1,-0.55053E-1
4.04068E-1,-0.57937E-1
3.95599E-1,-1.10763E-1
3.57360E-1,-1.75796E-1
3.38989E-1,-2.24838E-1
3.10592E-1,-2.74826E-1
2.68402E-1,-2.60101E-1
2.72766E-1,-2.63000E-1
2.21649E-1,-3.01879E-1
1.66351E-1,-3.20465E-1
1.24313E-1,-3.52935E-1
0.77514E-1,-3.39355E-1
0.88317E-1,-3.13613E-1
0.48431E-1,-3.19412E-1
-0.21667E-1,-2.94464E-1
-0.83511E-1,-3.01925E-1
-1.57104E-1,-2.93823E-1
-1.44683E-1,-2.65869E-1
-1.42349E-1,-2.85476E-1
-1.73454E-1,-2.44514E-1
-1.9133E-1,-2.20054E-1
-2.62329E-1,-2.04910E-1
-2.78198E-1,-1.52908E-1
-2.45315E-1,-1.61171E-1
-2.43911E-1,-1.36505E-1
-2.29370E-1,-0.87730E-1
-2.79617E-1,-0.44662E-1
-3.15170E-1,0.39016E-1
-2.81036E-1,0.34820E-1
-2.87857E-1,0.18615E-1
-2.54394E-1,0.37124E-1
-2.73162E-1,0.61035E-1
END
