CITIFILE A.01.01
#NA VERSION HP8510C.08.10
NAME DATA
#NA REGISTER 1
VAR FREQ MAG 201
DATA S[1,1] RI
DATA S[2,1] RI
DATA S[1,2] RI
DATA S[2,2] RI
SEG_LIST_BEGIN
SEG 8000000000 12000000000 201
SEG_LIST_END
COMMENT       YEAR MONTH DAY HOUR MINUTE SECONDS
CONSTANT TIME 2013   10   28  00    21    58.0
BEGIN
-4.14978E-1,-2.45986E-1
-4.34677E-1,-2.02148E-1
-4.54376E-1,-1.45324E-1
-4.67041E-1,-0.99258E-1
-4.79751E-1,-0.48767E-1
-4.70703E-1,-0.04241E-1
-4.63485E-1,0.37597E-1
-4.51507E-1,0.82382E-1
-4.48654E-1,1.39114E-1
-4.319E-1,1.90490E-1
-4.09011E-1,2.23281E-1
-3.78021E-1,2.53448E-1
-3.46481E-1,2.81478E-1
-3.15444E-1,3.31207E-1
-2.73803E-1,3.66119E-1
-2.40585E-1,3.91174E-1
-1.98669E-1,4.05563E-1
-1.58325E-1,4.07974E-1
-1.19537E-1,4.30542E-1
-0.54977E-1,4.43603E-1
-0.09597E-1,4.49218E-1
0.31082E-1,4.49142E-1
0.64315E-1,4.3367E-1
1.00814E-1,4.20242E-1
1.45385E-1,4.05151E-1
1.81320E-1,3.97049E-1
2.19116E-1,3.84185E-1
2.45590E-1,3.61526E-1
2.70675E-1,3.32199E-1
2.95684E-1,3.12179E-1
3.39492E-1,2.84835E-1
3.74679E-1,2.47695E-1
3.93447E-1,2.16186E-1
4.01535E-1,1.77612E-1
4.10720E-1,1.47918E-1
4.37469E-1,0.84640E-1
4.36248E-1,0.34042E-1
4.43206E-1,0.01709E-1
4.43298E-1,-0.30548E-1
4.27520E-1,-0.68267E-1
4.12567E-1,-1.18316E-1
3.88183E-1,-1.59027E-1
3.81149E-1,-2.02270E-1
3.69155E-1,-2.34542E-1
3.48846E-1,-2.61642E-1
3.23761E-1,-2.82501E-1
2.73269E-1,-3.12042E-1
2.42797E-1,-3.34899E-1
2.14553E-1,-3.64715E-1
1.94213E-1,-3.84216E-1
1.54968E-1,-3.87207E-1
1.18179E-1,-3.83987E-1
0.81451E-1,-3.89053E-1
0.39123E-1,-4.05563E-1
0.03692E-1,-4.13650E-1
-0.25299E-1,-4.15573E-1
-0.54641E-1,-4.05609E-1
-0.96069E-1,-3.82202E-1
-1.38198E-1,-3.68362E-1
-1.75888E-1,-3.52493E-1
-1.95694E-1,-3.50082E-1
-2.18734E-1,-3.31527E-1
-2.32543E-1,-2.95364E-1
-2.53097E-1,-2.71896E-1
-2.94906E-1,-2.46276E-1
-3.19076E-1,-2.24945E-1
-3.36410E-1,-2.08816E-1
-3.42330E-1,-1.87408E-1
-3.42910E-1,-1.41983E-1
-3.53012E-1,-0.97930E-1
-3.60580E-1,-0.59310E-1
-3.72024E-1,-0.49194E-1
-3.70010E-1,-0.30166E-1
-3.39325E-1,-0.08514E-1
-3.26583E-1,0.09918E-1
-3.28537E-1,0.51437E-1
-3.35815E-1,0.79940E-1
-3.40972E-1,0.96145E-1
-3.36319E-1,1.05423E-1
-3.16024E-1,1.20651E-1
-2.96157E-1,1.62048E-1
-2.64465E-1,2.03994E-1
-2.59536E-1,2.21633E-1
-2.58392E-1,2.39257E-1
-2.33726E-1,2.33772E-1
-2.13966E-1,2.42851E-1
-1.70013E-1,2.74078E-1
-1.4328E-1,2.92205E-1
-1.32309E-1,3.18389E-1
-1.21368E-1,3.25302E-1
-1.07055E-1,3.24493E-1
-0.6427E-1,3.36486E-1
-0.07812E-1,3.30230E-1
0.12146E-1,3.39874E-1
0.35034E-1,3.50906E-1
0.43579E-1,3.36547E-1
0.61721E-1,3.29452E-1
1.08474E-1,3.07586E-1
1.43844E-1,3.00613E-1
1.83227E-1,3.03909E-1
2.03750E-1,2.99758E-1
2.14935E-1,2.91305E-1
2.57186E-1,2.57736E-1
2.89306E-1,1.93450E-1
3.21365E-1,1.58157E-1
3.52111E-1,1.31668E-1
3.47824E-1,1.06964E-1
3.48053E-1,0.77545E-1
3.37982E-1,0.12817E-1
3.36547E-1,-0.36956E-1
3.53073E-1,-0.86349E-1
3.49487E-1,-1.12869E-1
3.40499E-1,-1.22192E-1
3.15185E-1,-1.64047E-1
2.67349E-1,-2.19039E-1
2.37060E-1,-2.73284E-1
2.14904E-1,-3.11599E-1
1.98867E-1,-3.18420E-1
1.63803E-1,-3.23989E-1
0.99594E-1,-3.22753E-1
0.47607E-1,-3.45092E-1
-0.01876E-1,-3.76724E-1
-0.24200E-1,-3.87954E-1
-0.38818E-1,-3.82675E-1
-0.79299E-1,-3.60946E-1
-1.42410E-1,-3.43002E-1
-2.16339E-1,-3.31878E-1
-2.52594E-1,-3.29742E-1
-2.69226E-1,-3.24798E-1
-2.86056E-1,-2.86377E-1
-3.10302E-1,-2.24762E-1
-3.61984E-1,-1.70791E-1
-4.01947E-1,-1.40014E-1
-4.19769E-1,-1.37252E-1
-4.56146E-1,-1.26663E-1
-4.38446E-1,-1.06521E-1
-4.14733E-1,0.04730E-1
-4.34753E-1,0.76889E-1
-4.58419E-1,1.01196E-1
-4.66491E-1,1.11679E-1
-4.35623E-1,1.35330E-1
-3.84521E-1,1.91085E-1
-3.45077E-1,2.65029E-1
-3.36395E-1,3.15628E-1
-3.44253E-1,3.37860E-1
-3.29803E-1,3.40194E-1
-2.72918E-1,3.47549E-1
-2.05291E-1,3.76236E-1
-1.47750E-1,4.29992E-1
-1.42410E-1,4.57366E-1
-1.59027E-1,4.73220E-1
-1.34216E-1,4.64065E-1
-0.57907E-1,4.42916E-1
0.32104E-1,4.38079E-1
0.91507E-1,4.51446E-1
1.00921E-1,4.80270E-1
1.11801E-1,4.87075E-1
1.39251E-1,4.32708E-1
1.70959E-1,3.68347E-1
2.13287E-1,3.30535E-1
2.28179E-1,3.45596E-1
2.47634E-1,3.97522E-1
2.73193E-1,3.86123E-1
2.86773E-1,3.30551E-1
3.25042E-1,2.70690E-1
3.77914E-1,2.19696E-1
4.11666E-1,2.01690E-1
4.31839E-1,1.91009E-1
4.12918E-1,1.46072E-1
3.81958E-1,0.97305E-1
3.89434E-1,0.33172E-1
3.91220E-1,-0.09597E-1
4.22393E-1,-0.07919E-1
4.22592E-1,-0.26733E-1
3.83529E-1,-0.46615E-1
3.58261E-1,-1.02005E-1
3.28460E-1,-1.71630E-1
3.39477E-1,-2.00714E-1
3.5672E-1,-2.31292E-1
3.23425E-1,-2.31002E-1
2.79678E-1,-2.26730E-1
2.13882E-1,-2.69210E-1
1.70272E-1,-2.96447E-1
1.90383E-1,-3.44497E-1
1.85501E-1,-3.57467E-1
1.79397E-1,-3.25195E-1
1.27182E-1,-3.237E-1
0.32882E-1,-3.28994E-1
-0.12680E-1,-3.61496E-1
-0.38543E-1,-4.04037E-1
-0.31005E-1,-3.91296E-1
-0.25116E-1,-3.66622E-1
-1.00372E-1,-3.22113E-1
-1.65283E-1,-2.64526E-1
-2.12341E-1,-2.91458E-1
-2.29705E-1,-3.05999E-1
-1.90979E-1,-3.08868E-1
-2.01019E-1,-2.80578E-1
-2.50289E-1,-1.79718E-1
-2.88925E-1,-1.33987E-1
-3.43795E-1,-1.34719E-1
END
BEGIN
-8.96057E-1,0.44067E-1
-8.3078E-1,1.38122E-1
-8.33496E-1,1.81091E-1
-8.24981E-1,3.05145E-1
-7.66052E-1,3.76709E-1
-7.29248E-1,4.75738E-1
-6.10015E-1,5.35491E-1
-5.63690E-1,5.15625E-1
-5.57800E-1,5.72540E-1
-4.99420E-1,6.20239E-1
-4.69787E-1,6.77185E-1
-3.62945E-1,7.32849E-1
-3.09143E-1,7.01202E-1
-3.10699E-1,7.60192E-1
-2.06085E-1,8.25195E-1
-1.3797E-1,8.35968E-1
-0.28808E-1,8.77838E-1
0.69122E-1,8.13812E-1
0.71594E-1,8.11157E-1
1.64459E-1,8.55194E-1
2.44445E-1,8.33038E-1
3.41644E-1,8.57482E-1
4.77050E-1,7.75573E-1
4.95941E-1,7.10113E-1
5.87158E-1,7.01355E-1
6.62445E-1,6.01257E-1
7.07397E-1,5.59051E-1
8.02459E-1,4.36126E-1
7.49847E-1,3.11370E-1
7.36175E-1,3.06243E-1
7.67272E-1,2.47680E-1
7.66418E-1,2.18261E-1
8.38531E-1,1.65557E-1
8.18634E-1,0.49896E-1
8.01422E-1,0.48553E-1
8.77868E-1,0.02594E-1
9.06219E-1,-0.93811E-1
9.63287E-1,-2.09075E-1
8.98010E-1,-4.06982E-1
7.73468E-1,-4.33929E-1
7.80883E-1,-4.77325E-1
7.13958E-1,-5.75866E-1
6.70623E-1,-6.13342E-1
6.08825E-1,-7.25158E-1
4.76867E-1,-7.30590E-1
4.76104E-1,-7.25921E-1
4.19891E-1,-8.17932E-1
3.38165E-1,-8.34899E-1
2.86315E-1,-9.15649E-1
1.03454E-1,-9.51507E-1
0.22064E-1,-8.68652E-1
-0.22430E-1,-8.72833E-1
-1.00128E-1,-8.41674E-1
-1.25061E-1,-8.36059E-1
-2.22229E-1,-8.53485E-1
-2.92663E-1,-7.90130E-1
-3.25225E-1,-7.82592E-1
-4.00939E-1,-7.62054E-1
-4.41467E-1,-7.47253E-1
-5.55053E-1,-7.56408E-1
-6.65893E-1,-6.33606E-1
-6.71508E-1,-5.50750E-1
-7.16430E-1,-4.88220E-1
-7.09442E-1,-4.11743E-1
-7.34100E-1,-4.11071E-1
-8.09814E-1,-3.32428E-1
-7.94097E-1,-2.51861E-1
-8.21746E-1,-2.25830E-1
-8.56689E-1,-1.52618E-1
-8.85284E-1,-1.00738E-1
-9.45404E-1,0.10589E-1
-8.97949E-1,1.43676E-1
-8.63769E-1,2.00714E-1
-8.27575E-1,2.92205E-1
-7.62908E-1,3.31024E-1
-7.55676E-1,3.68957E-1
-7.11883E-1,4.30908E-1
-6.86645E-1,4.53399E-1
-6.75201E-1,5.17730E-1
-6.27929E-1,5.63659E-1
-6.20880E-1,6.12548E-1
-5.81146E-1,7.05658E-1
-5.07141E-1,7.67578E-1
-4.26483E-1,8.33770E-1
-3.10363E-1,8.44177E-1
-2.71881E-1,8.40515E-1
-2.06939E-1,9.00268E-1
-1.04492E-1,8.96911E-1
-0.55999E-1,8.98559E-1
0.24047E-1,9.09454E-1
0.74340E-1,8.98468E-1
1.45874E-1,9.44824E-1
2.85034E-1,9.39971E-1
3.72772E-1,8.85314E-1
4.57183E-1,8.39904E-1
5.14251E-1,7.61566E-1
5.51361E-1,7.28973E-1
6.25244E-1,6.73217E-1
6.52191E-1,6.07330E-1
6.93023E-1,5.83770E-1
7.49084E-1,5.33813E-1
7.87078E-1,4.90570E-1
8.58337E-1,4.39483E-1
9.10247E-1,3.49029E-1
9.49768E-1,2.70202E-1
1.00134E0,1.63635E-1
9.87579E-1,0.38696E-1
9.65454E-1,-0.40039E-1
9.56176E-1,-1.27319E-1
9.27093E-1,-2.11669E-1
9.00360E-1,-2.91839E-1
8.50402E-1,-3.71521E-1
8.09814E-1,-4.09545E-1
7.94433E-1,-4.67620E-1
7.60253E-1,-5.44555E-1
7.03674E-1,-6.13006E-1
6.41632E-1,-6.79504E-1
5.68389E-1,-7.26501E-1
5.06195E-1,-7.66387E-1
4.30511E-1,-8.12957E-1
3.43689E-1,-8.25958E-1
2.77618E-1,-8.28338E-1
2.10449E-1,-8.40911E-1
1.43829E-1,-8.45153E-1
0.81176E-1,-8.50128E-1
0.13092E-1,-8.50555E-1
-0.46020E-1,-8.30108E-1
-0.86669E-1,-8.30535E-1
-1.58386E-1,-8.36914E-1
-2.38159E-1,-8.23822E-1
-3.20709E-1,-7.94677E-1
-3.81622E-1,-7.41333E-1
-4.08935E-1,-7.06634E-1
-4.56390E-1,-6.85699E-1
-5.13244E-1,-6.45355E-1
-5.56579E-1,-5.97198E-1
-6.04766E-1,-5.47973E-1
-6.24786E-1,-4.98535E-1
-6.58050E-1,-4.78149E-1
-7.12127E-1,-4.30084E-1
-7.45330E-1,-3.73626E-1
-7.88665E-1,-3.08654E-1
-8.07067E-1,-2.27172E-1
-8.09082E-1,-1.70593E-1
-8.24890E-1,-1.10595E-1
-8.30169E-1,-0.43212E-1
-8.31512E-1,0.27984E-1
-8.17504E-1,0.96435E-1
-7.85339E-1,1.54785E-1
-7.80304E-1,1.77124E-1
-7.93945E-1,2.39166E-1
-7.84912E-1,3.06182E-1
-7.6828E-1,3.86169E-1
-7.15759E-1,4.61273E-1
-6.69494E-1,4.88769E-1
-6.59393E-1,5.41198E-1
-6.08184E-1,6.12182E-1
-5.45105E-1,6.56341E-1
-4.90173E-1,6.91833E-1
-4.33075E-1,7.04986E-1
-4.20959E-1,7.34466E-1
-3.73809E-1,8.11798E-1
-2.95501E-1,8.48419E-1
-2.23754E-1,8.87695E-1
-1.24084E-1,9.09851E-1
-0.53039E-1,9.08783E-1
0.19897E-1,9.26971E-1
1.20025E-1,9.1922E-1
1.94152E-1,8.90258E-1
2.66113E-1,8.64257E-1
3.33038E-1,8.25286E-1
3.70819E-1,8.00262E-1
4.50958E-1,7.90557E-1
5.12512E-1,7.44995E-1
5.76507E-1,7.09655E-1
6.39495E-1,6.41571E-1
6.71020E-1,5.87738E-1
7.33367E-1,5.44677E-1
7.73132E-1,4.64050E-1
8.03680E-1,4.10247E-1
8.41003E-1,3.37310E-1
8.52325E-1,2.64770E-1
8.74115E-1,2.08557E-1
8.92211E-1,1.13159E-1
8.80554E-1,0.56335E-1
9.03503E-1,-0.15655E-1
8.82659E-1,-0.93872E-1
8.84582E-1,-1.48773E-1
8.71154E-1,-2.43896E-1
8.09967E-1,-2.94342E-1
8.06366E-1,-3.41003E-1
7.73803E-1,-4.13543E-1
7.63275E-1,-4.64935E-1
7.32910E-1,-5.61370E-1
6.43249E-1,-6.25793E-1
5.99426E-1,-6.42211E-1
5.41931E-1,-7.01293E-1
4.88769E-1,-7.09137E-1
4.65148E-1,-7.86773E-1
3.37493E-1,-8.46069E-1
2.66052E-1,-8.03558E-1
END
BEGIN
-8.01879E-1,0.57525E-1
-8.25317E-1,1.22406E-1
-7.62420E-1,2.41973E-1
-7.12890E-1,2.24151E-1
-7.83416E-1,2.87475E-1
-7.31079E-1,4.13970E-1
-7.01782E-1,4.61578E-1
-6.44714E-1,5.80627E-1
-5.41259E-1,5.81024E-1
-5.74585E-1,6.01501E-1
-5.21331E-1,7.34893E-1
-4.21630E-1,7.74597E-1
-3.31817E-1,8.41522E-1
-1.95953E-1,8.24218E-1
-1.88324E-1,7.99713E-1
-1.22924E-1,8.87573E-1
-0.04394E-1,8.83941E-1
0.76538E-1,9.02801E-1
2.30011E-1,8.53973E-1
2.42675E-1,7.50122E-1
2.55310E-1,7.89703E-1
3.68225E-1,7.76672E-1
4.16809E-1,7.46673E-1
5.33813E-1,7.23693E-1
5.79986E-1,6.01287E-1
5.67840E-1,5.89477E-1
6.60919E-1,5.73486E-1
7.12860E-1,5.01098E-1
7.96478E-1,4.52453E-1
8.47137E-1,2.9599E-1
7.86254E-1,2.28363E-1
8.237E-1,2.16095E-1
8.55529E-1,1.44470E-1
9.10614E-1,0.90515E-1
9.44366E-1,-0.85052E-1
8.20220E-1,-1.79718E-1
8.06396E-1,-1.67022E-1
8.31024E-1,-2.3703E-1
8.44116E-1,-3.02185E-1
8.56292E-1,-4.58770E-1
6.94030E-1,-5.68206E-1
6.21002E-1,-5.23925E-1
6.25E-1,-5.61065E-1
5.98693E-1,-6.06597E-1
6.03637E-1,-7.13470E-1
4.48669E-1,-8.42834E-1
3.27148E-1,-7.79571E-1
3.19885E-1,-7.83660E-1
2.62359E-1,-8.13903E-1
2.43408E-1,-8.61480E-1
1.03942E-1,-9.74395E-1
-0.69824E-1,-8.97674E-1
-0.87432E-1,-8.35205E-1
-1.37908E-1,-8.33099E-1
-1.61621E-1,-8.20037E-1
-2.38250E-1,-8.92150E-1
-4.20837E-1,-8.32275E-1
-4.43786E-1,-7.14752E-1
-4.68353E-1,-6.92627E-1
-4.96948E-1,-6.54418E-1
-5.36102E-1,-6.86859E-1
-7.00164E-1,-6.42303E-1
-7.30682E-1,-4.83001E-1
-7.12921E-1,-4.32495E-1
-7.28637E-1,-3.76953E-1
-7.26257E-1,-3.72497E-1
-8.44604E-1,-3.63494E-1
-9.07531E-1,-1.92199E-1
-8.49121E-1,-1.11602E-1
-8.52325E-1,-0.68389E-1
-8.43200E-1,-0.24841E-1
-9.04968E-1,-0.00640E-1
-9.64782E-1,1.66168E-1
-8.71154E-1,2.87262E-1
-8.30596E-1,3.23364E-1
-7.91534E-1,3.87420E-1
-7.68096E-1,4.08050E-1
-7.95257E-1,5.04150E-1
-7.05230E-1,6.28601E-1
-6.14746E-1,6.57531E-1
-5.52795E-1,6.89025E-1
-5.10101E-1,6.94763E-1
-5.10345E-1,7.52899E-1
-4.15374E-1,8.51165E-1
-3.09143E-1,8.56018E-1
-2.36816E-1,8.79058E-1
-1.41906E-1,8.64349E-1
-1.24939E-1,8.47991E-1
-0.78338E-1,9.17022E-1
0.43151E-1,9.30267E-1
1.20849E-1,9.10888E-1
2.15026E-1,8.87725E-1
2.56561E-1,8.37921E-1
2.92175E-1,8.61267E-1
4.05792E-1,8.65875E-1
4.95605E-1,8.16864E-1
5.88989E-1,7.55310E-1
6.25457E-1,6.52008E-1
6.26007E-1,6.31225E-1
7.16125E-1,6.15203E-1
7.88299E-1,5.27465E-1
8.36975E-1,4.49554E-1
8.67675E-1,3.36395E-1
8.41095E-1,2.76458E-1
8.82049E-1,2.52685E-1
9.27429E-1,1.62811E-1
9.39056E-1,0.83343E-1
9.55871E-1,-0.30578E-1
8.93188E-1,-1.22985E-1
8.75701E-1,-1.46698E-1
9.00604E-1,-2.27325E-1
8.78448E-1,-3.16253E-1
8.55651E-1,-4.13085E-1
7.58148E-1,-4.99328E-1
6.92688E-1,-4.98992E-1
6.91009E-1,-5.40313E-1
6.52954E-1,-6.19873E-1
5.99304E-1,-6.93939E-1
4.98840E-1,-7.51953E-1
4.18060E-1,-7.36450E-1
3.95568E-1,-7.35900E-1
3.60656E-1,-7.87750E-1
2.86163E-1,-8.35052E-1
1.88873E-1,-8.73138E-1
0.87646E-1,-8.48480E-1
0.53070E-1,-8.15765E-1
0.28045E-1,-8.33526E-1
-0.44921E-1,-8.61389E-1
-1.39617E-1,-8.63922E-1
-2.40814E-1,-8.16772E-1
-2.75604E-1,-7.61169E-1
-2.91412E-1,-7.51007E-1
-3.47961E-1,-7.66204E-1
-4.35516E-1,-7.41485E-1
5.19561E-1,-5.48919E-1
5.86425E-1,-5.99548E-1
-5.69732E-1,-5.72082E-1
-6.00006E-1,-5.57830E-1
-6.65313E-1,-5.25512E-1
-7.14630E-1,-4.58129E-1
-7.43804E-1,-3.86016E-1
-7.60955E-1,-3.18817E-1
-7.67303E-1,-2.75299E-1
-8.06274E-1,-2.43530E-1
-8.41766E-1,-1.70105E-1
-8.48907E-1,-0.94574E-1
-8.50219E-1,-0.20477E-1
-8.37463E-1,0.46844E-1
-8.54766E-1,0.92926E-1
-8.73565E-1,1.84356E-1
-8.46496E-1,2.61688E-1
-8.12408E-1,3.26416E-1
-7.68096E-1,3.87512E-1
-7.33367E-1,4.22393E-1
-7.33215E-1,4.97711E-1
-6.76849E-1,5.82702E-1
-6.26098E-1,6.30737E-1
-5.65856E-1,6.79931E-1
-4.92767E-1,6.98455E-1
-4.60144E-1,7.21740E-1
-3.96148E-1,7.88055E-1
-3.21411E-1,8.16497E-1
-2.64556E-1,8.48236E-1
-1.82220E-1,8.65905E-1
-1.28082E-1,8.52447E-1
-0.74462E-1,8.79943E-1
0.21881E-1,8.80706E-1
0.86059E-1,8.70697E-1
1.61254E-1,8.69689E-1
2.24639E-1,8.43566E-1
2.73803E-1,8.33129E-1
3.57818E-1,8.10760E-1
4.16534E-1,7.66723E-1
4.84771E-1,7.37121E-1
5.43457E-1,6.83197E-1
5.76965E-1,6.44683E-1
6.35101E-1,6.12365E-1
6.77948E-1,5.41595E-1
7.11151E-1,4.92706E-1
7.55828E-1,4.30908E-1
7.87475E-1,3.69018E-1
8.17871E-1,3.17993E-1
8.44451E-1,2.43011E-1
8.47168E-1,1.82861E-1
8.68133E-1,1.12396E-1
8.68652E-1,0.34484E-1
8.72924E-1,-0.31097E-1
8.76464E-1,-1.03912E-1
8.54888E-1,-1.64337E-1
8.44848E-1,-2.20092E-1
8.18328E-1,-2.89733E-1
7.99987E-1,-3.56903E-1
7.70385E-1,-4.30297E-1
7.33337E-1,-4.97497E-1
6.95190E-1,-5.47607E-1
6.47705E-1,-5.93811E-1
6.08276E-1,-6.29364E-1
5.56335E-1,-6.98455E-1
4.78302E-1,-7.57476E-1
4.00421E-1,-7.81311E-1
3.49304E-1,-7.95806E-1
END
BEGIN
-4.31442E-1,-1.10366E-1
-4.49005E-1,-0.58517E-1
-4.59457E-1,-0.10040E-1
-4.67147E-1,0.26001E-1
-4.65576E-1,0.80886E-1
-4.46319E-1,1.32247E-1
-4.31243E-1,1.96106E-1
-4.08126E-1,2.48825E-1
-3.96484E-1,2.97699E-1
-3.72695E-1,3.38989E-1
-3.39477E-1,3.67614E-1
-2.95867E-1,4.00863E-1
-2.47711E-1,4.30618E-1
-2.03750E-1,4.69070E-1
-1.60583E-1,4.91073E-1
-1.13464E-1,5.05004E-1
-0.62011E-1,5.11413E-1
-0.02685E-1,5.10620E-1
0.52276E-1,5.13916E-1
1.08978E-1,5.05798E-1
1.52465E-1,4.97100E-1
1.94351E-1,4.74182E-1
2.38754E-1,4.44992E-1
2.91320E-1,3.99673E-1
3.33343E-1,3.55468E-1
3.72451E-1,3.24798E-1
4.04632E-1,2.75299E-1
4.23858E-1,2.25479E-1
4.42092E-1,1.52343E-1
4.48440E-1,0.95382E-1
4.67651E-1,0.40741E-1
4.76074E-1,-0.12893E-1
4.68017E-1,-0.50521E-1
4.52835E-1,-0.94360E-1
4.28146E-1,-1.30981E-1
4.07608E-1,-1.87835E-1
3.78433E-1,-2.26242E-1
3.53454E-1,-2.54592E-1
3.30001E-1,-2.83432E-1
2.72140E-1,-3.14086E-1
2.24166E-1,-3.28308E-1
1.88034E-1,-3.45474E-1
1.46438E-1,-3.69003E-1
1.13189E-1,-3.77975E-1
0.61050E-1,-3.93890E-1
0.16555E-1,-3.78341E-1
-0.19577E-1,-3.71826E-1
-0.57632E-1,-3.71490E-1
-0.91827E-1,-3.52813E-1
-1.28585E-1,-3.49929E-1
-1.86965E-1,-3.01605E-1
-2.02209E-1,-2.72628E-1
-2.34939E-1,-2.68844E-1
-2.68692E-1,-2.47131E-1
-2.87033E-1,-2.28897E-1
-3.17199E-1,-1.90948E-1
-3.17703E-1,-1.51519E-1
-3.32702E-1,-1.29974E-1
-3.50814E-1,-0.96450E-1
-3.46511E-1,-0.65872E-1
-3.61953E-1,-0.39718E-1
-3.48220E-1,0.24520E-1
-3.33999E-1,0.45181E-1
-3.50860E-1,0.80184E-1
-3.45855E-1,1.24313E-1
-3.42300E-1,1.52389E-1
-3.29101E-1,2.04437E-1
-3.02505E-1,2.23144E-1
-2.94845E-1,2.45758E-1
-2.69393E-1,2.70095E-1
-2.39990E-1,2.72613E-1
-2.14752E-1,3.11004E-1
-1.42562E-1,3.32077E-1
-1.09726E-1,3.33496E-1
-0.81604E-1,3.61450E-1
-0.40054E-1,3.66851E-1
-0.02258E-1,3.72238E-1
0.5867E-1,3.67843E-1
0.98693E-1,3.57589E-1
1.32064E-1,3.65219E-1
1.65329E-1,3.61221E-1
1.81915E-1,3.39660E-1
2.08007E-1,3.15475E-1
2.41714E-1,2.72750E-1
2.7005E-1,2.41012E-1
3.10852E-1,2.09289E-1
3.23577E-1,1.73004E-1
3.37448E-1,1.54769E-1
3.57864E-1,1.03500E-1
3.59741E-1,0.54565E-1
3.72970E-1,0.16815E-1
3.77975E-1,-0.21713E-1
3.62594E-1,-0.39581E-1
3.6203E-1,-0.66925E-1
3.37905E-1,-1.19567E-1
3.10104E-1,-1.65359E-1
2.83844E-1,-2.13195E-1
2.53463E-1,-2.34176E-1
2.41790E-1,-2.58682E-1
1.98822E-1,-2.94525E-1
1.56799E-1,-3.15017E-1
1.32690E-1,-3.47793E-1
1.04339E-1,-3.75686E-1
0.91827E-1,-3.70040E-1
0.78506E-1,-3.71658E-1
0.35842E-1,-3.64257E-1
-0.08346E-1,-3.65371E-1
-0.73883E-1,-3.72207E-1
-1.03378E-1,-3.48815E-1
-1.06674E-1,-3.53347E-1
-1.43508E-1,-3.43490E-1
-1.78787E-1,-3.12210E-1
-2.28988E-1,-2.91564E-1
-2.64679E-1,-2.61779E-1
-2.68402E-1,-2.62176E-1
-2.85675E-1,-2.67028E-1
-2.95822E-1,-2.40341E-1
-3.13537E-1,-2.07778E-1
-3.30139E-1,-1.50054E-1
-3.20739E-1,-1.23428E-1
-3.39080E-1,-1.25793E-1
-3.63342E-1,-1.02813E-1
-3.74267E-1,-0.70266E-1
-3.81012E-1,-0.22262E-1
-3.69873E-1,0.07324E-1
-3.81744E-1,0.14251E-1
-4.04144E-1,0.29876E-1
-4.14886E-1,0.58654E-1
-4.09927E-1,0.92041E-1
-3.80905E-1,1.20376E-1
-3.70712E-1,1.24450E-1
-3.80706E-1,1.43676E-1
-3.90167E-1,1.83548E-1
-3.75473E-1,2.27905E-1
-3.93783E-1,2.22641E-1
-4.73236E-1,3.07189E-1
-3.26538E-1,2.96096E-1
-3.22357E-1,3.23593E-1
-3.12286E-1,3.68820E-1
-2.86148E-1,3.90518E-1
-2.69653E-1,3.90045E-1
-2.50808E-1,3.99520E-1
-2.2258E-1,4.03549E-1
-2.04574E-1,4.32022E-1
-1.60995E-1,4.66400E-1
-1.26007E-1,4.67651E-1
-1.04980E-1,4.70733E-1
-0.62469E-1,4.68078E-1
-0.22949E-1,4.80728E-1
0.56243E-1,5.06622E-1
1.05056E-1,4.96917E-1
1.13143E-1,4.99313E-1
1.33026E-1,5.01159E-1
1.50726E-1,4.74563E-1
1.93542E-1,4.74762E-1
2.59292E-1,4.39636E-1
2.91397E-1,4.16046E-1
3.21487E-1,4.04342E-1
3.49426E-1,3.60641E-1
3.74160E-1,3.15826E-1
4.20913E-1,2.48458E-1
4.39300E-1,1.98318E-1
4.62951E-1,1.82586E-1
4.90814E-1,1.52465E-1
4.67514E-1,1.16622E-1
4.69406E-1,1.05148E-1
4.83856E-1,0.42709E-1
4.72641E-1,-0.04501E-1
4.76562E-1,-0.3862E-1
4.37103E-1,-0.84564E-1
3.94058E-1,-0.87036E-1
3.79592E-1,-1.38015E-1
3.39340E-1,-1.99539E-1
3.18740E-1,-2.47711E-1
2.88955E-1,-2.94372E-1
2.47558E-1,-2.79541E-1
2.49328E-1,-2.81036E-1
1.97433E-1,-3.15170E-1
1.42349E-1,-3.31466E-1
0.99472E-1,-3.61175E-1
0.53497E-1,-3.46756E-1
0.62744E-1,-3.19839E-1
0.22232E-1,-3.20602E-1
-0.46173E-1,-2.93869E-1
-1.09268E-1,-2.97973E-1
-1.81167E-1,-2.88925E-1
-1.69570E-1,-2.61215E-1
-1.67297E-1,-2.78488E-1
-1.96060E-1,-2.35687E-1
-2.13478E-1,-2.09617E-1
-2.82165E-1,-1.92352E-1
-2.96951E-1,-1.41418E-1
-2.64816E-1,-1.46987E-1
-2.60894E-1,-1.20452E-1
-2.44804E-1,-0.70648E-1
-2.91854E-1,-0.24231E-1
-3.24050E-1,0.60104E-1
-2.91687E-1,0.58563E-1
-2.96218E-1,0.45028E-1
-2.61459E-1,0.62606E-1
-2.79174E-1,0.88104E-1
END
