CITIFILE A.01.01
#NA VERSION HP8510C.08.10
NAME DATA
#NA REGISTER 1
VAR FREQ MAG 201
DATA S[1,1] RI
DATA S[2,1] RI
DATA S[1,2] RI
DATA S[2,2] RI
SEG_LIST_BEGIN
SEG 8000000000 12000000000 201
SEG_LIST_END
COMMENT       YEAR MONTH DAY HOUR MINUTE SECONDS
CONSTANT TIME 2013   09   26  20    15    39.0
BEGIN
-4.03945E-1,-2.53921E-1
-4.27658E-1,-2.09487E-1
-4.52636E-1,-1.53259E-1
-4.71481E-1,-1.11801E-1
-4.89822E-1,-0.64392E-1
-4.84069E-1,-0.20736E-1
-4.79263E-1,0.27465E-1
-4.68414E-1,0.79925E-1
-4.69436E-1,1.40380E-1
-4.58053E-1,1.92306E-1
-4.38324E-1,2.26379E-1
-4.07486E-1,2.60818E-1
-3.72711E-1,2.94296E-1
-3.41079E-1,3.48541E-1
-3.01223E-1,3.88717E-1
-2.69638E-1,4.17190E-1
-2.29431E-1,4.34280E-1
-1.84539E-1,4.39147E-1
-1.39587E-1,4.62066E-1
-0.72158E-1,4.79599E-1
-0.25680E-1,4.87182E-1
0.14373E-1,4.87884E-1
0.51361E-1,4.72671E-1
0.94192E-1,4.55383E-1
1.45431E-1,4.38430E-1
1.87728E-1,4.28314E-1
2.27188E-1,4.14886E-1
2.54638E-1,3.92944E-1
2.82836E-1,3.56536E-1
3.06884E-1,3.27865E-1
3.49929E-1,2.94982E-1
3.83972E-1,2.55233E-1
4.01046E-1,2.25921E-1
4.08203E-1,1.86843E-1
4.10110E-1,1.56066E-1
4.34494E-1,0.96435E-1
4.33090E-1,0.45257E-1
4.40490E-1,0.16204E-1
4.44610E-1,-0.12481E-1
4.30389E-1,-0.50582E-1
4.15329E-1,-0.95657E-1
3.91250E-1,-1.36566E-1
3.85696E-1,-1.76361E-1
3.77059E-1,-2.08328E-1
3.59695E-1,-2.37396E-1
3.35052E-1,-2.55645E-1
2.90908E-1,-2.85202E-1
2.61032E-1,-3.09143E-1
2.37258E-1,-3.38455E-1
2.20718E-1,-3.62426E-1
1.80664E-1,-3.72894E-1
1.45645E-1,-3.71719E-1
1.10809E-1,-3.77914E-1
0.71746E-1,-3.95416E-1
0.37338E-1,-4.05639E-1
0.05859E-1,-4.11148E-1
-0.22659E-1,-4.04724E-1
-0.61355E-1,-3.86474E-1
-1.00448E-1,-3.76220E-1
-1.38015E-1,-3.63250E-1
-1.61621E-1,-3.65448E-1
-1.92230E-1,-3.48220E-1
-2.05459E-1,-3.13400E-1
-2.22305E-1,-2.95532E-1
-2.60604E-1,-2.74566E-1
-2.86605E-1,-2.53860E-1
-3.08822E-1,-2.36923E-1
-3.17230E-1,-2.17620E-1
-3.20236E-1,-1.80023E-1
-3.29803E-1,-1.42822E-1
-3.39019E-1,-1.07666E-1
-3.55682E-1,-0.93414E-1
-3.61160E-1,-0.69885E-1
-3.40301E-1,-0.47607E-1
-3.30581E-1,-0.31036E-1
-3.32107E-1,0.04272E-1
-3.38333E-1,0.34652E-1
-3.41705E-1,0.57373E-1
-3.40423E-1,0.66696E-1
-3.27163E-1,0.78750E-1
-3.13262E-1,1.09375E-1
-2.86788E-1,1.46865E-1
-2.80517E-1,1.65756E-1
-2.83828E-1,1.85943E-1
-2.69470E-1,1.89529E-1
-2.58438E-1,1.96258E-1
-2.27157E-1,2.21351E-1
-2.04269E-1,2.37129E-1
-1.94595E-1,2.64541E-1
-1.84494E-1,2.80181E-1
-1.76071E-1,2.85110E-1
-1.49154E-1,2.97943E-1
-1.04751E-1,2.95837E-1
-0.85357E-1,3.08914E-1
-0.61416E-1,3.30276E-1
-0.47439E-1,3.33038E-1
-0.31997E-1,3.36044E-1
0.05111E-1,3.26095E-1
0.37460E-1,3.25958E-1
0.82168E-1,3.33679E-1
1.11724E-1,3.36532E-1
1.30859E-1,3.37326E-1
1.70196E-1,3.22082E-1
2.05032E-1,2.74841E-1
2.40715E-1,2.47940E-1
2.82089E-1,2.26089E-1
3.00369E-1,2.06695E-1
3.18603E-1,1.82861E-1
3.22830E-1,1.27197E-1
3.31298E-1,0.81619E-1
3.57955E-1,0.29586E-1
3.70864E-1,-0.09033E-1
3.76297E-1,-0.34805E-1
3.64502E-1,-0.79681E-1
3.29956E-1,-1.34429E-1
3.06915E-1,-1.94686E-1
2.88299E-1,-2.46902E-1
2.76168E-1,-2.76550E-1
2.45224E-1,-3.01773E-1
1.89605E-1,-3.11935E-1
1.40380E-1,-3.42514E-1
0.83480E-1,-3.81500E-1
0.47241E-1,-4.07211E-1
0.16189E-1,-4.16397E-1
-0.28915E-1,-4.06936E-1
-0.90744E-1,-3.96637E-1
-1.68991E-1,-3.86154E-1
-2.20077E-1,-3.78479E-1
-2.54531E-1,-3.73779E-1
-2.86712E-1,-3.43429E-1
-3.16955E-1,-2.93487E-1
-3.70590E-1,-2.42233E-1
-4.13406E-1,-2.02301E-1
-4.41970E-1,-1.81243E-1
-4.57763E-1,-1.52359E-1
-4.57870E-1,-1.00967E-1
-4.68566E-1,-0.33676E-1
-4.81216E-1,0.40878E-1
-4.98016E-1,0.78521E-1
-5.05676E-1,1.07513E-1
-4.84344E-1,1.43142E-1
-4.45938E-1,1.99813E-1
-4.09744E-1,2.69287E-1
-3.92913E-1,3.21517E-1
-3.90731E-1,3.56536E-1
-3.68881E-1,3.73397E-1
-3.17642E-1,3.90152E-1
-2.53173E-1,4.20608E-1
-1.93420E-1,4.65011E-1
-1.68655E-1,4.93011E-1
-1.59545E-1,5.08239E-1
-1.29241E-1,5.08270E-1
-0.60668E-1,4.95132E-1
0.17944E-1,4.86602E-1
0.76385E-1,4.90142E-1
1.0495E-1,5.05554E-1
1.26678E-1,5.07659E-1
1.61529E-1,4.70001E-1
1.97799E-1,4.21218E-1
2.50534E-1,3.89358E-1
2.89535E-1,3.73245E-1
3.15200E-1,3.80737E-1
3.39035E-1,3.55972E-1
3.52386E-1,2.9953E-1
3.73153E-1,2.41577E-1
4.06539E-1,1.90490E-1
4.30297E-1,1.59027E-1
4.42718E-1,1.36337E-1
4.30725E-1,0.91156E-1
4.02481E-1,0.43930E-1
3.98941E-1,-0.07492E-1
3.91983E-1,-0.51010E-1
4.01199E-1,-0.62866E-1
3.95874E-1,-0.87127E-1
3.60931E-1,-1.11999E-1
3.33297E-1,-1.52877E-1
3.04885E-1,-2.04818E-1
2.97195E-1,-2.30102E-1
2.98172E-1,-2.54913E-1
2.64175E-1,-2.62588E-1
2.22991E-1,-2.60604E-1
1.72012E-1,-2.88681E-1
1.29455E-1,-3.09539E-1
1.29608E-1,-3.38394E-1
1.15951E-1,-3.50540E-1
0.97503E-1,-3.28567E-1
0.56564E-1,-3.23776E-1
-0.15609E-1,-3.24783E-1
-0.57189E-1,-3.37341E-1
-0.82565E-1,-3.63250E-1
-0.91918E-1,-3.51409E-1
-0.94253E-1,-3.28338E-1
-1.49536E-1,-2.95730E-1
-2.01873E-1,-2.46925E-1
-2.36724E-1,-2.51953E-1
-2.60513E-1,-2.556E-1
-2.44018E-1,-2.45780E-1
-2.51251E-1,-2.24746E-1
-2.87017E-1,-1.47506E-1
-3.05267E-1,-1.01242E-1
-3.42208E-1,-0.92025E-1
END
BEGIN
-9.03839E-1,0.23864E-1
-8.38409E-1,1.19232E-1
-8.40850E-1,1.61346E-1
-8.33862E-1,2.87109E-1
-7.74108E-1,3.61053E-1
-7.37243E-1,4.58892E-1
-6.16577E-1,5.20752E-1
-5.68603E-1,4.99420E-1
-5.65216E-1,5.53863E-1
-5.08300E-1,6.01623E-1
-4.77874E-1,6.56402E-1
-3.71826E-1,7.11242E-1
-3.18573E-1,6.75903E-1
-3.27789E-1,7.31109E-1
-2.28454E-1,8.00872E-1
-1.62353E-1,8.12011E-1
-0.56793E-1,8.56445E-1
0.40741E-1,7.90985E-1
0.36102E-1,7.86041E-1
1.20758E-1,8.38134E-1
1.98974E-1,8.22357E-1
2.91564E-1,8.53851E-1
4.29779E-1,7.77954E-1
4.46716E-1,7.13928E-1
5.34179E-1,7.15728E-1
6.16455E-1,6.21856E-1
6.63482E-1,5.84838E-1
7.69653E-1,4.69696E-1
7.20916E-1,3.35601E-1
7.00500E-1,3.31665E-1
7.33825E-1,2.78625E-1
7.32605E-1,2.51312E-1
8.08380E-1,2.08282E-1
7.96844E-1,0.89965E-1
7.72735E-1,0.89843E-1
8.49762E-1,0.58258E-1
8.87786E-1,-0.30578E-1
9.58252E-1,-1.35681E-1
9.15863E-1,-3.42987E-1
7.89154E-1,-3.82476E-1
7.98187E-1,-4.20501E-1
7.42126E-1,-5.21911E-1
7.02362E-1,-5.62866E-1
6.51519E-1,-6.80267E-1
5.15686E-1,-7.00134E-1
5.10314E-1,-6.90338E-1
4.63287E-1,-7.82135E-1
3.84552E-1,-8.05511E-1
3.38928E-1,-8.86993E-1
1.63696E-1,-9.38812E-1
0.72052E-1,-8.64959E-1
0.24871E-1,-8.68103E-1
-0.50689E-1,-8.42895E-1
-0.78796E-1,-8.39843E-1
-1.74133E-1,-8.60900E-1
-2.50122E-1,-8.02795E-1
-2.84576E-1,-7.95440E-1
-3.58551E-1,-7.76489E-1
-4.01153E-1,-7.64862E-1
-5.12542E-1,-7.71606E-1
-6.19720E-1,-6.60186E-1
-6.33209E-1,-5.83343E-1
-6.79107E-1,-5.24627E-1
-6.80603E-1,-4.54101E-1
-7.13134E-1,-4.49462E-1
-7.86285E-1,-3.71154E-1
-7.79296E-1,-2.94708E-1
-8.10363E-1,-2.63000E-1
-8.43383E-1,-1.91314E-1
-8.77014E-1,-1.37756E-1
-9.30786E-1,-0.23681E-1
-8.85192E-1,0.96710E-1
-8.60321E-1,1.54724E-1
-8.23242E-1,2.43316E-1
-7.70202E-1,2.76245E-1
-7.69775E-1,3.20648E-1
-7.29766E-1,3.83361E-1
-7.13134E-1,4.10217E-1
-6.99035E-1,4.80682E-1
-6.54663E-1,5.23956E-1
-6.56311E-1,5.79498E-1
-6.12274E-1,6.80938E-1
-5.38940E-1,7.41241E-1
-4.56726E-1,8.11859E-1
-3.41796E-1,8.15948E-1
-3.16162E-1,8.15490E-1
-2.48504E-1,8.83026E-1
-1.48437E-1,8.77685E-1
-1.05163E-1,8.89648E-1
-0.18096E-1,9.03320E-1
0.2771E-1,8.92822E-1
0.99334E-1,9.50225E-1
2.47009E-1,9.42230E-1
3.29132E-1,8.87329E-1
4.17358E-1,8.48175E-1
4.71923E-1,7.68646E-1
5.05920E-1,7.42065E-1
5.82824E-1,6.91009E-1
6.05438E-1,6.30554E-1
6.51611E-1,6.15936E-1
7.15881E-1,5.63598E-1
7.50732E-1,5.21972E-1
8.27606E-1,4.77691E-1
8.82019E-1,3.85437E-1
9.24255E-1,3.12164E-1
9.81903E-1,2.01538E-1
9.65484E-1,0.76263E-1
9.49493E-1,0.04425E-1
9.42535E-1,-0.83587E-1
9.16381E-1,-1.60217E-1
8.98895E-1,-2.42279E-1
8.50189E-1,-3.24279E-1
8.14209E-1,-3.61541E-1
8.03619E-1,-4.22699E-1
7.70080E-1,-4.97131E-1
7.22320E-1,-5.68359E-1
6.59027E-1,-6.39190E-1
5.86547E-1,-6.84143E-1
5.27404E-1,-7.25555E-1
4.55108E-1,-7.69958E-1
3.77410E-1,-7.85919E-1
3.13018E-1,-7.98522E-1
2.44873E-1,-8.11096E-1
1.81488E-1,-8.15551E-1
1.19720E-1,-8.23455E-1
0.54016E-1,-8.24157E-1
-0.01495E-1,-8.14086E-1
-0.49926E-1,-8.16345E-1
-1.18591E-1,-8.17932E-1
-1.92596E-1,-8.06152E-1
-2.68463E-1,-7.78411E-1
-3.22967E-1,-7.36999E-1
-3.59893E-1,-7.08831E-1
-4.07959E-1,-6.84234E-1
-4.59991E-1,-6.49902E-1
-5.05950E-1,-6.09008E-1
-5.44281E-1,-5.60028E-1
-5.70434E-1,-5.22247E-1
-6.09802E-1,-4.98931E-1
-6.57714E-1,-4.5401E-1
-6.93115E-1,-4.04357E-1
-7.31384E-1,-3.45214E-1
-7.52746E-1,-2.76763E-1
-7.67059E-1,-2.22076E-1
-7.82470E-1,-1.62384E-1
-7.91687E-1,-1.03302E-1
-7.99011E-1,-0.36712E-1
-7.86773E-1,0.24810E-1
-7.69561E-1,0.75134E-1
-7.68890E-1,1.06231E-1
-7.83081E-1,1.60827E-1
-7.86499E-1,2.25982E-1
-7.74902E-1,3.05145E-1
-7.37670E-1,3.72100E-1
-7.03369E-1,4.10430E-1
-6.92657E-1,4.62677E-1
-6.59912E-1,5.35614E-1
-6.05102E-1,5.93872E-1
-5.57220E-1,6.33728E-1
-5.07385E-1,6.69128E-1
-4.77264E-1,7.03521E-1
-4.35638E-1,7.66601E-1
-3.67767E-1,8.14758E-1
-2.95166E-1,8.57757E-1
-2.09381E-1,8.87390E-1
-1.35559E-1,9.01641E-1
-0.62927E-1,9.20440E-1
0.30639E-1,9.28283E-1
1.18591E-1,9.10583E-1
1.95404E-1,8.85437E-1
2.65686E-1,8.54278E-1
3.09021E-1,8.25958E-1
3.79211E-1,8.24005E-1
4.50622E-1,7.92694E-1
5.20080E-1,7.55645E-1
5.86120E-1,6.97326E-1
6.26342E-1,6.41693E-1
6.85424E-1,6.03271E-1
7.40142E-1,5.33966E-1
7.79541E-1,4.73419E-1
8.1604E-1,4.02587E-1
8.34838E-1,3.32733E-1
8.5672E-1,2.76062E-1
8.84948E-1,1.91101E-1
8.87725E-1,1.25824E-1
9.08447E-1,0.51452E-1
8.95965E-1,-0.25787E-1
8.98712E-1,-0.83618E-1
8.91418E-1,-1.72851E-1
8.45306E-1,-2.34100E-1
8.36731E-1,-2.89764E-1
8.06366E-1,-3.61358E-1
7.94586E-1,-4.09698E-1
7.73956E-1,-4.98535E-1
7.02056E-1,-5.70190E-1
6.58660E-1,-6.01043E-1
6.01440E-1,-6.63818E-1
5.45013E-1,-6.79321E-1
5.22155E-1,-7.48687E-1
4.16992E-1,-8.15033E-1
3.44085E-1,-7.96722E-1
END
BEGIN
-8.09509E-1,0.38665E-1
-8.31878E-1,1.01623E-1
-7.70965E-1,2.23541E-1
-7.17773E-1,2.08374E-1
-7.87384E-1,2.67181E-1
-7.36663E-1,3.93615E-1
-7.08435E-1,4.38140E-1
-6.55609E-1,5.56854E-1
-5.51269E-1,5.58502E-1
-5.85510E-1,5.76660E-1
-5.35369E-1,7.10540E-1
-4.37988E-1,7.49237E-1
-3.51562E-1,8.18634E-1
-2.16613E-1,8.02612E-1
-2.11334E-1,7.76336E-1
-1.51184E-1,8.66485E-1
-0.34179E-1,8.64288E-1
0.41870E-1,8.86077E-1
1.95587E-1,8.42010E-1
2.06726E-1,7.37152E-1
2.13653E-1,7.78717E-1
3.25073E-1,7.70538E-1
3.70056E-1,7.44049E-1
4.85046E-1,7.30468E-1
5.34820E-1,6.10992E-1
5.19958E-1,6.02813E-1
6.13403E-1,5.94787E-1
6.66870E-1,5.27435E-1
7.53326E-1,4.87396E-1
8.12103E-1,3.38714E-1
7.56988E-1,2.72949E-1
7.96966E-1,2.63244E-1
8.32672E-1,1.93298E-1
8.91967E-1,1.42730E-1
9.35272E-1,-0.28472E-1
8.21868E-1,-1.29089E-1
8.08990E-1,-1.19628E-1
8.35601E-1,-1.89178E-1
8.49731E-1,-2.52044E-1
8.71551E-1,-4.03503E-1
7.20703E-1,-5.22857E-1
6.45782E-1,-4.86755E-1
6.48651E-1,-5.24078E-1
6.24481E-1,-5.69824E-1
6.35803E-1,-6.71997E-1
4.94445E-1,-8.08837E-1
3.68316E-1,-7.59429E-1
3.56811E-1,-7.63732E-1
3.00994E-1,-7.95288E-1
2.84240E-1,-8.39660E-1
1.57470E-1,-9.59503E-1
-0.19805E-1,-8.98529E-1
-0.44952E-1,-8.37554E-1
-0.97198E-1,-8.36853E-1
-1.21826E-1,-8.22387E-1
-1.91467E-1,-8.97644E-1
-3.74633E-1,-8.52813E-1
-4.09637E-1,-7.37487E-1
-4.37591E-1,-7.14233E-1
-4.68200E-1,-6.72241E-1
-5.0E-1,-7.03704E-1
-6.62536E-1,-6.73004E-1
-7.05413E-1,-5.19866E-1
-6.94274E-1,-4.64294E-1
-7.13470E-1,-4.05426E-1
-7.07061E-1,-3.97979E-1
-8.20373E-1,-3.98529E-1
-8.97064E-1,-2.35443E-1
-8.46252E-1,-1.48040E-1
-8.50494E-1,-0.99609E-1
-8.36151E-1,-0.52917E-1
-8.93463E-1,-0.36224E-1
-9.65454E-1,1.19323E-1
-8.81866E-1,2.47985E-1
-8.40362E-1,2.88635E-1
-8.00903E-1,3.54431E-1
-7.77374E-1,3.73809E-1
-8.08227E-1,4.64325E-1
-7.30865E-1,5.92895E-1
-6.43432E-1,6.31622E-1
-5.78826E-1,6.69494E-1
-5.29510E-1,6.74743E-1
-5.30883E-1,7.27020E-1
-4.45159E-1,8.29132E-1
-3.38928E-1,8.41644E-1
-2.67242E-1,8.68866E-1
-1.66046E-1,8.61358E-1
-1.41265E-1,8.36822E-1
-1.05163E-1,8.97399E-1
0.07904E-1,9.19281E-1
0.86639E-1,9.06311E-1
1.84570E-1,8.90167E-1
2.36877E-1,8.35784E-1
2.65441E-1,8.46893E-1
3.64929E-1,8.57910E-1
4.52606E-1,8.21258E-1
5.51483E-1,7.71484E-1
6.02020E-1,6.65191E-1
5.96252E-1,6.31286E-1
6.72515E-1,6.24664E-1
7.49664E-1,5.51330E-1
8.05542E-1,4.81567E-1
8.50158E-1,3.70544E-1
8.22937E-1,2.99591E-1
8.54370E-1,2.78381E-1
9.02252E-1,1.95892E-1
9.16839E-1,1.20361E-1
9.45617E-1,0.12207E-1
8.92334E-1,-0.94909E-1
8.64807E-1,-1.18347E-1
8.89343E-1,-1.87835E-1
8.75946E-1,-2.72796E-1
8.62731E-1,-3.70910E-1
7.72766E-1,-4.72320E-1
6.98638E-1,-4.76776E-1
6.95159E-1,-5.12207E-1
6.61895E-1,-5.86883E-1
6.17034E-1,-6.60736E-1
5.16021E-1,-7.31658E-1
4.23370E-1,-7.1521E-1
4.01519E-1,-7.08099E-1
3.71154E-1,-7.53845E-1
3.09417E-1,-8.03070E-1
2.12921E-1,-8.50219E-1
1.05896E-1,-8.22998E-1
0.76812E-1,-7.88147E-1
0.52276E-1,-8.06304E-1
-0.10711E-1,-8.35235E-1
-1.05011E-1,-8.50341E-1
-2.14019E-1,-7.99926E-1
-2.40356E-1,-7.36267E-1
-2.50824E-1,-7.33001E-1
-3.03375E-1,-7.49176E-1
-3.88702E-1,-7.38494E-1
-4.68170E-1,-6.79290E-1
-4.98321E-1,-6.12335E-1
-5.16540E-1,-5.78247E-1
-5.50781E-1,-5.64636E-1
-6.11938E-1,-5.41015E-1
-6.74133E-1,-4.80468E-1
-7.03094E-1,-4.02465E-1
-7.12829E-1,-3.43719E-1
-7.22503E-1,-3.06091E-1
-7.57720E-1,-2.78076E-1
-8.02337E-1,-2.15881E-1
-8.15551E-1,-1.36047E-1
-8.13079E-1,-0.70251E-1
-8.08349E-1,-0.12268E-1
-8.25439E-1,0.28442E-1
-8.57391E-1,1.05468E-1
-8.46771E-1,1.96075E-1
-8.08319E-1,2.65991E-1
-7.71148E-1,3.18908E-1
-7.45666E-1,3.55072E-1
-7.53082E-1,4.20745E-1
-7.18872E-1,5.12115E-1
-6.67602E-1,5.74157E-1
-6.12731E-1,6.24939E-1
-5.51422E-1,6.57348E-1
-5.16052E-1,6.93054E-1
-4.51293E-1,7.64770E-1
-3.68469E-1,7.97149E-1
-3.07861E-1,8.20709E-1
-2.35443E-1,8.39782E-1
-1.83776E-1,8.32519E-1
-1.36688E-1,8.64318E-1
-0.43060E-1,8.79455E-1
0.26611E-1,8.73168E-1
1.00433E-1,8.74176E-1
1.65588E-1,8.51776E-1
2.12982E-1,8.46191E-1
2.95593E-1,8.38531E-1
3.64776E-1,8.01086E-1
4.33258E-1,7.72186E-1
4.96002E-1,7.24578E-1
5.34454E-1,6.85974E-1
5.92773E-1,6.61590E-1
6.51153E-1,5.99243E-1
6.89819E-1,5.45410E-1
7.38616E-1,4.87793E-1
7.74292E-1,4.24438E-1
8.05511E-1,3.73504E-1
8.42590E-1,3.04534E-1
8.55560E-1,2.37152E-1
8.78051E-1,1.68060E-1
8.89679E-1,0.89447E-1
8.91479E-1,0.16479E-1
8.97522E-1,-0.51422E-1
8.85803E-1,-1.22283E-1
8.73565E-1,-1.83685E-1
8.56262E-1,-2.5177E-1
8.38378E-1,-3.30810E-1
8.04016E-1,-4.01275E-1
7.73925E-1,-4.68597E-1
7.31658E-1,-5.25634E-1
6.90338E-1,-5.69274E-1
6.59057E-1,-6.22131E-1
5.94696E-1,-6.93939E-1
5.22125E-1,-7.45513E-1
4.45220E-1,-7.77252E-1
3.92028E-1,-7.90527E-1
END
BEGIN
-4.33624E-1,-1.29547E-1
-4.54254E-1,-0.79498E-1
-4.64843E-1,-0.30288E-1
-4.71298E-1,0.08636E-1
-4.74548E-1,0.65475E-1
-4.63836E-1,1.20025E-1
-4.55261E-1,1.82067E-1
-4.35272E-1,2.32254E-1
-4.20684E-1,2.79846E-1
-3.93875E-1,3.24508E-1
-3.63021E-1,3.60992E-1
-3.23669E-1,4.03076E-1
-2.80120E-1,4.37011E-1
-2.37289E-1,4.76257E-1
-1.90521E-1,4.97314E-1
-1.41082E-1,5.15747E-1
-0.85418E-1,5.32043E-1
-0.25329E-1,5.40832E-1
0.27740E-1,5.49011E-1
0.86486E-1,5.39062E-1
1.31835E-1,5.26733E-1
1.81457E-1,5.08422E-1
2.33566E-1,4.85656E-1
2.89764E-1,4.49050E-1
3.33587E-1,4.08294E-1
3.69827E-1,3.76373E-1
4.04663E-1,3.28445E-1
4.33197E-1,2.79907E-1
4.61029E-1,2.12112E-1
4.72915E-1,1.59545E-1
4.91500E-1,1.0672E-1
4.97757E-1,0.52352E-1
4.91378E-1,0.08804E-1
4.81704E-1,-0.41702E-1
4.63745E-1,-0.82016E-1
4.50042E-1,-1.43188E-1
4.16564E-1,-1.86157E-1
3.90106E-1,-2.16934E-1
3.68759E-1,-2.50991E-1
3.18481E-1,-2.90161E-1
2.72598E-1,-3.13400E-1
2.30896E-1,-3.29803E-1
1.87423E-1,-3.49395E-1
1.52160E-1,-3.58322E-1
1.02401E-1,-3.78418E-1
0.57495E-1,-3.70407E-1
0.15762E-1,-3.64425E-1
-0.24124E-1,-3.58383E-1
-0.59097E-1,-3.38974E-1
-0.93200E-1,-3.36563E-1
-1.51596E-1,-2.99743E-1
-1.71325E-1,-2.72216E-1
-2.01507E-1,-2.62527E-1
-2.31575E-1,-2.37442E-1
-2.48786E-1,-2.16033E-1
-2.76748E-1,-1.81549E-1
-2.82028E-1,-1.43981E-1
-2.96844E-1,-1.17370E-1
-3.12255E-1,-0.79589E-1
-3.07937E-1,-0.46005E-1
-3.20388E-1,-0.20950E-1
-3.12927E-1,0.35995E-1
-2.95455E-1,0.61172E-1
-3.04077E-1,0.93780E-1
-2.93121E-1,1.35864E-1
-2.84668E-1,1.61331E-1
-2.71240E-1,2.04452E-1
-2.48100E-1,2.22007E-1
-2.34558E-1,2.44957E-1
-2.01950E-1,2.68493E-1
-1.68518E-1,2.71850E-1
-1.43981E-1,3.0336E-1
-0.88134E-1,3.21151E-1
-0.59402E-1,3.25210E-1
-0.28305E-1,3.45916E-1
0.13031E-1,3.44528E-1
0.49453E-1,3.44192E-1
0.99502E-1,3.36334E-1
1.32873E-1,3.29650E-1
1.66992E-1,3.33068E-1
2.02957E-1,3.19488E-1
2.21740E-1,2.88360E-1
2.43713E-1,2.62832E-1
2.75146E-1,2.28698E-1
3.03375E-1,1.9841E-1
3.37768E-1,1.64032E-1
3.49044E-1,1.22146E-1
3.56658E-1,0.96740E-1
3.6586E-1,0.48477E-1
3.67675E-1,0.07888E-1
3.74191E-1,-0.28900E-1
3.71673E-1,-0.68481E-1
3.48297E-1,-0.93902E-1
3.39736E-1,-1.21902E-1
3.19442E-1,-1.65313E-1
2.95852E-1,-2.05566E-1
2.70309E-1,-2.44125E-1
2.36160E-1,-2.64724E-1
2.11181E-1,-2.84820E-1
1.70135E-1,-3.07220E-1
1.37847E-1,-3.25958E-1
1.16226E-1,-3.51364E-1
0.87921E-1,-3.73977E-1
0.60958E-1,-3.62976E-1
0.40634E-1,-3.54980E-1
0.01739E-1,-3.51196E-1
-0.38909E-1,-3.54568E-1
-0.93292E-1,-3.60351E-1
-1.24679E-1,-3.36532E-1
-1.31439E-1,-3.27316E-1
-1.61361E-1,-3.12622E-1
-1.92352E-1,-2.87551E-1
-2.33520E-1,-2.71759E-1
-2.65792E-1,-2.46063E-1
-2.69348E-1,-2.33291E-1
-2.81036E-1,-2.26211E-1
-2.90771E-1,-2.00653E-1
-3.08197E-1,-1.74163E-1
-3.25836E-1,-1.27502E-1
-3.16955E-1,-0.99014E-1
-3.25988E-1,-0.94131E-1
-3.41445E-1,-0.70983E-1
-3.51974E-1,-0.44708E-1
-3.61480E-1,-0.07614E-1
-3.52813E-1,0.16387E-1
-3.57086E-1,0.23361E-1
-3.67523E-1,0.40557E-1
-3.71994E-1,0.66497E-1
-3.7117E-1,0.95764E-1
-3.53530E-1,1.22329E-1
-3.45291E-1,1.27929E-1
-3.49517E-1,1.45996E-1
-3.50143E-1,1.7836E-1
-3.38745E-1,2.15118E-1
-3.21334E-1,2.39379E-1
-3.15994E-1,2.56103E-1
-3.07556E-1,2.81112E-1
-2.99408E-1,3.04992E-1
-2.86071E-1,3.39325E-1
-2.65579E-1,3.61419E-1
-2.52670E-1,3.69781E-1
-2.36099E-1,3.82904E-1
-2.1138E-1,3.92471E-1
-1.89941E-1,4.15710E-1
-1.53839E-1,4.45526E-1
-1.23825E-1,4.55078E-1
-1.04309E-1,4.64370E-1
-0.68634E-1,4.67956E-1
-0.30761E-1,4.78271E-1
0.32760E-1,4.97528E-1
0.73883E-1,4.93606E-1
0.86425E-1,5.03601E-1
1.10290E-1,5.09246E-1
1.34094E-1,4.89318E-1
1.74377E-1,4.83413E-1
2.29919E-1,4.57443E-1
2.61489E-1,4.43801E-1
2.94250E-1,4.39941E-1
3.23791E-1,4.08233E-1
3.45947E-1,3.76098E-1
3.93020E-1,3.32077E-1
4.22775E-1,2.92358E-1
4.57672E-1,2.79251E-1
4.95452E-1,2.50900E-1
4.88998E-1,2.08877E-1
4.93820E-1,1.87179E-1
5.13275E-1,1.28814E-1
5.17425E-1,0.81756E-1
5.33813E-1,0.42694E-1
5.11932E-1,-0.11169E-1
4.79034E-1,-0.28915E-1
4.70199E-1,-0.81039E-1
4.42031E-1,-1.41525E-1
4.33609E-1,-1.91192E-1
4.12704E-1,-2.44705E-1
3.72634E-1,-2.48031E-1
3.65280E-1,-2.57095E-1
3.18328E-1,-2.96539E-1
2.70828E-1,-3.20922E-1
2.34634E-1,-3.58139E-1
1.88095E-1,-3.59787E-1
1.82449E-1,-3.44451E-1
1.42166E-1,-3.53256E-1
0.79849E-1,-3.40072E-1
0.26657E-1,-3.52325E-1
-0.38787E-1,-3.55255E-1
-0.44677E-1,-3.34289E-1
-0.52581E-1,-3.45642E-1
-0.87585E-1,-3.12698E-1
-1.09161E-1,-2.91427E-1
-1.69265E-1,-2.83859E-1
-1.94725E-1,-2.45071E-1
-1.83067E-1,-2.44316E-1
-1.93092E-1,-2.18627E-1
-1.89872E-1,-1.76338E-1
-2.32711E-1,-1.45141E-1
-2.71560E-1,-0.81848E-1
-2.54943E-1,-0.75637E-1
-2.65213E-1,-0.75851E-1
-2.42767E-1,-0.50872E-1
-2.55844E-1,-0.28961E-1
END
