CITIFILE A.01.01
#NA VERSION HP8510C.08.10
NAME DATA
#NA REGISTER 1
VAR FREQ MAG 201
DATA S[1,1] RI
DATA S[2,1] RI
DATA S[1,2] RI
DATA S[2,2] RI
SEG_LIST_BEGIN
SEG 8000000000 12000000000 201
SEG_LIST_END
COMMENT       YEAR MONTH DAY HOUR MINUTE SECONDS
CONSTANT TIME 2013   09   26  20    07    26.0
BEGIN
-4.10217E-1,-2.52212E-1
-4.31778E-1,-2.08053E-1
-4.52804E-1,-1.51657E-1
-4.67727E-1,-1.12106E-1
-4.84756E-1,-0.64865E-1
-4.79232E-1,-0.2211E-1
-4.75036E-1,0.23376E-1
-4.64416E-1,0.71487E-1
-4.65133E-1,1.28311E-1
-4.53460E-1,1.80038E-1
-4.36172E-1,2.14447E-1
-4.07058E-1,2.48916E-1
-3.75091E-1,2.81158E-1
-3.4552E-1,3.33816E-1
-3.06121E-1,3.71994E-1
-2.75634E-1,4.01184E-1
-2.36618E-1,4.20715E-1
-1.94625E-1,4.28619E-1
-1.53854E-1,4.53537E-1
-0.86776E-1,4.70764E-1
-0.40466E-1,4.78561E-1
0.00579E-1,4.82055E-1
0.38314E-1,4.70382E-1
0.80963E-1,4.56817E-1
1.31042E-1,4.41406E-1
1.71997E-1,4.32037E-1
2.11654E-1,4.19128E-1
2.42584E-1,3.99246E-1
2.73590E-1,3.66699E-1
3.00308E-1,3.42132E-1
3.45977E-1,3.10607E-1
3.81897E-1,2.70843E-1
4.01458E-1,2.39929E-1
4.14169E-1,1.99325E-1
4.22561E-1,1.67511E-1
4.49462E-1,1.03836E-1
4.48288E-1,0.50872E-1
4.55215E-1,0.18844E-1
4.58602E-1,-0.15106E-1
4.44625E-1,-0.56640E-1
4.30236E-1,-1.04888E-1
4.05212E-1,-1.46469E-1
3.9711E-1,-1.87805E-1
3.86261E-1,-2.20428E-1
3.66470E-1,-2.52578E-1
3.40744E-1,-2.73529E-1
2.94693E-1,-3.03741E-1
2.62832E-1,-3.26919E-1
2.35275E-1,-3.53790E-1
2.15545E-1,-3.76495E-1
1.73156E-1,-3.85437E-1
1.38076E-1,-3.84262E-1
1.03820E-1,-3.89617E-1
0.64209E-1,-4.03625E-1
0.29800E-1,-4.11651E-1
-0.02792E-1,-4.15603E-1
-0.32012E-1,-4.08355E-1
-0.71197E-1,-3.90136E-1
-1.08352E-1,-3.78006E-1
-1.43890E-1,-3.61801E-1
-1.65130E-1,-3.61755E-1
-1.93573E-1,-3.44268E-1
-2.06481E-1,-3.10302E-1
-2.21649E-1,-2.93304E-1
-2.56698E-1,-2.73941E-1
-2.79617E-1,-2.54425E-1
-3.00811E-1,-2.38906E-1
-3.09219E-1,-2.19802E-1
-3.12835E-1,-1.84295E-1
-3.22662E-1,-1.48956E-1
-3.30322E-1,-1.15387E-1
-3.45077E-1,-1.04888E-1
-3.49990E-1,-0.83313E-1
-3.29895E-1,-0.63919E-1
-3.22372E-1,-0.51605E-1
-3.27056E-1,-0.18295E-1
-3.36959E-1,0.08392E-1
-3.43872E-1,0.30304E-1
-3.46069E-1,0.40756E-1
-3.38073E-1,0.53726E-1
-3.30413E-1,0.86898E-1
-3.05618E-1,1.26495E-1
-3.01086E-1,1.47583E-1
-3.05084E-1,1.70623E-1
-2.91000E-1,1.77124E-1
-2.82486E-1,1.88018E-1
-2.52533E-1,2.17254E-1
-2.31384E-1,2.35611E-1
-2.19467E-1,2.68096E-1
-2.07153E-1,2.86468E-1
-1.97158E-1,2.96508E-1
-1.66107E-1,3.14559E-1
-1.17950E-1,3.14041E-1
-0.97427E-1,3.28201E-1
-0.68557E-1,3.48541E-1
-0.49972E-1,3.50036E-1
-0.31234E-1,3.53302E-1
0.08712E-1,3.43536E-1
0.42892E-1,3.44650E-1
0.90515E-1,3.51135E-1
1.24359E-1,3.50967E-1
1.47277E-1,3.49304E-1
1.91879E-1,3.30566E-1
2.28515E-1,2.79007E-1
2.64679E-1,2.47390E-1
3.04931E-1,2.20077E-1
3.20709E-1,1.93985E-1
3.3638E-1,1.65252E-1
3.36761E-1,1.07208E-1
3.42163E-1,0.61615E-1
3.64822E-1,0.09170E-1
3.72589E-1,-0.30075E-1
3.74725E-1,-0.55648E-1
3.60214E-1,-1.01028E-1
3.24050E-1,-1.54373E-1
2.98324E-1,-2.12295E-1
2.77145E-1,-2.60696E-1
2.61779E-1,-2.87765E-1
2.28546E-1,-3.10424E-1
1.72744E-1,-3.16726E-1
1.26144E-1,-3.43521E-1
0.71777E-1,-3.78814E-1
0.38497E-1,-4.00939E-1
0.09872E-1,-4.09118E-1
-0.32989E-1,-4.00131E-1
-0.92147E-1,-3.90991E-1
-1.66458E-1,-3.82202E-1
-2.14325E-1,-3.74771E-1
-2.47894E-1,-3.70040E-1
-2.79754E-1,-3.40667E-1
-3.08792E-1,-2.92221E-1
-3.60748E-1,-2.45224E-1
-4.00817E-1,-2.06924E-1
-4.27154E-1,-1.89697E-1
-4.43023E-1,-1.63970E-1
-4.45571E-1,-1.12793E-1
-4.58740E-1,-0.48034E-1
-4.75448E-1,0.23498E-1
-4.91714E-1,0.58166E-1
-5.00762E-1,0.85266E-1
-4.82589E-1,1.21276E-1
-4.46014E-1,1.78314E-1
-4.12765E-1,2.48931E-1
-3.98132E-1,2.99163E-1
-3.96759E-1,3.32672E-1
-3.77487E-1,3.50631E-1
-3.28689E-1,3.68225E-1
-2.69561E-1,4.00161E-1
-2.11837E-1,4.48303E-1
-1.88461E-1,4.76059E-1
-1.83136E-1,4.9617E-1
-1.53579E-1,4.98733E-1
-0.85083E-1,4.89624E-1
-0.06027E-1,4.86801E-1
0.53512E-1,4.92919E-1
0.80749E-1,5.10284E-1
1.06262E-1,5.15838E-1
1.43844E-1,4.79721E-1
1.81594E-1,4.35714E-1
2.38311E-1,4.07379E-1
2.79281E-1,3.91082E-1
3.07937E-1,3.99185E-1
3.36334E-1,3.74023E-1
3.5495E-1,3.18313E-1
3.82339E-1,2.60055E-1
4.18655E-1,2.06863E-1
4.44366E-1,1.72332E-1
4.59304E-1,1.42364E-1
4.47143E-1,0.91064E-1
4.19479E-1,0.40817E-1
4.15374E-1,-0.13763E-1
4.06982E-1,-0.56747E-1
4.14932E-1,-0.71411E-1
4.06173E-1,-0.98709E-1
3.69293E-1,-1.26113E-1
3.40698E-1,-1.69967E-1
3.09799E-1,-2.22503E-1
3.00354E-1,-2.48001E-1
2.96340E-1,-2.73468E-1
2.57736E-1,-2.80517E-1
2.13409E-1,-2.78564E-1
1.60125E-1,-3.04977E-1
1.17019E-1,-3.21472E-1
1.16943E-1,-3.47396E-1
1.01928E-1,-3.55575E-1
0.83831E-1,-3.31039E-1
0.43777E-1,-3.25943E-1
-0.27084E-1,-3.25241E-1
-0.65704E-1,-3.36975E-1
-0.92025E-1,-3.60473E-1
-1.00387E-1,-3.45245E-1
-1.01715E-1,-3.21716E-1
-1.56326E-1,-2.87200E-1
-2.02247E-1,-2.35939E-1
-2.32101E-1,-2.42981E-1
-2.52594E-1,-2.45010E-1
-2.31781E-1,-2.3629E-1
-2.39593E-1,-2.17224E-1
-2.72247E-1,-1.42715E-1
-2.86682E-1,-1.05346E-1
-3.25195E-1,-0.97595E-1
END
BEGIN
-9.20349E-1,0.29296E-1
-8.51867E-1,1.26464E-1
-8.55590E-1,1.67663E-1
-8.48846E-1,2.99804E-1
-7.85644E-1,3.74786E-1
-7.46978E-1,4.76165E-1
-6.19934E-1,5.38177E-1
-5.72296E-1,5.12634E-1
-5.69183E-1,5.69091E-1
-5.10559E-1,6.17431E-1
-4.79736E-1,6.74011E-1
-3.68347E-1,7.29797E-1
-3.16070E-1,6.91528E-1
-3.25897E-1,7.48901E-1
-2.22076E-1,8.19915E-1
-1.54968E-1,8.31024E-1
-0.43212E-1,8.74450E-1
0.55358E-1,8.04840E-1
0.49346E-1,8.00537E-1
1.37420E-1,8.51104E-1
2.17224E-1,8.33984E-1
3.14178E-1,8.63586E-1
4.53949E-1,7.82348E-1
4.68780E-1,7.16583E-1
5.58715E-1,7.15606E-1
6.39007E-1,6.17370E-1
6.86096E-1,5.7901E-1
7.88299E-1,4.57458E-1
7.35076E-1,3.25744E-1
7.16247E-1,3.22876E-1
7.47955E-1,2.67883E-1
7.47436E-1,2.41333E-1
8.22906E-1,1.94244E-1
8.06335E-1,0.75531E-1
7.84301E-1,0.77697E-1
8.62457E-1,0.42236E-1
8.98712E-1,-0.48004E-1
9.67163E-1,-1.59698E-1
9.13970E-1,-3.66424E-1
7.86254E-1,-3.99139E-1
7.96600E-1,-4.38842E-1
7.36999E-1,-5.38818E-1
6.98852E-1,-5.79101E-1
6.43158E-1,-6.97662E-1
5.06591E-1,-7.09289E-1
5.07202E-1,-7.02148E-1
4.56726E-1,-7.96173E-1
3.78875E-1,-8.17810E-1
3.30291E-1,-9.04937E-1
1.46270E-1,-9.49646E-1
0.61859E-1,-8.70849E-1
0.15228E-1,-8.75396E-1
-0.60363E-1,-8.47686E-1
-0.85113E-1,-8.48510E-1
-1.86889E-1,-8.69354E-1
-2.59643E-1,-8.08013E-1
-2.93884E-1,-8.03833E-1
-3.69751E-1,-7.84423E-1
-4.12475E-1,-7.76306E-1
-5.33874E-1,-7.85766E-1
-6.44531E-1,-6.63238E-1
-6.54052E-1,-5.83740E-1
-7.00622E-1,-5.21057E-1
-6.96106E-1,-4.50195E-1
-7.31781E-1,-4.50439E-1
-8.08868E-1,-3.65936E-1
-7.96936E-1,-2.87841E-1
-8.30108E-1,-2.57537E-1
-8.63616E-1,-1.81335E-1
-8.99353E-1,-1.28845E-1
-9.55108E-1,-0.05645E-1
-9.02679E-1,1.19293E-1
-8.74511E-1,1.77368E-1
-8.33557E-1,2.67150E-1
-7.77557E-1,2.98339E-1
-7.76245E-1,3.44848E-1
-7.32055E-1,4.05761E-1
-7.17041E-1,4.32342E-1
-7.00439E-1,5.05127E-1
-6.54846E-1,5.46905E-1
-6.54907E-1,6.04827E-1
-6.05346E-1,7.06481E-1
-5.29205E-1,7.65106E-1
-4.43298E-1,8.33740E-1
-3.27850E-1,8.33618E-1
-3.03100E-1,8.34747E-1
-2.30255E-1,9.00665E-1
-1.31408E-1,8.90258E-1
-0.88195E-1,9.03930E-1
0.00885E-1,9.15252E-1
0.45837E-1,9.04449E-1
1.24511E-1,9.62066E-1
2.72155E-1,9.45587E-1
3.49914E-1,8.90380E-1
4.38659E-1,8.48785E-1
4.89257E-1,7.68371E-1
5.25451E-1,7.43255E-1
6.01837E-1,6.88781E-1
6.21643E-1,6.30035E-1
6.72180E-1,6.15325E-1
7.36114E-1,5.60699E-1
7.71911E-1,5.20172E-1
8.53118E-1,4.73571E-1
9.05822E-1,3.76220E-1
9.49829E-1,3.01452E-1
1.00616E0,1.82495E-1
9.82513E-1,0.56579E-1
9.65179E-1,-0.14129E-1
9.56512E-1,-1.03118E-1
9.28558E-1,-1.80084E-1
9.09454E-1,-2.63732E-1
8.56323E-1,-3.45733E-1
8.20831E-1,-3.80371E-1
8.12072E-1,-4.43512E-1
7.76702E-1,-5.20843E-1
7.26898E-1,-5.93658E-1
6.59362E-1,-6.66290E-1
5.84045E-1,-7.08313E-1
5.24719E-1,-7.50030E-1
4.47082E-1,-7.94616E-1
3.69323E-1,-8.06701E-1
3.05999E-1,-8.20129E-1
2.34497E-1,-8.31115E-1
1.71569E-1,-8.34167E-1
1.08551E-1,-8.42193E-1
0.42297E-1,-8.41735E-1
-0.12847E-1,-8.34137E-1
-0.64666E-1,-8.38226E-1
-1.362E-1,-8.39813E-1
-2.14965E-1,-8.26721E-1
-2.92694E-1,-7.93151E-1
-3.46557E-1,-7.50518E-1
-3.85406E-1,-7.23571E-1
-4.35211E-1,-6.96319E-1
-4.89746E-1,-6.59759E-1
-5.38085E-1,-6.13067E-1
-5.74188E-1,-5.61920E-1
-6.00280E-1,-5.25421E-1
-6.43524E-1,-4.98687E-1
-6.92596E-1,-4.49676E-1
-7.29797E-1,-3.96087E-1
-7.66235E-1,-3.31878E-1
-7.85430E-1,-2.60345E-1
-7.99285E-1,-2.01812E-1
-8.11554E-1,-1.39221E-1
-8.20404E-1,-0.75958E-1
-8.23120E-1,-0.04699E-1
-8.05786E-1,0.55694E-1
-7.86743E-1,1.07147E-1
-7.84088E-1,1.38885E-1
-7.96417E-1,1.96807E-1
-7.97393E-1,2.65930E-1
-7.78686E-1,3.45489E-1
-7.37548E-1,4.11712E-1
-7.00134E-1,4.48638E-1
-6.87591E-1,4.99664E-1
-6.49780E-1,5.73577E-1
-5.89294E-1,6.29608E-1
-5.40893E-1,6.67572E-1
-4.87854E-1,7.00592E-1
-4.56634E-1,7.34832E-1
-4.11956E-1,7.99346E-1
-3.38317E-1,8.43994E-1
-2.61749E-1,8.82171E-1
-1.73858E-1,9.07379E-1
-0.98602E-1,9.16809E-1
-0.27252E-1,9.31976E-1
0.66772E-1,9.36279E-1
1.53167E-1,9.14642E-1
2.27783E-1,8.87115E-1
2.97485E-1,8.53546E-1
3.38806E-1,8.24890E-1
4.11193E-1,8.21075E-1
4.82788E-1,7.87384E-1
5.51422E-1,7.4823E-1
6.15356E-1,6.85943E-1
6.55151E-1,6.30310E-1
7.13439E-1,5.89050E-1
7.65686E-1,5.17608E-1
8.04412E-1,4.56237E-1
8.39782E-1,3.83789E-1
8.56018E-1,3.14117E-1
8.78845E-1,2.56195E-1
9.04724E-1,1.67968E-1
9.06616E-1,1.03759E-1
9.26025E-1,0.23620E-1
9.10430E-1,-0.53344E-1
9.13665E-1,-1.12152E-1
9.01886E-1,-2.04681E-1
8.53393E-1,-2.61962E-1
8.45855E-1,-3.18634E-1
8.12408E-1,-3.90777E-1
8.02948E-1,-4.41101E-1
7.79754E-1,-5.37231E-1
7.00592E-1,-6.07727E-1
6.55792E-1,-6.39679E-1
5.92468E-1,-7.02789E-1
5.36987E-1,-7.13928E-1
5.11474E-1,-7.90222E-1
3.94866E-1,-8.53759E-1
3.20861E-1,-8.31665E-1
END
BEGIN
-8.21044E-1,0.39733E-1
-8.45031E-1,1.04583E-1
-7.83264E-1,2.28881E-1
-7.30590E-1,2.14904E-1
-8.00964E-1,2.76489E-1
-7.48565E-1,4.05242E-1
-7.19787E-1,4.5224E-1
-6.65771E-1,5.73730E-1
-5.57983E-1,5.76721E-1
-5.90484E-1,5.94543E-1
-5.38970E-1,7.30285E-1
-4.39209E-1,7.70141E-1
-3.50799E-1,8.40087E-1
-2.11181E-1,8.23883E-1
-2.03399E-1,7.96051E-1
-1.42242E-1,8.85437E-1
-0.21240E-1,8.82965E-1
0.57128E-1,9.03564E-1
2.14355E-1,8.58154E-1
2.27478E-1,7.49023E-1
2.34161E-1,7.87353E-1
3.46405E-1,7.78686E-1
3.92334E-1,7.49206E-1
5.09735E-1,7.33429E-1
5.59051E-1,6.10046E-1
5.42816E-1,5.98724E-1
6.36108E-1,5.88714E-1
6.88201E-1,5.18524E-1
7.73468E-1,4.76532E-1
8.31359E-1,3.22265E-1
7.71026E-1,2.55096E-1
8.08136E-1,2.45086E-1
8.43566E-1,1.75567E-1
9.00695E-1,1.25122E-1
9.43298E-1,-0.49438E-1
8.21563E-1,-1.49231E-1
8.08044E-1,-1.35284E-1
8.36029E-1,-2.03582E-1
8.51287E-1,-2.66479E-1
8.71856E-1,-4.22210E-1
7.13256E-1,-5.39672E-1
6.39343E-1,-4.98199E-1
6.44592E-1,-5.34393E-1
6.21582E-1,-5.78582E-1
6.33667E-1,-6.85272E-1
4.85046E-1,-8.23120E-1
3.59802E-1,-7.66876E-1
3.52264E-1,-7.71301E-1
2.96691E-1,-8.03253E-1
2.80639E-1,-8.50952E-1
1.47949E-1,-9.72961E-1
-0.31097E-1,-9.05761E-1
-0.53039E-1,-8.44512E-1
-1.05285E-1,-8.44787E-1
-1.28997E-1,-8.31634E-1
-2.01324E-1,-9.08660E-1
-3.88397E-1,-8.59649E-1
-4.21508E-1,-7.43652E-1
-4.49859E-1,-7.20428E-1
-4.80163E-1,-6.79138E-1
-5.16449E-1,-7.12036E-1
-6.81579E-1,-6.79962E-1
-7.24517E-1,-5.21728E-1
-7.13623E-1,-4.65423E-1
-7.32605E-1,-4.04266E-1
-7.26776E-1,-3.95172E-1
-8.41156E-1,-3.95141E-1
-9.18701E-1,-2.29248E-1
-8.66455E-1,-1.38397E-1
-8.70300E-1,-0.87524E-1
-8.55468E-1,-0.38147E-1
-9.10736E-1,-0.19470E-1
-9.82513E-1,1.35467E-1
-8.98773E-1,2.70111E-1
-8.54034E-1,3.14575E-1
-8.10455E-1,3.82568E-1
-7.81066E-1,4.01733E-1
-8.10607E-1,4.89288E-1
-7.33551E-1,6.20025E-1
-6.40899E-1,6.61987E-1
-5.71350E-1,6.98608E-1
-5.16540E-1,6.98730E-1
-5.19439E-1,7.47070E-1
-4.34783E-1,8.51287E-1
-3.24401E-1,8.63372E-1
-2.50335E-1,8.88885E-1
-1.42364E-1,8.77502E-1
-1.19598E-1,8.45489E-1
-0.87097E-1,9.05090E-1
0.27038E-1,9.27856E-1
1.05835E-1,9.13696E-1
2.06359E-1,8.95111E-1
2.56134E-1,8.36181E-1
2.80914E-1,8.49151E-1
3.81408E-1,8.61999E-1
4.72503E-1,8.24707E-1
5.74310E-1,7.72094E-1
6.22222E-1,6.59820E-1
6.11877E-1,6.27349E-1
6.90551E-1,6.21124E-1
7.67456E-1,5.45501E-1
8.25286E-1,4.73449E-1
8.67279E-1,3.58398E-1
8.35052E-1,2.89703E-1
8.70025E-1,2.69897E-1
9.18731E-1,1.84173E-1
9.33075E-1,1.07666E-1
9.61242E-1,-0.04913E-1
9.01458E-1,-1.10199E-1
8.76464E-1,-1.32232E-1
9.02099E-1,-2.05322E-1
8.86077E-1,-2.91870E-1
8.70636E-1,-3.91662E-1
7.75054E-1,-4.90722E-1
7.02758E-1,-4.92187E-1
7.01293E-1,-5.30700E-1
6.65466E-1,-6.06628E-1
6.17950E-1,-6.81976E-1
5.14984E-1,-7.52197E-1
4.22882E-1,-7.34314E-1
4.01763E-1,-7.29644E-1
3.68103E-1,-7.77801E-1
3.03680E-1,-8.26812E-1
2.04711E-1,-8.72863E-1
0.95794E-1,-8.44696E-1
0.65765E-1,-8.09143E-1
0.39886E-1,-8.27606E-1
-0.26245E-1,-8.55621E-1
-1.21032E-1,-8.69781E-1
-2.32696E-1,-8.18573E-1
-2.61779E-1,-7.53570E-1
-2.73498E-1,-7.48413E-1
-3.28857E-1,-7.65014E-1
-4.15557E-1,-7.50305E-1
-4.96734E-1,-6.89514E-1
-5.29571E-1,-6.19873E-1
-5.48522E-1,-5.81817E-1
-5.81604E-1,-5.66864E-1
-6.44378E-1,-5.39642E-1
-7.06512E-1,-4.76593E-1
-7.35961E-1,-3.95660E-1
-7.44995E-1,-3.32061E-1
-7.53112E-1,-2.92053E-1
-7.89154E-1,-2.62756E-1
-8.32275E-1,-1.96594E-1
-8.45306E-1,-1.13861E-1
-8.41247E-1,-0.43609E-1
-8.32305E-1,0.17669E-1
-8.47595E-1,0.61859E-1
-8.74939E-1,1.42547E-1
-8.61358E-1,2.33581E-1
-8.19458E-1,3.05542E-1
-7.77221E-1,3.59466E-1
-7.47406E-1,3.94592E-1
-7.51098E-1,4.61059E-1
-7.12341E-1,5.513E-1
-6.58569E-1,6.13342E-1
-5.98602E-1,6.63787E-1
-5.33111E-1,6.93420E-1
-4.95208E-1,7.28088E-1
-4.26666E-1,7.96508E-1
-3.40545E-1,8.26843E-1
-2.77038E-1,8.48297E-1
-2.00714E-1,8.62060E-1
-1.49200E-1,8.49517E-1
-1.01196E-1,8.79760E-1
-0.08270E-1,8.89648E-1
0.61370E-1,8.79577E-1
1.33911E-1,8.78082E-1
1.97296E-1,8.53729E-1
2.44995E-1,8.46466E-1
3.27728E-1,8.35571E-1
3.95568E-1,7.96447E-1
4.63623E-1,7.65411E-1
5.24322E-1,7.15454E-1
5.61279E-1,6.77032E-1
6.21337E-1,6.49475E-1
6.76269E-1,5.84899E-1
7.14813E-1,5.32165E-1
7.61688E-1,4.72137E-1
7.97210E-1,4.08508E-1
8.28308E-1,3.55896E-1
8.63281E-1,2.83905E-1
8.75610E-1,2.16339E-1
8.98590E-1,1.44287E-1
9.07897E-1,0.64453E-1
9.08355E-1,-0.10345E-1
9.11773E-1,-0.81939E-1
8.96392E-1,-1.52069E-1
8.83331E-1,-2.13531E-1
8.63861E-1,-2.83447E-1
8.44757E-1,-3.62945E-1
8.08441E-1,-4.34967E-1
7.73895E-1,-5.0354E-1
7.30133E-1,-5.59875E-1
6.86523E-1,-6.06201E-1
6.51062E-1,-6.5979E-1
5.84106E-1,-7.29827E-1
5.06958E-1,-7.81189E-1
4.27490E-1,-8.09051E-1
3.72100E-1,-8.24127E-1
END
BEGIN
-4.60617E-1,-1.29196E-1
-4.80987E-1,-0.77560E-1
-4.90951E-1,-0.25939E-1
-4.97039E-1,0.15029E-1
-4.98168E-1,0.75851E-1
-4.84298E-1,1.32446E-1
-4.73190E-1,1.97448E-1
-4.51095E-1,2.48870E-1
-4.35424E-1,2.99224E-1
-4.05380E-1,3.45123E-1
-3.71688E-1,3.80920E-1
-3.29727E-1,4.21142E-1
-2.84881E-1,4.52896E-1
-2.40356E-1,4.92416E-1
-1.90155E-1,5.13000E-1
-1.37756E-1,5.30120E-1
-0.80596E-1,5.43548E-1
-0.19958E-1,5.49163E-1
0.33844E-1,5.56152E-1
0.93627E-1,5.44281E-1
1.40350E-1,5.29876E-1
1.89849E-1,5.08178E-1
2.41027E-1,4.82208E-1
2.95211E-1,4.42627E-1
3.38882E-1,3.98956E-1
3.75335E-1,3.64273E-1
4.10003E-1,3.12316E-1
4.36752E-1,2.60086E-1
4.61837E-1,1.90094E-1
4.72000E-1,1.36779E-1
4.89669E-1,0.81329E-1
4.94705E-1,0.24200E-1
4.87365E-1,-0.20309E-1
4.76181E-1,-0.69793E-1
4.57824E-1,-1.07589E-1
4.41528E-1,-1.67358E-1
4.07974E-1,-2.08648E-1
3.79913E-1,-2.39883E-1
3.56353E-1,-2.74383E-1
3.03390E-1,-3.11492E-1
2.56378E-1,-3.33404E-1
2.13668E-1,-3.49212E-1
1.67541E-1,-3.70178E-1
1.30401E-1,-3.80020E-1
0.77606E-1,-3.99215E-1
0.33096E-1,-3.90762E-1
-0.08728E-1,-3.83728E-1
-0.49865E-1,-3.77243E-1
-0.87478E-1,-3.55972E-1
-1.24862E-1,-3.52203E-1
-1.84845E-1,-3.10272E-1
-2.04269E-1,-2.81356E-1
-2.36084E-1,-2.71011E-1
-2.69012E-1,-2.43133E-1
-2.87353E-1,-2.19314E-1
-3.17184E-1,-1.81274E-1
-3.20816E-1,-1.42425E-1
-3.35113E-1,-1.15448E-1
-3.49746E-1,-0.75836E-1
-3.43200E-1,-0.39779E-1
-3.55636E-1,-0.11962E-1
-3.43704E-1,0.49865E-1
-3.23547E-1,0.74844E-1
-3.32229E-1,1.10076E-1
-3.18634E-1,1.55471E-1
-3.08517E-1,1.82708E-1
-2.91717E-1,2.28759E-1
-2.66037E-1,2.45575E-1
-2.50946E-1,2.67227E-1
-2.16644E-1,2.88986E-1
-1.80618E-1,2.89535E-1
-1.52313E-1,3.21548E-1
-0.88638E-1,3.36105E-1
-0.57357E-1,3.35922E-1
-0.24017E-1,3.55651E-1
0.20141E-1,3.51699E-1
0.59753E-1,3.4935E-1
1.12335E-1,3.36853E-1
1.45523E-1,3.27880E-1
1.80084E-1,3.30093E-1
2.14691E-1,3.15200E-1
2.30560E-1,2.82470E-1
2.51251E-1,2.54501E-1
2.80029E-1,2.15484E-1
3.05709E-1,1.82434E-1
3.37204E-1,1.45629E-1
3.46023E-1,1.02539E-1
3.53683E-1,0.75302E-1
3.60000E-1,0.26046E-1
3.59680E-1,-0.15121E-1
3.64471E-1,-0.52795E-1
3.60321E-1,-0.91629E-1
3.36746E-1,-1.14288E-1
3.25683E-1,-1.42654E-1
3.01879E-1,-1.85623E-1
2.75100E-1,-2.24777E-1
2.47253E-1,-2.64251E-1
2.10968E-1,-2.85202E-1
1.84112E-1,-3.06274E-1
1.41372E-1,-3.28399E-1
1.07467E-1,-3.47656E-1
0.85754E-1,-3.73794E-1
0.56518E-1,-3.98025E-1
0.31265E-1,-3.85635E-1
0.12680E-1,-3.78433E-1
-0.27923E-1,-3.73870E-1
-0.70236E-1,-3.75076E-1
-1.27105E-1,-3.78295E-1
-1.59988E-1,-3.51684E-1
-1.68151E-1,-3.42758E-1
-2.01797E-1,-3.27270E-1
-2.34420E-1,-2.99133E-1
-2.77465E-1,-2.80685E-1
-3.11401E-1,-2.52761E-1
-3.15918E-1,-2.39486E-1
-3.29818E-1,-2.32391E-1
-3.41049E-1,-2.04284E-1
-3.57605E-1,-1.74682E-1
-3.73870E-1,-1.23382E-1
-3.62381E-1,-0.92193E-1
-3.73657E-1,-0.85830E-1
-3.91433E-1,-0.57998E-1
-4.00985E-1,-0.27282E-1
-4.08279E-1,0.13641E-1
-3.98254E-1,0.40954E-1
-4.02130E-1,0.50659E-1
-4.13787E-1,0.71487E-1
-4.17251E-1,1.00967E-1
-4.14016E-1,1.31561E-1
-3.92974E-1,1.58721E-1
-3.81362E-1,1.64123E-1
-3.83560E-1,1.83654E-1
-3.81439E-1,2.20611E-1
-3.6586E-1,2.59704E-1
-3.44757E-1,2.83859E-1
-3.36425E-1,2.99743E-1
-3.24325E-1,3.25531E-1
-3.13644E-1,3.50616E-1
-2.96783E-1,3.86993E-1
-2.73590E-1,4.08004E-1
-2.59155E-1,4.14215E-1
-2.41882E-1,4.24987E-1
-2.15347E-1,4.30587E-1
-1.92031E-1,4.53781E-1
-1.50741E-1,4.81445E-1
-1.17431E-1,4.88006E-1
-0.94650E-1,4.95513E-1
-0.55969E-1,4.96154E-1
-0.15380E-1,5.04913E-1
0.54687E-1,5.19805E-1
0.96710E-1,5.12420E-1
1.10565E-1,5.20996E-1
1.34582E-1,5.24810E-1
1.55944E-1,5.02899E-1
1.96807E-1,4.94537E-1
2.51571E-1,4.61700E-1
2.82821E-1,4.44427E-1
3.16467E-1,4.36355E-1
3.45062E-1,4.00543E-1
3.66836E-1,3.64730E-1
4.11941E-1,3.13858E-1
4.38903E-1,2.71865E-1
4.73739E-1,2.56012E-1
5.112E-1,2.24914E-1
5.01739E-1,1.84112E-1
5.05767E-1,1.63787E-1
5.21575E-1,1.05865E-1
5.21057E-1,0.59295E-1
5.33233E-1,0.20233E-1
5.06591E-1,-0.32684E-1
4.70642E-1,-0.49484E-1
4.58450E-1,-1.03424E-1
4.24987E-1,-1.64535E-1
4.12414E-1,-2.15942E-1
3.87069E-1,-2.69455E-1
3.46267E-1,-2.71286E-1
3.38165E-1,-2.82440E-1
2.88742E-1,-3.20449E-1
2.39303E-1,-3.42758E-1
1.98394E-1,-3.77655E-1
1.50589E-1,-3.73977E-1
1.4534E-1,-3.58078E-1
1.00174E-1,-3.64242E-1
0.34698E-1,-3.46450E-1
-0.22689E-1,-3.55529E-1
-0.91796E-1,-3.52447E-1
-0.95932E-1,-3.29940E-1
-1.08688E-1,-3.41171E-1
-1.43493E-1,-3.04504E-1
-1.63925E-1,-2.82379E-1
-2.23938E-1,-2.69073E-1
-2.44171E-1,-2.26432E-1
-2.31369E-1,-2.24014E-1
-2.39906E-1,-1.92390E-1
-2.33070E-1,-1.46995E-1
-2.75054E-1,-1.10290E-1
-3.06976E-1,-0.39962E-1
-2.86987E-1,-0.34072E-1
-2.95654E-1,-0.29220E-1
-2.69165E-1,-0.03479E-1
-2.82974E-1,0.19866E-1
END
