CITIFILE A.01.01
#NA VERSION HP8510C.08.10
NAME DATA
#NA REGISTER 1
VAR FREQ MAG 201
DATA S[1,1] RI
DATA S[2,1] RI
DATA S[1,2] RI
DATA S[2,2] RI
SEG_LIST_BEGIN
SEG 8000000000 12000000000 201
SEG_LIST_END
COMMENT       YEAR MONTH DAY HOUR MINUTE SECONDS
CONSTANT TIME 2013   09   26  20    11    02.0
BEGIN
-4.29306E-1,-2.14111E-1
-4.47067E-1,-1.66763E-1
-4.65652E-1,-1.08184E-1
-4.77630E-1,-0.65063E-1
-4.89898E-1,-0.16738E-1
-4.79629E-1,0.26321E-1
-4.70138E-1,0.72738E-1
-4.54330E-1,1.21795E-1
-4.49264E-1,1.80099E-1
-4.31533E-1,2.29797E-1
-4.10064E-1,2.60009E-1
-3.77014E-1,2.91153E-1
-3.40896E-1,3.20480E-1
-3.06961E-1,3.70636E-1
-2.63809E-1,4.06112E-1
-2.32055E-1,4.30389E-1
-1.90948E-1,4.44854E-1
-1.46667E-1,4.46975E-1
-1.03714E-1,4.66918E-1
-0.34698E-1,4.78988E-1
0.10650E-1,4.82559E-1
0.50262E-1,4.81460E-1
0.86883E-1,4.64813E-1
1.27990E-1,4.46701E-1
1.77627E-1,4.27078E-1
2.18795E-1,4.13452E-1
2.57186E-1,3.96881E-1
2.85202E-1,3.73474E-1
3.11599E-1,3.35235E-1
3.35159E-1,3.05908E-1
3.77288E-1,2.69195E-1
4.08111E-1,2.26211E-1
4.22744E-1,1.93969E-1
4.28772E-1,1.52267E-1
4.31121E-1,1.21246E-1
4.52072E-1,0.57632E-1
4.46350E-1,0.04852E-1
4.49646E-1,-0.26611E-1
4.50988E-1,-0.59951E-1
4.31060E-1,-1.00036E-1
4.11911E-1,-1.45889E-1
3.82812E-1,-1.86248E-1
3.69979E-1,-2.25494E-1
3.56277E-1,-2.56744E-1
3.31771E-1,-2.85751E-1
3.03482E-1,-3.01574E-1
2.54211E-1,-3.27819E-1
2.19970E-1,-3.46862E-1
1.92077E-1,-3.70773E-1
1.69021E-1,-3.92608E-1
1.25122E-1,-3.95309E-1
0.88455E-1,-3.89495E-1
0.52078E-1,-3.89267E-1
0.12863E-1,-3.99215E-1
-0.23376E-1,-4.02877E-1
-0.54901E-1,-4.01016E-1
-0.82351E-1,-3.88977E-1
-1.19278E-1,-3.64822E-1
-1.54174E-1,-3.48220E-1
-1.87591E-1,-3.29879E-1
-2.08984E-1,-3.25286E-1
-2.33673E-1,-3.03482E-1
-2.45361E-1,-2.66372E-1
-2.55264E-1,-2.43667E-1
-2.85812E-1,-2.20489E-1
-3.05175E-1,-1.97357E-1
-3.20358E-1,-1.78237E-1
-3.23837E-1,-1.58493E-1
-3.21197E-1,-1.20849E-1
-3.24356E-1,-0.86303E-1
-3.28002E-1,-0.53512E-1
-3.38668E-1,-0.40222E-1
-3.38562E-1,-0.19668E-1
-3.13827E-1,-0.00762E-1
-3.00643E-1,0.11062E-1
-2.99453E-1,0.42846E-1
-3.02673E-1,0.69671E-1
-3.03390E-1,0.86364E-1
-3.01803E-1,0.94070E-1
-2.87490E-1,1.03195E-1
-2.73666E-1,1.30294E-1
-2.46933E-1,1.63017E-1
-2.39296E-1,1.78878E-1
-2.42332E-1,1.97898E-1
-2.26882E-1,1.98356E-1
-2.16163E-1,2.03193E-1
-1.84440E-1,2.25227E-1
-1.61674E-1,2.38113E-1
-1.51779E-1,2.63244E-1
-1.40655E-1,2.77282E-1
-1.31332E-1,2.79830E-1
-1.03759E-1,2.90191E-1
-0.58929E-1,2.85049E-1
-0.40115E-1,2.93487E-1
-0.15792E-1,3.11157E-1
0.00045E-1,3.09906E-1
0.15930E-1,3.08929E-1
0.52841E-1,2.94723E-1
0.82611E-1,2.87750E-1
1.22680E-1,2.90100E-1
1.50146E-1,2.87185E-1
1.65557E-1,2.8302E-1
2.02255E-1,2.63031E-1
2.31102E-1,2.11731E-1
2.59613E-1,1.80999E-1
2.94708E-1,1.56051E-1
3.05572E-1,1.32141E-1
3.15017E-1,1.0466E-1
3.10241E-1,0.48919E-1
3.08944E-1,0.03952E-1
3.25866E-1,-0.45242E-1
3.29513E-1,-0.80658E-1
3.25927E-1,-1.01226E-1
3.06564E-1,-1.41204E-1
2.64007E-1,-1.89926E-1
2.34397E-1,-2.40272E-1
2.11608E-1,-2.83371E-1
1.94152E-1,-3.04168E-1
1.60903E-1,-3.19152E-1
1.04324E-1,-3.20266E-1
0.54809E-1,-3.40362E-1
0.00991E-1,-3.68301E-1
-0.33538E-1,-3.85147E-1
-0.60058E-1,-3.85345E-1
-1.00799E-1,-3.69995E-1
-1.59057E-1,-3.51944E-1
-2.27600E-1,-3.34243E-1
-2.70645E-1,-3.23547E-1
-3.00430E-1,-3.13156E-1
-3.26248E-1,-2.79876E-1
-3.50524E-1,-2.27233E-1
-3.94699E-1,-1.74575E-1
-4.29763E-1,-1.35849E-1
-4.51751E-1,-1.14059E-1
-4.61013E-1,-0.85891E-1
-4.56878E-1,-0.34576E-1
-4.62127E-1,0.33508E-1
-4.69650E-1,1.01501E-1
-4.81918E-1,1.35955E-1
-4.83734E-1,1.63513E-1
-4.58694E-1,1.96853E-1
-4.16183E-1,2.52807E-1
-3.75930E-1,3.17642E-1
-3.58749E-1,3.64959E-1
-3.52233E-1,3.97018E-1
-3.27590E-1,4.10583E-1
-2.75817E-1,4.25003E-1
-2.08984E-1,4.51889E-1
-1.48742E-1,4.92538E-1
-1.22985E-1,5.17150E-1
-1.12976E-1,5.30304E-1
-0.79742E-1,5.28106E-1
-0.07293E-1,5.12359E-1
0.72464E-1,4.98779E-1
1.28662E-1,5.00488E-1
1.59423E-1,5.12268E-1
1.82464E-1,5.09613E-1
2.19818E-1,4.66751E-1
2.56881E-1,4.12857E-1
3.07846E-1,3.75976E-1
3.42163E-1,3.55438E-1
3.62686E-1,3.63418E-1
3.90960E-1,3.41674E-1
4.12078E-1,2.79678E-1
4.35211E-1,2.11166E-1
4.67056E-1,1.54983E-1
4.88830E-1,1.15173E-1
4.95620E-1,0.83328E-1
4.79293E-1,0.31356E-1
4.45205E-1,-0.22827E-1
4.35073E-1,-0.77972E-1
4.24499E-1,-1.25335E-1
4.23889E-1,-1.43234E-1
4.08844E-1,-1.70349E-1
3.63891E-1,-1.99005E-1
3.25668E-1,-2.39410E-1
2.90969E-1,-2.90161E-1
2.70843E-1,-3.14971E-1
2.62329E-1,-3.34411E-1
2.20321E-1,-3.38592E-1
1.70089E-1,-3.31787E-1
1.14502E-1,-3.54217E-1
0.64361E-1,-3.7117E-1
0.57052E-1,-3.88534E-1
0.40664E-1,-3.92181E-1
0.15655E-1,-3.61908E-1
-0.26077E-1,-3.46939E-1
-1.00387E-1,-3.41918E-1
-1.43035E-1,-3.42971E-1
-1.63192E-1,-3.58871E-1
-1.72058E-1,-3.40881E-1
-1.72027E-1,-3.09768E-1
-2.25906E-1,-2.71637E-1
-2.75695E-1,-2.12905E-1
-3.01193E-1,-2.11349E-1
-3.20266E-1,-2.12112E-1
-2.98797E-1,-1.94778E-1
-3.00308E-1,-1.71752E-1
-3.32641E-1,-0.88867E-1
-3.39721E-1,-0.39108E-1
-3.70666E-1,-0.33355E-1
END
BEGIN
-9.27856E-1,0.01678E-1
-8.61755E-1,1.10443E-1
-8.61908E-1,1.48315E-1
-8.64410E-1,2.78961E-1
-8.01879E-1,3.60321E-1
-7.69592E-1,4.65179E-1
-6.4151E-1,5.40191E-1
-5.81543E-1,5.14587E-1
-5.78918E-1,5.65338E-1
-5.19104E-1,6.15387E-1
-4.91210E-1,6.67511E-1
-3.82293E-1,7.32269E-1
-3.17718E-1,6.92352E-1
-3.31237E-1,7.38220E-1
-2.35534E-1,8.13507E-1
-1.67114E-1,8.24005E-1
-0.62957E-1,8.74389E-1
0.47332E-1,8.09539E-1
0.42480E-1,7.93273E-1
1.20758E-1,8.45123E-1
1.99127E-1,8.29620E-1
2.86407E-1,8.64135E-1
4.3396E-1,7.95867E-1
4.54254E-1,7.22686E-1
5.36438E-1,7.26715E-1
6.24542E-1,6.33697E-1
6.68212E-1,5.95336E-1
7.82775E-1,4.86236E-1
7.41821E-1,3.39538E-1
7.14782E-1,3.29589E-1
7.44934E-1,2.74749E-1
7.37609E-1,2.44689E-1
8.09234E-1,2.08038E-1
8.02887E-1,0.87402E-1
7.71606E-1,0.83526E-1
8.42742E-1,0.58929E-1
8.80279E-1,-0.24658E-1
9.52667E-1,-1.17431E-1
9.27948E-1,-3.25286E-1
7.97576E-1,-3.76647E-1
8.04534E-1,-4.08935E-1
7.53021E-1,-5.13214E-1
7.13439E-1,-5.51208E-1
6.71630E-1,-6.70623E-1
5.31646E-1,-7.00225E-1
5.22918E-1,-6.84143E-1
4.83306E-1,-7.76886E-1
4.0271E-1,-8.01757E-1
3.68835E-1,-8.82965E-1
1.94335E-1,-9.53399E-1
0.90240E-1,-8.81195E-1
0.43670E-1,-8.84338E-1
-0.39367E-1,-8.58947E-1
-0.62652E-1,-8.51684E-1
-1.55975E-1,-8.81225E-1
-2.40387E-1,-8.23883E-1
-2.72460E-1,-8.14575E-1
-3.48785E-1,-7.98645E-1
-3.88214E-1,-7.84393E-1
-4.95300E-1,-8.09387E-1
-6.24847E-1,-7.03979E-1
-6.44592E-1,-6.16577E-1
-6.96228E-1,-5.54260E-1
-7.00286E-1,-4.73632E-1
-7.21984E-1,-4.69787E-1
-8.05511E-1,-4.00146E-1
-8.013E-1,-3.11523E-1
-8.27453E-1,-2.82226E-1
-8.65173E-1,-2.08099E-1
-8.95233E-1,-1.58783E-1
-9.62982E-1,-0.52154E-1
-9.30145E-1,0.84259E-1
-9.00421E-1,1.49932E-1
-8.69873E-1,2.48077E-1
-8.06304E-1,2.93518E-1
-7.99774E-1,3.37310E-1
-7.58300E-1,4.06280E-1
-7.30316E-1,4.32769E-1
-7.17529E-1,5.00122E-1
-6.68518E-1,5.48004E-1
-6.63391E-1,5.96710E-1
-6.24450E-1,6.94152E-1
-5.51178E-1,7.57446E-1
-4.74029E-1,8.27636E-1
-3.57025E-1,8.43719E-1
-3.20404E-1,8.41613E-1
-2.53631E-1,9.05090E-1
-1.51428E-1,9.04815E-1
-1.02294E-1,9.12323E-1
-0.18066E-1,9.27856E-1
0.34881E-1,9.16168E-1
1.04095E-1,9.66430E-1
2.47222E-1,9.62432E-1
3.34381E-1,9.10278E-1
4.22851E-1,8.72283E-1
4.84497E-1,7.95043E-1
5.21148E-1,7.65167E-1
5.99975E-1,7.14080E-1
6.29180E-1,6.48620E-1
6.74011E-1,6.28448E-1
7.36877E-1,5.75195E-1
7.72552E-1,5.30700E-1
8.47259E-1,4.86785E-1
9.04632E-1,3.93890E-1
9.46533E-1,3.17962E-1
1.00524E0,2.09838E-1
9.94232E-1,0.82336E-1
9.77081E-1,0.04669E-1
9.72656E-1,-0.85449E-1
9.46197E-1,-1.67724E-1
9.26635E-1,-2.51434E-1
8.79638E-1,-3.37890E-1
8.36975E-1,-3.79516E-1
8.25042E-1,-4.38812E-1
7.91626E-1,-5.1651E-1
7.41455E-1,-5.87585E-1
6.80755E-1,-6.61193E-1
6.03118E-1,-7.12097E-1
5.42663E-1,-7.53662E-1
4.65820E-1,-8.04534E-1
3.79821E-1,-8.18359E-1
3.15490E-1,-8.2901E-1
2.42309E-1,-8.43658E-1
1.73370E-1,-8.44696E-1
1.09893E-1,-8.51348E-1
0.39398E-1,-8.49670E-1
-0.13305E-1,-8.33923E-1
-0.59875E-1,-8.39111E-1
-1.31317E-1,-8.41278E-1
-2.08831E-1,-8.31573E-1
-2.93090E-1,-8.00903E-1
-3.48236E-1,-7.49939E-1
-3.81774E-1,-7.23480E-1
-4.33532E-1,-6.97723E-1
-4.85229E-1,-6.59332E-1
-5.35553E-1,-6.15264E-1
-5.72509E-1,-5.59356E-1
-5.92224E-1,-5.20843E-1
-6.33850E-1,-5.01434E-1
-6.83685E-1,-4.53186E-1
-7.20092E-1,-4.02740E-1
-7.62512E-1,-3.37280E-1
-7.78472E-1,-2.63031E-1
-7.93243E-1,-2.09075E-1
-8.07800E-1,-1.43524E-1
-8.13324E-1,-0.83709E-1
-8.20831E-1,-0.13153E-1
-8.00811E-1,0.54901E-1
-7.76214E-1,1.01959E-1
-7.74078E-1,1.32476E-1
-7.84820E-1,1.85241E-1
-7.89581E-1,2.49542E-1
-7.77038E-1,3.31604E-1
-7.33825E-1,3.97430E-1
-6.97143E-1,4.34478E-1
-6.83563E-1,4.86114E-1
-6.49078E-1,5.56427E-1
-5.94055E-1,6.16149E-1
-5.39245E-1,6.56921E-1
-4.87060E-1,6.87133E-1
-4.50927E-1,7.19421E-1
-4.02862E-1,7.70507E-1
-3.45764E-1,8.06366E-1
-2.80456E-1,8.53942E-1
-1.97265E-1,8.82873E-1
-1.24694E-1,8.98956E-1
-0.51666E-1,9.1745E-1
0.39428E-1,9.23584E-1
1.25488E-1,9.09332E-1
2.05047E-1,8.83239E-1
2.74719E-1,8.50982E-1
3.19183E-1,8.22418E-1
3.86657E-1,8.17596E-1
4.55627E-1,7.87841E-1
5.26702E-1,7.52014E-1
5.91949E-1,6.90429E-1
6.32019E-1,6.36535E-1
6.89666E-1,5.96557E-1
7.41394E-1,5.29418E-1
7.82959E-1,4.69177E-1
8.19244E-1,3.96942E-1
8.35815E-1,3.28125E-1
8.57788E-1,2.72979E-1
8.84491E-1,1.87377E-1
8.88610E-1,1.24603E-1
9.11651E-1,0.47058E-1
8.96087E-1,-0.30304E-1
8.99322E-1,-0.85937E-1
8.92028E-1,-1.76361E-1
8.44848E-1,-2.35199E-1
8.39202E-1,-2.91626E-1
8.05969E-1,-3.65112E-1
7.94311E-1,-4.09576E-1
7.78045E-1,-4.97528E-1
7.05627E-1,-5.70282E-1
6.64856E-1,-6.01959E-1
6.06384E-1,-6.69738E-1
5.46142E-1,-6.83837E-1
5.28015E-1,-7.50701E-1
4.21386E-1,-8.22265E-1
3.46160E-1,-8.03344E-1
END
BEGIN
-8.18328E-1,0.23742E-1
-8.42987E-1,0.90362E-1
-7.80426E-1,2.10357E-1
-7.35565E-1,1.93512E-1
-8.09082E-1,2.62298E-1
-7.54241E-1,3.90472E-1
-7.28912E-1,4.37561E-1
-6.71020E-1,5.58685E-1
-5.70953E-1,5.58563E-1
-6.07635E-1,5.84686E-1
-5.50476E-1,7.22168E-1
-4.51141E-1,7.60986E-1
-3.60870E-1,8.29895E-1
-2.28118E-1,8.09753E-1
-2.24304E-1,7.90039E-1
-1.57928E-1,8.81897E-1
-0.39520E-1,8.77563E-1
0.39733E-1,8.99902E-1
1.92291E-1,8.50555E-1
1.99310E-1,7.49206E-1
2.11456E-1,7.95288E-1
3.24951E-1,7.84759E-1
3.71582E-1,7.59338E-1
4.89440E-1,7.41607E-1
5.34759E-1,6.22375E-1
5.22583E-1,6.18133E-1
6.20544E-1,6.08062E-1
6.73584E-1,5.40069E-1
7.63397E-1,4.97100E-1
8.16803E-1,3.44238E-1
7.61077E-1,2.83386E-1
8.05542E-1,2.73773E-1
8.44421E-1,2.03064E-1
9.05914E-1,1.48254E-1
9.42718E-1,-0.29724E-1
8.25012E-1,-1.2146E-1
8.18420E-1,-1.09741E-1
8.47625E-1,-1.81030E-1
8.65600E-1,-2.48046E-1
8.81530E-1,-4.08538E-1
7.23541E-1,-5.16723E-1
6.58447E-1,-4.76837E-1
6.66473E-1,-5.17486E-1
6.44866E-1,-5.67443E-1
6.53198E-1,-6.80694E-1
4.99664E-1,-8.11157E-1
3.83361E-1,-7.55065E-1
3.76861E-1,-7.65838E-1
3.20587E-1,-8.01086E-1
3.03314E-1,-8.54614E-1
1.62353E-1,-9.71435E-1
-0.06958E-1,-8.99322E-1
-0.25665E-1,-8.46496E-1
-0.78582E-1,-8.50067E-1
-1.0495E-1,-8.44512E-1
-1.87713E-1,-9.21264E-1
-3.68927E-1,-8.62609E-1
-3.96820E-1,-7.55218E-1
-4.27612E-1,-7.36511E-1
-4.59899E-1,-7.00286E-1
-5.05523E-1,-7.35168E-1
-6.71844E-1,-6.90094E-1
-7.02362E-1,-5.39062E-1
-6.95831E-1,-4.91790E-1
-7.19818E-1,-4.35302E-1
-7.24639E-1,-4.29748E-1
-8.46771E-1,-4.15374E-1
-9.11285E-1,-2.48840E-1
-8.63983E-1,-1.67541E-1
-8.72283E-1,-1.17492E-1
-8.65356E-1,-0.70129E-1
-9.27490E-1,-0.41198E-1
-9.86694E-1,1.20971E-1
-9.01947E-1,2.41668E-1
-8.65387E-1,2.84576E-1
-8.29803E-1,3.52203E-1
-8.10089E-1,3.80462E-1
-8.32122E-1,4.77783E-1
-7.50946E-1,6.00463E-1
-6.65741E-1,6.40258E-1
-6.01867E-1,6.78833E-1
-5.54687E-1,6.90948E-1
-5.49194E-1,7.50030E-1
-4.58587E-1,8.47412E-1
-3.55560E-1,8.60168E-1
-2.81158E-1,8.88031E-1
-1.82708E-1,8.81256E-1
-1.55883E-1,8.65448E-1
-1.10504E-1,9.26086E-1
0.04882E-1,9.45953E-1
0.85632E-1,9.32769E-1
1.83197E-1,9.15008E-1
2.35229E-1,8.65661E-1
2.72033E-1,8.79028E-1
3.77014E-1,8.85864E-1
4.67987E-1,8.44726E-1
5.64392E-1,7.89917E-1
6.11511E-1,6.90216E-1
6.14929E-1,6.60400E-1
6.99462E-1,6.45141E-1
7.74169E-1,5.65094E-1
8.29742E-1,4.90966E-1
8.68286E-1,3.81530E-1
8.48693E-1,3.15460E-1
8.87176E-1,2.86407E-1
9.32952E-1,1.97876E-1
9.47784E-1,1.18133E-1
9.69177E-1,0.05004E-1
9.14062E-1,-0.93322E-1
8.96514E-1,-1.21398E-1
9.19891E-1,-2.00408E-1
9.01153E-1,-2.90985E-1
8.79913E-1,-3.9151E-1
7.86468E-1,-4.80773E-1
7.22839E-1,-4.87762E-1
7.18475E-1,-5.32775E-1
6.79382E-1,-6.10870E-1
6.25976E-1,-6.86676E-1
5.21911E-1,-7.47863E-1
4.40521E-1,-7.31994E-1
4.18212E-1,-7.35900E-1
3.80889E-1,-7.86773E-1
3.09356E-1,-8.37066E-1
2.06390E-1,-8.74450E-1
1.06903E-1,-8.44329E-1
0.76660E-1,-8.18084E-1
0.45135E-1,-8.39172E-1
-0.25512E-1,-8.67553E-1
-1.27349E-1,-8.73657E-1
-2.28179E-1,-8.1427E-1
-2.52838E-1,-7.59307E-1
-2.69989E-1,-7.56622E-1
-3.29650E-1,-7.72033E-1
-4.20776E-1,-7.52655E-1
-4.95666E-1,-6.85028E-1
-5.22308E-1,-6.21307E-1
-5.45196E-1,-5.86273E-1
-5.79986E-1,-5.70251E-1
-6.45660E-1,-5.41809E-1
-7.05505E-1,-4.71435E-1
-7.27325E-1,-3.90716E-1
-7.37640E-1,-3.34106E-1
-7.45697E-1,-2.94738E-1
-7.82379E-1,-2.66021E-1
-8.26995E-1,-1.96258E-1
-8.32580E-1,-1.13739E-1
-8.28399E-1,-0.49926E-1
-8.22387E-1,0.10437E-1
-8.38470E-1,0.50933E-1
-8.70239E-1,1.33392E-1
-8.51135E-1,2.28973E-1
-8.05145E-1,2.93701E-1
-7.67791E-1,3.43933E-1
-7.40112E-1,3.78723E-1
-7.47741E-1,4.44793E-1
-7.08648E-1,5.38879E-1
-6.50116E-1,5.98083E-1
-5.94238E-1,6.42761E-1
-5.31280E-1,6.72546E-1
-4.94537E-1,7.06665E-1
-4.25354E-1,7.77343E-1
-3.35235E-1,7.97912E-1
-2.84973E-1,8.09112E-1
-2.20214E-1,8.29437E-1
-1.71508E-1,8.21929E-1
-1.28021E-1,8.55407E-1
-0.34301E-1,8.72039E-1
0.34545E-1,8.61755E-1
1.04797E-1,8.62701E-1
1.67999E-1,8.41186E-1
2.11700E-1,8.36761E-1
2.93060E-1,8.32183E-1
3.63250E-1,7.95379E-1
4.28222E-1,7.66784E-1
4.90173E-1,7.23022E-1
5.29113E-1,6.85638E-1
5.87463E-1,6.63208E-1
6.47491E-1,6.02722E-1
6.86370E-1,5.50018E-1
7.36053E-1,4.95330E-1
7.76428E-1,4.30999E-1
8.05969E-1,3.79943E-1
8.45825E-1,3.13018E-1
8.6026E-1,2.44262E-1
8.84552E-1,1.763E-1
9.02252E-1,0.95275E-1
9.01794E-1,0.16815E-1
9.07959E-1,-0.49896E-1
8.97277E-1,-1.22497E-1
8.82537E-1,-1.83654E-1
8.70300E-1,-2.52685E-1
8.51806E-1,-3.40637E-1
8.12042E-1,-4.08447E-1
7.83355E-1,-4.77111E-1
7.38159E-1,-5.34881E-1
7.00439E-1,-5.77148E-1
6.69616E-1,-6.40014E-1
5.94360E-1,-7.10479E-1
5.21698E-1,-7.58422E-1
4.42016E-1,-7.89123E-1
3.90716E-1,-7.98492E-1
END
BEGIN
-4.39590E-1,-1.86508E-1
-4.66613E-1,-1.37802E-1
-4.83688E-1,-0.88363E-1
-4.96078E-1,-0.50491E-1
-5.07080E-1,0.07812E-1
-5.01403E-1,0.65155E-1
-4.98474E-1,1.30493E-1
-4.82345E-1,1.85165E-1
-4.73663E-1,2.37197E-1
-4.51797E-1,2.87368E-1
-4.23156E-1,3.28521E-1
-3.8591E-1,3.75579E-1
-3.43444E-1,4.13742E-1
-3.04092E-1,4.58618E-1
-2.57873E-1,4.87365E-1
-2.08313E-1,5.11779E-1
-1.53595E-1,5.33538E-1
-0.92224E-1,5.46539E-1
-0.39123E-1,5.58746E-1
0.21881E-1,5.56427E-1
0.71746E-1,5.49469E-1
1.23901E-1,5.35156E-1
1.78955E-1,5.15930E-1
2.37945E-1,4.83017E-1
2.86148E-1,4.46731E-1
3.26919E-1,4.18258E-1
3.68286E-1,3.73138E-1
4.01107E-1,3.26980E-1
4.34860E-1,2.60116E-1
4.49081E-1,2.09701E-1
4.74365E-1,1.58676E-1
4.8703E-1,1.02325E-1
4.86312E-1,0.57861E-1
4.81842E-1,0.05813E-1
4.66781E-1,-0.34011E-1
4.60586E-1,-0.95581E-1
4.32540E-1,-1.43188E-1
4.09729E-1,-1.77200E-1
3.93249E-1,-2.13638E-1
3.47488E-1,-2.56164E-1
3.07479E-1,-2.82531E-1
2.68341E-1,-3.04611E-1
2.26806E-1,-3.29666E-1
1.93222E-1,-3.44375E-1
1.45538E-1,-3.70575E-1
1.03225E-1,-3.67111E-1
0.62179E-1,-3.68866E-1
0.21392E-1,-3.68408E-1
-0.15258E-1,-3.54980E-1
-0.50338E-1,-3.58688E-1
-1.12182E-1,-3.28918E-1
-1.34155E-1,-3.06655E-1
-1.66030E-1,-3.01498E-1
-2.00363E-1,-2.81539E-1
-2.22137E-1,-2.63168E-1
-2.55615E-1,-2.32360E-1
-2.65213E-1,-1.99142E-1
-2.85934E-1,-1.75582E-1
-3.06915E-1,-1.41601E-1
-3.09234E-1,-1.07513E-1
-3.25149E-1,-0.85784E-1
-3.26004E-1,-0.29144E-1
-3.12927E-1,-0.02319E-1
-3.27453E-1,0.26794E-1
-3.24523E-1,0.70251E-1
-3.20175E-1,0.98281E-1
-3.14147E-1,1.44119E-1
-2.95730E-1,1.64794E-1
-2.87460E-1,1.91482E-1
-2.60177E-1,2.18612E-1
-2.28515E-1,2.25257E-1
-2.12051E-1,2.59506E-1
-1.58721E-1,2.86529E-1
-1.30493E-1,2.95822E-1
-1.03775E-1,3.20892E-1
-0.65521E-1,3.24813E-1
-0.31387E-1,3.31222E-1
0.20996E-1,3.30093E-1
0.55069E-1,3.28231E-1
0.90072E-1,3.36990E-1
1.25991E-1,3.30658E-1
1.46774E-1,3.07052E-1
1.72012E-1,2.85888E-1
2.04895E-1,2.55752E-1
2.36908E-1,2.30453E-1
2.74871E-1,2.00500E-1
2.90039E-1,1.64032E-1
3.02383E-1,1.43447E-1
3.18313E-1,0.98861E-1
3.24386E-1,0.59448E-1
3.36456E-1,0.23284E-1
3.39309E-1,-0.14816E-1
3.22814E-1,-0.38681E-1
3.19732E-1,-0.66055E-1
3.04916E-1,-1.09207E-1
2.87811E-1,-1.50375E-1
2.67608E-1,-1.9133E-1
2.39189E-1,-2.14393E-1
2.21534E-1,-2.37037E-1
1.84570E-1,-2.64190E-1
1.55212E-1,-2.86926E-1
1.36108E-1,-3.17474E-1
1.1026E-1,-3.42804E-1
0.87173E-1,-3.36975E-1
0.69503E-1,-3.34396E-1
0.32226E-1,-3.34426E-1
-0.07110E-1,-3.43231E-1
-0.61950E-1,-3.53607E-1
-0.92437E-1,-3.34442E-1
-0.98556E-1,-3.31710E-1
-1.29623E-1,-3.22479E-1
-1.62017E-1,-3.01986E-1
-2.05627E-1,-2.88681E-1
-2.37976E-1,-2.66433E-1
-2.44903E-1,-2.59399E-1
-2.59826E-1,-2.57400E-1
-2.73269E-1,-2.35900E-1
-2.94174E-1,-2.12310E-1
-3.13766E-1,-1.67846E-1
-3.08349E-1,-1.42227E-1
-3.22097E-1,-1.41067E-1
-3.44039E-1,-1.20590E-1
-3.60061E-1,-0.95275E-1
-3.72009E-1,-0.58578E-1
-3.67569E-1,-0.3685E-1
-3.77792E-1,-0.29693E-1
-3.94393E-1,-0.11856E-1
-4.05319E-1,0.15762E-1
-4.08233E-1,0.47790E-1
-3.9534E-1,0.73440E-1
-3.92746E-1,0.82305E-1
-4.02389E-1,1.02325E-1
-4.07897E-1,1.38549E-1
-4.00604E-1,1.80465E-1
-3.85391E-1,2.06695E-1
-3.85040E-1,2.27050E-1
-3.78143E-1,2.57690E-1
-3.72116E-1,2.85720E-1
-3.61206E-1,3.27026E-1
-3.40896E-1,3.53195E-1
-3.30184E-1,3.64913E-1
-3.14621E-1,3.84582E-1
-2.89489E-1,3.97293E-1
-2.68859E-1,4.25582E-1
-2.31781E-1,4.62265E-1
-2.00241E-1,4.75921E-1
-1.80069E-1,4.90631E-1
-1.41922E-1,4.99130E-1
-1.03851E-1,5.13763E-1
-0.37048E-1,5.39215E-1
0.10376E-1,5.37536E-1
0.23742E-1,5.50140E-1
0.50445E-1,5.60943E-1
0.7724E-1,5.41839E-1
1.18896E-1,5.40588E-1
1.81396E-1,5.17272E-1
2.16766E-1,5.03814E-1
2.52471E-1,5.03692E-1
2.87689E-1,4.73709E-1
3.10485E-1,4.42642E-1
3.61389E-1,4.02679E-1
3.9328E-1,3.65615E-1
4.35684E-1,3.59542E-1
4.86862E-1,3.31985E-1
4.86450E-1,2.84622E-1
4.95300E-1,2.63153E-1
5.22888E-1,2.02667E-1
5.29724E-1,1.51367E-1
5.52520E-1,1.12152E-1
5.36438E-1,0.52795E-1
5.07720E-1,0.33416E-1
5.06561E-1,-0.21148E-1
4.81491E-1,-0.88348E-1
4.75601E-1,-1.41525E-1
4.59228E-1,-2.01858E-1
4.20501E-1,-2.09549E-1
4.18487E-1,-2.24319E-1
3.75091E-1,-2.72674E-1
3.26553E-1,-3.02917E-1
2.90039E-1,-3.47229E-1
2.42263E-1,-3.54782E-1
2.38586E-1,-3.45626E-1
1.98318E-1,-3.64257E-1
1.32324E-1,-3.57269E-1
0.77728E-1,-3.76251E-1
0.07019E-1,-3.8414E-1
-0.00915E-1,-3.67935E-1
-0.13214E-1,-3.87207E-1
-0.55374E-1,-3.59680E-1
-0.80673E-1,-3.42025E-1
-1.47689E-1,-3.38394E-1
-1.78161E-1,-3.01162E-1
-1.72500E-1,-3.04748E-1
-1.91436E-1,-2.82424E-1
-1.95289E-1,-2.41401E-1
-2.45208E-1,-2.11921E-1
-2.89810E-1,-1.46759E-1
-2.77587E-1,-1.40853E-1
-2.96890E-1,-1.40289E-1
-2.81753E-1,-1.10519E-1
-3.00705E-1,-0.87783E-1
END
