CITIFILE A.01.01
#NA VERSION HP8510C.08.10
NAME DATA
#NA REGISTER 4
VAR FREQ MAG 201
DATA S[1,1] RI
DATA S[2,1] RI
DATA S[1,2] RI
DATA S[2,2] RI
SEG_LIST_BEGIN
SEG 8000000000 12000000000 201
SEG_LIST_END
COMMENT       YEAR MONTH DAY HOUR MINUTE SECONDS
CONSTANT TIME 2013   09   26  19    59    54.0
BEGIN
-4.08264E-1,-2.52578E-1
-4.30816E-1,-2.08953E-1
-4.52438E-1,-1.53610E-1
-4.67056E-1,-1.12594E-1
-4.83551E-1,-0.64773E-1
-4.78683E-1,-0.20767E-1
-4.74838E-1,0.24734E-1
-4.64965E-1,0.73776E-1
-4.64111E-1,1.30325E-1
-4.51568E-1,1.81442E-1
-4.32571E-1,2.15835E-1
-4.03900E-1,2.50564E-1
-3.73062E-1,2.82684E-1
-3.44055E-1,3.34533E-1
-3.06091E-1,3.72467E-1
-2.74856E-1,4.00726E-1
-2.35473E-1,4.20379E-1
-1.93542E-1,4.28222E-1
-1.54129E-1,4.53125E-1
-0.90072E-1,4.71267E-1
-0.44494E-1,4.79431E-1
-0.02700E-1,4.82025E-1
0.36285E-1,4.70886E-1
0.78445E-1,4.58557E-1
1.28036E-1,4.45404E-1
1.69464E-1,4.36569E-1
2.09564E-1,4.23416E-1
2.41149E-1,4.03076E-1
2.73925E-1,3.69644E-1
3.00109E-1,3.44406E-1
3.45138E-1,3.14605E-1
3.80645E-1,2.74841E-1
4.00329E-1,2.43164E-1
4.12674E-1,2.02346E-1
4.19876E-1,1.70654E-1
4.47662E-1,1.10137E-1
4.47250E-1,0.58120E-1
4.54101E-1,0.25772E-1
4.58663E-1,-0.07202E-1
4.45480E-1,-0.50369E-1
4.31884E-1,-0.97671E-1
4.08889E-1,-1.39389E-1
4.00512E-1,-1.80221E-1
3.89938E-1,-2.13104E-1
3.69949E-1,-2.46490E-1
3.43490E-1,-2.67440E-1
2.98431E-1,-2.98477E-1
2.68081E-1,-3.21670E-1
2.41058E-1,-3.49304E-1
2.21405E-1,-3.72833E-1
1.77703E-1,-3.82720E-1
1.41265E-1,-3.81744E-1
1.07132E-1,-3.86734E-1
0.68832E-1,-4.01596E-1
0.33767E-1,-4.09118E-1
0.00930E-1,-4.12475E-1
-0.28564E-1,-4.04907E-1
-0.67245E-1,-3.86856E-1
-1.03958E-1,-3.75579E-1
-1.39389E-1,-3.61236E-1
-1.60522E-1,-3.60809E-1
-1.90689E-1,-3.42269E-1
-2.03170E-1,-3.07220E-1
-2.17300E-1,-2.90435E-1
-2.52487E-1,-2.72476E-1
-2.74749E-1,-2.53250E-1
-2.95623E-1,-2.37564E-1
-3.03848E-1,-2.18856E-1
-3.07083E-1,-1.82785E-1
-3.17581E-1,-1.48803E-1
-3.25592E-1,-1.16973E-1
-3.41369E-1,-1.06582E-1
-3.47824E-1,-0.84152E-1
-3.27972E-1,-0.62652E-1
-3.20251E-1,-0.49743E-1
-3.25408E-1,-0.17669E-1
-3.34869E-1,0.08453E-1
-3.41262E-1,0.29830E-1
-3.42804E-1,0.40466E-1
-3.33465E-1,0.53543E-1
-3.25882E-1,0.85632E-1
-3.03436E-1,1.24694E-1
-2.99743E-1,1.45187E-1
-3.05526E-1,1.68014E-1
-2.91198E-1,1.75476E-1
-2.82104E-1,1.86538E-1
-2.53112E-1,2.15805E-1
-2.32528E-1,2.34794E-1
-2.22366E-1,2.66296E-1
-2.10861E-1,2.84881E-1
-1.99951E-1,2.94448E-1
-1.70013E-1,3.12408E-1
-1.22589E-1,3.14102E-1
-1.02844E-1,3.28704E-1
-0.74371E-1,3.50418E-1
-0.55328E-1,3.53286E-1
-0.35446E-1,3.56063E-1
0.04837E-1,3.46389E-1
0.38589E-1,3.48861E-1
0.86639E-1,3.56124E-1
1.19491E-1,3.55606E-1
1.42425E-1,3.53530E-1
1.86172E-1,3.35617E-1
2.23648E-1,2.85690E-1
2.59704E-1,2.556E-1
3.00674E-1,2.30697E-1
3.18191E-1,2.06512E-1
3.35113E-1,1.78085E-1
3.37936E-1,1.18820E-1
3.44009E-1,0.72769E-1
3.68225E-1,0.20080E-1
3.77807E-1,-0.18371E-1
3.80035E-1,-0.43975E-1
3.66241E-1,-0.9021E-1
3.30062E-1,-1.45553E-1
3.06289E-1,-2.03704E-1
2.86132E-1,-2.53219E-1
2.72583E-1,-2.80258E-1
2.40173E-1,-3.04260E-1
1.83044E-1,-3.12912E-1
1.35940E-1,-3.41232E-1
0.81543E-1,-3.78189E-1
0.46951E-1,-4.00878E-1
0.18524E-1,-4.09194E-1
-0.25299E-1,-3.99551E-1
-0.84991E-1,-3.90640E-1
-1.6008E-1,-3.82034E-1
-2.08160E-1,-3.74984E-1
-2.41134E-1,-3.70468E-1
-2.72796E-1,-3.41552E-1
-3.02108E-1,-2.92877E-1
-3.55300E-1,-2.45742E-1
-3.97018E-1,-2.08908E-1
-4.2276E-1,-1.91146E-1
-4.38552E-1,-1.65847E-1
-4.40231E-1,-1.14761E-1
-4.53338E-1,-0.50231E-1
-4.70245E-1,0.20629E-1
-4.88372E-1,0.57205E-1
-4.96765E-1,0.82138E-1
-4.78790E-1,1.17645E-1
-4.43420E-1,1.74484E-1
-4.12109E-1,2.44064E-1
-3.98666E-1,2.97271E-1
-3.98345E-1,3.29055E-1
-3.79852E-1,3.47793E-1
-3.31298E-1,3.65112E-1
-2.70629E-1,3.97720E-1
-2.14584E-1,4.46472E-1
-1.91604E-1,4.76303E-1
-1.85836E-1,4.94476E-1
-1.56494E-1,4.97299E-1
-0.88409E-1,4.88555E-1
-0.09185E-1,4.86236E-1
0.49804E-1,4.94934E-1
0.76873E-1,5.13397E-1
1.01715E-1,5.19195E-1
1.39175E-1,4.83047E-1
1.78146E-1,4.37652E-1
2.36099E-1,4.08599E-1
2.77389E-1,3.93768E-1
3.05145E-1,4.02542E-1
3.33511E-1,3.77685E-1
3.50051E-1,3.21991E-1
3.76632E-1,2.63504E-1
4.13513E-1,2.12753E-1
4.40704E-1,1.80038E-1
4.55947E-1,1.51870E-1
4.45877E-1,1.02279E-1
4.18502E-1,0.51788E-1
4.15664E-1,-0.02624E-1
4.09057E-1,-0.47409E-1
4.18960E-1,-0.61615E-1
4.11178E-1,-0.88897E-1
3.74160E-1,-1.17141E-1
3.45291E-1,-1.61346E-1
3.14804E-1,-2.14706E-1
3.05618E-1,-2.40020E-1
3.04092E-1,-2.65152E-1
2.65564E-1,-2.73361E-1
2.20642E-1,-2.71591E-1
1.67633E-1,-2.99331E-1
1.23718E-1,-3.17047E-1
1.24816E-1,-3.43032E-1
1.09481E-1,-3.52813E-1
0.90438E-1,-3.27438E-1
0.49835E-1,-3.21167E-1
-0.22796E-1,-3.21304E-1
-0.59753E-1,-3.31771E-1
-0.84137E-1,-3.57284E-1
-0.91613E-1,-3.42620E-1
-0.91461E-1,-3.18969E-1
-1.46926E-1,-2.85247E-1
-1.959E-1,-2.34352E-1
-2.26417E-1,-2.42721E-1
-2.47909E-1,-2.47039E-1
-2.26699E-1,-2.37999E-1
-2.33978E-1,-2.18856E-1
-2.68554E-1,-1.41998E-1
-2.8302E-1,-1.01532E-1
-3.20739E-1,-0.97274E-1
END
BEGIN
-9.22668E-1,0.14801E-1
-8.54309E-1,1.15356E-1
-8.58459E-1,1.54541E-1
-8.55041E-1,2.85369E-1
-7.92785E-1,3.63464E-1
-7.56378E-1,4.66644E-1
-6.28906E-1,5.31372E-1
-5.78155E-1,5.05706E-1
-5.77179E-1,5.60272E-1
-5.19195E-1,6.09466E-1
-4.90539E-1,6.66137E-1
-3.80767E-1,7.25433E-1
-3.23913E-1,6.86492E-1
-3.36334E-1,7.41027E-1
-2.36480E-1,8.14727E-1
-1.68426E-1,8.26812E-1
-0.59631E-1,8.73596E-1
0.43457E-1,8.05816E-1
0.37262E-1,7.98797E-1
1.21765E-1,8.51593E-1
2.01324E-1,8.35601E-1
2.95745E-1,8.69049E-1
4.38720E-1,7.91351E-1
4.55810E-1,7.24365E-1
5.44097E-1,7.25616E-1
6.26617E-1,6.29638E-1
6.72943E-1,5.92926E-1
7.80853E-1,4.75097E-1
7.31384E-1,3.39508E-1
7.10815E-1,3.35632E-1
7.43316E-1,2.81402E-1
7.42187E-1,2.54669E-1
8.17596E-1,2.10022E-1
8.05206E-1,0.91735E-1
7.81982E-1,0.91339E-1
8.60199E-1,0.58746E-1
8.98651E-1,-0.31036E-1
9.69696E-1,-1.38305E-1
9.23828E-1,-3.46710E-1
7.96051E-1,-3.84491E-1
8.06610E-1,-4.22790E-1
7.49023E-1,-5.25970E-1
7.11059E-1,-5.65734E-1
6.58752E-1,-6.85821E-1
5.23223E-1,-7.02179E-1
5.20996E-1,-6.93512E-1
4.73541E-1,-7.88940E-1
3.95324E-1,-8.11676E-1
3.49884E-1,-8.98681E-1
1.6745E-1,-9.50225E-1
0.77941E-1,-8.73291E-1
0.32287E-1,-8.78295E-1
-0.45196E-1,-8.51745E-1
-0.69610E-1,-8.51806E-1
-1.69433E-1,-8.75640E-1
-2.45941E-1,-8.16375E-1
-2.79724E-1,-8.10455E-1
-3.56628E-1,-7.93273E-1
-3.98773E-1,-7.84027E-1
-5.17761E-1,-7.98278E-1
-6.34216E-1,-6.78649E-1
-6.45416E-1,-5.98144E-1
-6.93725E-1,-5.37262E-1
-6.91497E-1,-4.63745E-1
-7.24548E-1,-4.63531E-1
-8.03497E-1,-3.82598E-1
-7.93701E-1,-3.02581E-1
-8.26141E-1,-2.72705E-1
-8.61908E-1,-1.97784E-1
-8.97735E-1,-1.44805E-1
-9.57214E-1,-0.25146E-1
-9.07287E-1,1.03790E-1
-8.79730E-1,1.62811E-1
-8.41339E-1,2.54333E-1
-7.83508E-1,2.86712E-1
-7.82074E-1,3.32031E-1
-7.39929E-1,3.93951E-1
-7.22076E-1,4.20105E-1
-7.08374E-1,4.92889E-1
-6.62719E-1,5.35614E-1
-6.64428E-1,5.91339E-1
-6.18194E-1,6.93481E-1
-5.43365E-1,7.53784E-1
-4.59472E-1,8.24676E-1
-3.43811E-1,8.27148E-1
-3.16986E-1,8.27209E-1
-2.48046E-1,8.94683E-1
-1.49108E-1,8.87023E-1
-1.05926E-1,9.00634E-1
-0.18066E-1,9.13543E-1
0.27862E-1,9.03656E-1
1.02752E-1,9.63378E-1
2.51373E-1,9.51843E-1
3.31146E-1,8.96942E-1
4.20288E-1,8.56567E-1
4.7229E-1,7.77801E-1
5.07995E-1,7.52990E-1
5.85388E-1,6.98974E-1
6.05499E-1,6.41571E-1
6.55853E-1,6.29730E-1
7.21283E-1,5.77545E-1
7.57904E-1,5.38635E-1
8.40484E-1,4.93896E-1
8.96148E-1,3.99231E-1
9.42321E-1,3.24737E-1
1.00341E0,2.08190E-1
9.82818E-1,0.78887E-1
9.66033E-1,0.07873E-1
9.60388E-1,-0.81604E-1
9.33532E-1,-1.59057E-1
9.16656E-1,-2.43499E-1
8.66027E-1,-3.25286E-1
8.31268E-1,-3.61114E-1
8.24249E-1,-4.24926E-1
7.90527E-1,-5.03509E-1
7.42553E-1,-5.77148E-1
6.76788E-1,-6.52343E-1
6.01898E-1,-6.96533E-1
5.42236E-1,-7.40692E-1
4.65728E-1,-7.86285E-1
3.88092E-1,-8.00140E-1
3.24096E-1,-8.14849E-1
2.54028E-1,-8.27728E-1
1.90307E-1,-8.32031E-1
1.26129E-1,-8.4198E-1
0.60058E-1,-8.42742E-1
0.05401E-1,-8.35235E-1
-0.44860E-1,-8.41033E-1
-1.17797E-1,-8.44299E-1
-1.96868E-1,-8.33679E-1
-2.76489E-1,-8.01208E-1
-3.30841E-1,-7.58575E-1
-3.69842E-1,-7.32116E-1
-4.21020E-1,-7.05902E-1
-4.76043E-1,-6.70684E-1
-5.24963E-1,-6.25854E-1
-5.62377E-1,-5.74523E-1
-5.88531E-1,-5.36926E-1
-6.32080E-1,-5.13336E-1
-6.82739E-1,-4.65454E-1
-7.20275E-1,-4.12292E-1
-7.59216E-1,-3.48541E-1
-7.79510E-1,-2.7771E-1
-7.93884E-1,-2.19482E-1
-8.07739E-1,-1.57104E-1
-8.16955E-1,-0.94848E-1
-8.22387E-1,-0.23407E-1
-8.06549E-1,0.38360E-1
-7.86682E-1,0.88531E-1
-7.84515E-1,1.20330E-1
-7.99957E-1,1.75537E-1
-8.02032E-1,2.43255E-1
-7.87933E-1,3.24188E-1
-7.47894E-1,3.91967E-1
-7.10357E-1,4.30389E-1
-6.99676E-1,4.80590E-1
-6.63665E-1,5.55419E-1
-6.07360E-1,6.12426E-1
-5.58746E-1,6.52099E-1
-5.07171E-1,6.86950E-1
-4.76867E-1,7.21099E-1
-4.34326E-1,7.86804E-1
-3.64257E-1,8.32672E-1
-2.89611E-1,8.75305E-1
-2.01812E-1,9.05029E-1
-1.26922E-1,9.16381E-1
-0.54595E-1,9.34387E-1
0.41778E-1,9.41803E-1
1.29089E-1,9.22485E-1
2.05261E-1,8.96209E-1
2.76184E-1,8.63708E-1
3.19030E-1,8.35998E-1
3.90380E-1,8.34350E-1
4.62707E-1,8.01971E-1
5.32897E-1,7.66265E-1
6.00006E-1,7.05291E-1
6.40258E-1,6.48864E-1
7.00439E-1,6.10504E-1
7.55462E-1,5.39581E-1
7.96081E-1,4.77783E-1
8.33160E-1,4.07104E-1
8.51684E-1,3.35723E-1
8.75274E-1,2.78808E-1
9.03198E-1,1.91406E-1
9.06555E-1,1.25335E-1
9.28283E-1,0.48522E-1
9.15283E-1,-0.30761E-1
9.19250E-1,-0.89233E-1
9.11224E-1,-1.82006E-1
8.62701E-1,-2.42523E-1
8.57391E-1,-2.99072E-1
8.23852E-1,-3.73626E-1
8.14849E-1,-4.23339E-1
7.93762E-1,-5.18524E-1
7.17407E-1,-5.91827E-1
6.73217E-1,-6.23443E-1
6.11694E-1,-6.88934E-1
5.55114E-1,-7.02209E-1
5.34118E-1,-7.76397E-1
4.20074E-1,-8.45336E-1
3.43322E-1,-8.25103E-1
END
BEGIN
-8.20892E-1,0.28411E-1
-8.45001E-1,0.91888E-1
-7.85644E-1,2.17193E-1
-7.32421E-1,2.03399E-1
-8.03924E-1,2.62878E-1
-7.54425E-1,3.92334E-1
-7.26257E-1,4.39819E-1
-6.73126E-1,5.61554E-1
-5.66772E-1,5.65856E-1
-6.00311E-1,5.83190E-1
-5.51391E-1,7.19787E-1
-4.5224E-1,7.62298E-1
-3.638E-1,8.32794E-1
-2.25769E-1,8.18756E-1
-2.17498E-1,7.91717E-1
-1.57104E-1,8.82659E-1
-0.37384E-1,8.81927E-1
0.40985E-1,9.04174E-1
1.98791E-1,8.61022E-1
2.14019E-1,7.52197E-1
2.18902E-1,7.91412E-1
3.32000E-1,7.84301E-1
3.78479E-1,7.55920E-1
4.94598E-1,7.42340E-1
5.46722E-1,6.19293E-1
5.29541E-1,6.07910E-1
6.22467E-1,6.00738E-1
6.76086E-1,5.32348E-1
7.63427E-1,4.92462E-1
8.24554E-1,3.40484E-1
7.66082E-1,2.70874E-1
8.03680E-1,2.62603E-1
8.39965E-1,1.93969E-1
8.98254E-1,1.45629E-1
9.46685E-1,-0.28595E-1
8.28216E-1,-1.32537E-1
8.12286E-1,-1.19537E-1
8.41033E-1,-1.86401E-1
8.56964E-1,-2.48962E-1
8.83239E-1,-4.04144E-1
7.27630E-1,-5.27587E-1
6.49871E-1,-4.87243E-1
6.55731E-1,-5.22125E-1
6.33392E-1,-5.67962E-1
6.48712E-1,-6.72973E-1
5.04241E-1,-8.15582E-1
3.75762E-1,-7.62390E-1
3.67248E-1,-7.66784E-1
3.12103E-1,-7.99072E-1
2.98034E-1,-8.45794E-1
1.68914E-1,-9.70733E-1
-0.13061E-1,-9.09088E-1
-0.36804E-1,-8.47717E-1
-0.89325E-1,-8.48754E-1
-1.13189E-1,-8.35083E-1
-1.83898E-1,-9.13604E-1
-3.72314E-1,-8.70208E-1
-4.08630E-1,-7.53387E-1
-4.37530E-1,-7.30499E-1
-4.69329E-1,-6.89300E-1
-5.03265E-1,-7.22045E-1
-6.69036E-1,-6.92840E-1
-7.14843E-1,-5.37384E-1
-7.05352E-1,-4.80072E-1
-7.27081E-1,-4.19128E-1
-7.21130E-1,-4.09118E-1
-8.34686E-1,-4.10797E-1
-9.15130E-1,-2.47222E-1
-8.65814E-1,-1.54968E-1
-8.70452E-1,-1.03942E-1
-8.55682E-1,-0.53466E-1
-9.09393E-1,-0.37078E-1
-9.84802E-1,1.16455E-1
-9.04205E-1,2.51495E-1
-8.59893E-1,2.96569E-1
-8.18634E-1,3.64715E-1
-7.89581E-1,3.85437E-1
-8.20220E-1,4.72625E-1
-7.46246E-1,6.05011E-1
-6.54937E-1,6.48345E-1
-5.85937E-1,6.87408E-1
-5.30792E-1,6.90246E-1
-5.33721E-1,7.36816E-1
-4.52056E-1,8.42254E-1
-3.41400E-1,8.56475E-1
-2.68158E-1,8.83361E-1
-1.60736E-1,8.74572E-1
-1.36901E-1,8.42590E-1
-1.06445E-1,9.02038E-1
0.06866E-1,9.28192E-1
0.86578E-1,9.15527E-1
1.86828E-1,8.99658E-1
2.39135E-1,8.40301E-1
2.62512E-1,8.53210E-1
3.62487E-1,8.69476E-1
4.53552E-1,8.33709E-1
5.55877E-1,7.83233E-1
6.06567E-1,6.72088E-1
5.95153E-1,6.40106E-1
6.73339E-1,6.37542E-1
7.53906E-1,5.64331E-1
8.13079E-1,4.95025E-1
8.58612E-1,3.80554E-1
8.28643E-1,3.09845E-1
8.63555E-1,2.91015E-1
9.14550E-1,2.06970E-1
9.30481E-1,1.31317E-1
9.62585E-1,0.20172E-1
9.05395E-1,-0.88836E-1
8.80371E-1,-1.10626E-1
9.07867E-1,-1.82312E-1
8.94805E-1,-2.70141E-1
8.83026E-1,-3.68682E-1
7.90618E-1,-4.73724E-1
7.15606E-1,-4.77172E-1
7.14202E-1,-5.14312E-1
6.81152E-1,-5.9198E-1
6.36657E-1,-6.68365E-1
5.35095E-1,-7.41729E-1
4.40734E-1,-7.26715E-1
4.18518E-1,-7.21160E-1
3.87023E-1,-7.69592E-1
3.23638E-1,-8.20129E-1
2.26318E-1,-8.69262E-1
1.16058E-1,-8.44635E-1
0.84167E-1,-8.09234E-1
0.58715E-1,-8.28002E-1
-0.06683E-1,-8.57818E-1
-1.01043E-1,-8.73657E-1
-2.14569E-1,-8.25653E-1
-2.46093E-1,-7.60650E-1
-2.57202E-1,-7.54852E-1
-3.11187E-1,-7.72338E-1
-3.98071E-1,-7.60284E-1
-4.80346E-1,-7.01171E-1
-5.15777E-1,-6.33331E-1
-5.35675E-1,-5.94055E-1
-5.68206E-1,-5.79559E-1
-6.31835E-1,-5.54107E-1
-6.94824E-1,-4.92828E-1
-7.26562E-1,-4.12292E-1
-7.37762E-1,-3.49334E-1
-7.45697E-1,-3.0896E-1
-7.81280E-1,-2.80914E-1
-8.25317E-1,-2.16156E-1
-8.39782E-1,-1.34643E-1
-8.38226E-1,-0.65216E-1
-8.31115E-1,-0.03356E-1
-8.46710E-1,0.38085E-1
-8.77136E-1,1.17584E-1
-8.65448E-1,2.08740E-1
-8.26965E-1,2.81494E-1
-7.86773E-1,3.37646E-1
-7.56927E-1,3.73107E-1
-7.63061E-1,4.39239E-1
-7.27417E-1,5.29998E-1
-6.75903E-1,5.93109E-1
-6.19384E-1,6.45294E-1
-5.53619E-1,6.76910E-1
-5.16815E-1,7.12310E-1
-4.52026E-1,7.84118E-1
-3.66790E-1,8.17016E-1
-3.04473E-1,8.40545E-1
-2.28149E-1,8.58062E-1
-1.75476E-1,8.48266E-1
-1.28418E-1,8.78448E-1
-0.34668E-1,8.93127E-1
0.35186E-1,8.84887E-1
1.10687E-1,8.85650E-1
1.75262E-1,8.61877E-1
2.22412E-1,8.55926E-1
3.05786E-1,8.46862E-1
3.74237E-1,8.09997E-1
4.43939E-1,7.80670E-1
5.06073E-1,7.32727E-1
5.43945E-1,6.94335E-1
6.04278E-1,6.69372E-1
6.61895E-1,6.05804E-1
7.02880E-1,5.53405E-1
7.52014E-1,4.94537E-1
7.89367E-1,4.31152E-1
8.21167E-1,3.79272E-1
8.58856E-1,3.08075E-1
8.72985E-1,2.39898E-1
8.96820E-1,1.69586E-1
9.08844E-1,0.88836E-1
9.11468E-1,0.14648E-1
9.18487E-1,-0.56884E-1
9.04174E-1,-1.28051E-1
8.91662E-1,-1.90490E-1
8.74054E-1,-2.62115E-1
8.56933E-1,-3.42773E-1
8.22113E-1,-4.14367E-1
7.89917E-1,-4.84680E-1
7.46643E-1,-5.42663E-1
7.04223E-1,-5.89294E-1
6.68762E-1,-6.43066E-1
6.03973E-1,-7.15026E-1
5.29327E-1,-7.68829E-1
4.50347E-1,-7.99896E-1
3.95752E-1,-8.14910E-1
END
BEGIN
-4.59823E-1,-1.41494E-1
-4.82284E-1,-0.90652E-1
-4.94903E-1,-0.39520E-1
-5.01800E-1,0.00946E-1
-5.05432E-1,0.60699E-1
-4.93347E-1,1.17736E-1
-4.84390E-1,1.82846E-1
-4.64294E-1,2.35534E-1
-4.50286E-1,2.86285E-1
-4.21646E-1,3.33236E-1
-3.88809E-1,3.69812E-1
-3.47366E-1,4.12429E-1
-3.01803E-1,4.46777E-1
-2.57904E-1,4.88525E-1
-2.07672E-1,5.11444E-1
-1.56066E-1,5.29327E-1
-0.98877E-1,5.44708E-1
-0.36529E-1,5.51666E-1
0.19043E-1,5.60363E-1
0.80871E-1,5.50537E-1
1.28479E-1,5.37536E-1
1.78283E-1,5.16937E-1
2.30178E-1,4.92233E-1
2.86819E-1,4.53308E-1
3.32687E-1,4.10629E-1
3.70163E-1,3.77258E-1
4.05777E-1,3.26858E-1
4.33288E-1,2.76931E-1
4.59182E-1,2.06634E-1
4.70626E-1,1.52648E-1
4.89563E-1,0.97213E-1
4.95742E-1,0.39932E-1
4.88784E-1,-0.03952E-1
4.77554E-1,-0.53024E-1
4.59686E-1,-0.91491E-1
4.44809E-1,-1.55151E-1
4.11453E-1,-1.99005E-1
3.83972E-1,-2.31460E-1
3.61999E-1,-2.65655E-1
3.11080E-1,-3.04184E-1
2.64267E-1,-3.27072E-1
2.20764E-1,-3.44039E-1
1.75506E-1,-3.65615E-1
1.38137E-1,-3.76007E-1
0.88073E-1,-3.96545E-1
0.43319E-1,-3.88259E-1
0.00717E-1,-3.82110E-1
-0.40771E-1,-3.77029E-1
-0.79162E-1,-3.57437E-1
-1.15325E-1,-3.55026E-1
-1.75048E-1,-3.16284E-1
-1.94702E-1,-2.87811E-1
-2.25814E-1,-2.77740E-1
-2.59552E-1,-2.51281E-1
-2.78930E-1,-2.27111E-1
-3.09127E-1,-1.91513E-1
-3.14224E-1,-1.53244E-1
-3.29345E-1,-1.26373E-1
-3.45428E-1,-0.87310E-1
-3.40972E-1,-0.49774E-1
-3.54476E-1,-0.23391E-1
-3.46527E-1,0.37414E-1
-3.26889E-1,0.63369E-1
-3.36074E-1,0.96252E-1
-3.23730E-1,1.42303E-1
-3.13461E-1,1.70898E-1
-2.98233E-1,2.17453E-1
-2.73437E-1,2.35290E-1
-2.59689E-1,2.58422E-1
-2.25891E-1,2.82135E-1
-1.89636E-1,2.85141E-1
-1.63467E-1,3.19122E-1
-1.01928E-1,3.36624E-1
-0.71853E-1,3.38302E-1
-0.40130E-1,3.59039E-1
0.04303E-1,3.56796E-1
0.44097E-1,3.55468E-1
0.98495E-1,3.44574E-1
1.32934E-1,3.35815E-1
1.67495E-1,3.38851E-1
2.04025E-1,3.24935E-1
2.23022E-1,2.92175E-1
2.45880E-1,2.63153E-1
2.76535E-1,2.25082E-1
3.03634E-1,1.92810E-1
3.37402E-1,1.56707E-1
3.47778E-1,1.13616E-1
3.55972E-1,0.85235E-1
3.63601E-1,0.34957E-1
3.63266E-1,-0.07904E-1
3.69155E-1,-0.45394E-1
3.66210E-1,-0.84991E-1
3.42269E-1,-1.10122E-1
3.31665E-1,-1.39236E-1
3.08212E-1,-1.83380E-1
2.82730E-1,-2.23541E-1
2.56576E-1,-2.62207E-1
2.22808E-1,-2.84118E-1
1.96136E-1,-3.06076E-1
1.51794E-1,-3.28796E-1
1.16760E-1,-3.47457E-1
0.95260E-1,-3.72787E-1
0.65826E-1,-3.97888E-1
0.37872E-1,-3.86245E-1
0.18035E-1,-3.79409E-1
-0.23666E-1,-3.75503E-1
-0.66268E-1,-3.77655E-1
-1.23153E-1,-3.83483E-1
-1.56570E-1,-3.57894E-1
-1.64413E-1,-3.48556E-1
-1.97494E-1,-3.33068E-1
-2.30651E-1,-3.05206E-1
-2.73544E-1,-2.87597E-1
-3.08914E-1,-2.60818E-1
-3.12927E-1,-2.46978E-1
-3.26736E-1,-2.40402E-1
-3.38623E-1,-2.12234E-1
-3.56185E-1,-1.83288E-1
-3.74939E-1,-1.32659E-1
-3.64181E-1,-1.01791E-1
-3.74771E-1,-0.96786E-1
-3.92807E-1,-0.71136E-1
-4.02801E-1,-0.41153E-1
-4.11453E-1,-0.00839E-1
-4.01657E-1,0.26626E-1
-4.05975E-1,0.35430E-1
-4.18319E-1,0.54809E-1
-4.22699E-1,0.84213E-1
-4.20684E-1,1.15356E-1
-4.00604E-1,1.43966E-1
-3.90335E-1,1.49963E-1
-3.94226E-1,1.69494E-1
-3.93737E-1,2.05230E-1
-3.79821E-1,2.44430E-1
-3.58795E-1,2.69928E-1
-3.51165E-1,2.87139E-1
-3.40072E-1,3.13766E-1
-3.30261E-1,3.39492E-1
-3.14849E-1,3.76724E-1
-2.91717E-1,3.98712E-1
-2.76840E-1,4.06372E-1
-2.58819E-1,4.19387E-1
-2.31826E-1,4.27200E-1
-2.09823E-1,4.51995E-1
-1.69296E-1,4.82086E-1
-1.36810E-1,4.89700E-1
-1.14379E-1,4.97924E-1
-0.76171E-1,4.99969E-1
-0.35797E-1,5.09887E-1
0.33203E-1,5.28564E-1
0.76324E-1,5.20874E-1
0.89904E-1,5.28717E-1
1.14685E-1,5.3302E-1
1.38824E-1,5.11169E-1
1.79840E-1,5.05310E-1
2.38189E-1,4.74243E-1
2.68585E-1,4.57870E-1
3.01208E-1,4.51873E-1
3.30902E-1,4.16854E-1
3.5289E-1,3.81591E-1
3.99444E-1,3.33053E-1
4.26498E-1,2.91214E-1
4.60342E-1,2.77633E-1
4.98413E-1,2.47314E-1
4.91378E-1,2.04345E-1
4.94323E-1,1.81549E-1
5.12756E-1,1.22924E-1
5.14465E-1,0.75286E-1
5.29296E-1,0.36071E-1
5.04791E-1,-0.1828E-1
4.69894E-1,-0.35873E-1
4.59777E-1,-0.89370E-1
4.29321E-1,-1.51214E-1
4.18884E-1,-2.01355E-1
3.96698E-1,-2.55294E-1
3.54522E-1,-2.58285E-1
3.46176E-1,-2.68463E-1
2.97912E-1,-3.07983E-1
2.48565E-1,-3.32366E-1
2.09930E-1,-3.69018E-1
1.61758E-1,-3.68240E-1
1.57028E-1,-3.51455E-1
1.13769E-1,-3.59832E-1
0.48217E-1,-3.44558E-1
-0.07125E-1,-3.55636E-1
-0.75210E-1,-3.55880E-1
-0.79940E-1,-3.32809E-1
-0.90621E-1,-3.44543E-1
-1.27395E-1,-3.08898E-1
-1.49169E-1,-2.86117E-1
-2.11593E-1,-2.76306E-1
-2.35160E-1,-2.33993E-1
-2.22808E-1,-2.33352E-1
-2.33093E-1,-2.03826E-1
-2.28515E-1,-1.58134E-1
-2.72644E-1,-1.24603E-1
-3.08471E-1,-0.55984E-1
-2.89001E-1,-0.49667E-1
-2.98889E-1,-0.47683E-1
-2.72659E-1,-0.20584E-1
-2.85827E-1,0.01586E-1
END
