CITIFILE A.01.01
#NA VERSION HP8510C.08.10
NAME DATA
#NA REGISTER 1
VAR FREQ MAG 201
DATA S[1,1] RI
DATA S[2,1] RI
DATA S[1,2] RI
DATA S[2,2] RI
SEG_LIST_BEGIN
SEG 8000000000 12000000000 201
SEG_LIST_END
COMMENT       YEAR MONTH DAY HOUR MINUTE SECONDS
CONSTANT TIME 2013   09   12  23    22    10.0
BEGIN
-4.03579E-1,-3.15658E-1
-4.48104E-1,-3.11340E-1
-4.72229E-1,-2.79861E-1
-4.73175E-1,-2.42538E-1
-4.76593E-1,-1.90658E-1
-4.69940E-1,-1.39160E-1
-4.82177E-1,-0.74401E-1
-4.95437E-1,0.02944E-1
-5.26733E-1,0.70098E-1
-5.51330E-1,1.10137E-1
-5.53344E-1,1.13678E-1
-5.15319E-1,1.17492E-1
-4.45922E-1,1.50100E-1
-3.84231E-1,2.40646E-1
-3.49578E-1,3.51623E-1
-3.70224E-1,4.34967E-1
-4.04357E-1,4.55474E-1
-4.09164E-1,4.11270E-1
-3.49868E-1,3.75854E-1
-2.10083E-1,3.85681E-1
-0.87921E-1,4.46655E-1
-0.32409E-1,5.37475E-1
-0.56549E-1,5.96801E-1
-0.98693E-1,5.93933E-1
-0.85113E-1,5.25299E-1
-0.04699E-1,4.39926E-1
1.18408E-1,3.99047E-1
2.22000E-1,4.24392E-1
2.78427E-1,4.80316E-1
2.70416E-1,5.12176E-1
2.58529E-1,4.78103E-1
2.65930E-1,3.89968E-1
3.10668E-1,3.02398E-1
3.81210E-1,2.39761E-1
4.41589E-1,2.22625E-1
4.91195E-1,2.01293E-1
4.85107E-1,1.76116E-1
4.70840E-1,1.46194E-1
4.58648E-1,0.97488E-1
4.40246E-1,0.30929E-1
4.29046E-1,-0.43396E-1
4.20974E-1,-1.11785E-1
4.38385E-1,-1.75705E-1
4.53140E-1,-2.09335E-1
4.51477E-1,-2.20062E-1
4.06829E-1,-2.08862E-1
3.16024E-1,-2.31475E-1
2.29446E-1,-2.93335E-1
1.81625E-1,-3.82354E-1
1.99600E-1,-4.60403E-1
2.17498E-1,-4.75936E-1
2.16384E-1,-4.15679E-1
1.51168E-1,-3.45138E-1
0.26168E-1,-3.20770E-1
-0.90423E-1,-3.63876E-1
-1.47247E-1,-4.43878E-1
-1.23275E-1,-4.89608E-1
-0.79818E-1,-4.56298E-1
-0.78002E-1,-3.57009E-1
-1.47712E-1,-2.45224E-1
-2.56164E-1,-2.01126E-1
-3.45245E-1,-2.22900E-1
-3.59207E-1,-2.7211E-1
-3.16406E-1,-2.91076E-1
-2.68463E-1,-2.32910E-1
-2.52838E-1,-1.30722E-1
-2.93167E-1,-0.36819E-1
-3.52905E-1,-0.04058E-1
-3.91662E-1,-0.03692E-1
-3.78784E-1,-0.09292E-1
-3.23349E-1,0.03921E-1
-2.79571E-1,0.38223E-1
-2.48626E-1,0.88409E-1
-2.30758E-1,1.27677E-1
-2.19841E-1,1.55563E-1
-2.08801E-1,1.82960E-1
-2.02148E-1,2.04345E-1
-1.98867E-1,2.00996E-1
-1.98730E-1,1.77963E-1
-1.60804E-1,1.54159E-1
-0.88607E-1,1.57539E-1
-0.06942E-1,1.92421E-1
0.14495E-1,2.46269E-1
-0.30532E-1,2.88803E-1
-0.92605E-1,2.65716E-1
-1.10443E-1,1.83456E-1
-4.18243E-2,9.91783E-2
6.48307E-2,7.40890E-2
1.44638E-1,1.32400E-1
1.41014E-1,2.31651E-1
0.58975E-1,2.81280E-1
-0.24726E-1,2.30392E-1
-3.51371E-2,1.04778E-1
3.97720E-2,0.83751E-2
1.53396E-1,0.02479E-1
2.27439E-1,0.78704E-1
2.06359E-1,1.72409E-1
1.19895E-1,1.99432E-1
0.47531E-1,1.37657E-1
4.78420E-2,3.37238E-2
1.22352E-1,-2.95639E-2
2.14012E-1,-0.25360E-1
2.66799E-1,0.20645E-1
2.45140E-1,0.51986E-1
1.89926E-1,0.38803E-1
1.52664E-1,-0.16449E-1
1.58561E-1,-0.80558E-1
1.85546E-1,-1.25610E-1
2.01591E-1,-1.47155E-1
2.02156E-1,-1.60491E-1
1.90956E-1,-1.81320E-1
1.85447E-1,-2.01660E-1
1.74972E-1,-2.12020E-1
1.48529E-1,-2.17102E-1
0.90019E-1,-2.37808E-1
0.29159E-1,-2.86499E-1
0.02853E-1,-3.50143E-1
0.16265E-1,-3.98529E-1
0.43716E-1,-3.86245E-1
0.37262E-1,-3.20953E-1
-0.36209E-1,-2.65701E-1
-1.58767E-1,-2.60437E-1
-2.53356E-1,-3.22753E-1
-2.65930E-1,-3.97583E-1
-2.09716E-1,-4.33044E-1
-1.64032E-1,-3.80935E-1
-1.98623E-1,-2.64144E-1
-3.05114E-1,-1.65145E-1
-4.26849E-1,-1.58523E-1
-4.96337E-1,-2.24517E-1
-4.68658E-1,-2.86331E-1
-4.05853E-1,-2.67196E-1
-3.62045E-1,-1.50207E-1
-3.90945E-1,-0.20111E-1
-4.84008E-1,0.39932E-1
-5.71380E-1,0.28350E-1
-5.89477E-1,-0.15289E-1
-5.31829E-1,-0.10650E-1
-4.46502E-1,0.63018E-1
-4.19982E-1,1.64230E-1
-4.62478E-1,2.50976E-1
-5.05859E-1,2.84179E-1
-5.15930E-1,2.77923E-1
-4.62417E-1,2.80883E-1
-3.88977E-1,3.14697E-1
-3.52874E-1,3.73825E-1
-3.51898E-1,4.27078E-1
-3.55072E-1,4.42291E-1
-3.30978E-1,4.57397E-1
-2.51541E-1,4.78057E-1
-1.86462E-1,4.99252E-1
-1.73736E-1,5.54504E-1
-1.78009E-1,5.71197E-1
-1.68121E-1,5.45623E-1
-0.89538E-1,5.18585E-1
0.18661E-1,4.97741E-1
0.90332E-1,5.37475E-1
1.18804E-1,6.06140E-1
0.75347E-1,6.21429E-1
0.53070E-1,5.70129E-1
1.20376E-1,4.66720E-1
2.27096E-1,3.98391E-1
3.50219E-1,4.22958E-1
4.14596E-1,4.94583E-1
3.85528E-1,5.49926E-1
3.13903E-1,4.91134E-1
2.94632E-1,3.47763E-1
3.73062E-1,2.21176E-1
5.00244E-1,1.63604E-1
5.82489E-1,1.97052E-1
5.69122E-1,2.70385E-1
4.79843E-1,2.81005E-1
3.93905E-1,1.79992E-1
3.99688E-1,0.32882E-1
4.81948E-1,-0.70068E-1
5.72906E-1,-0.89935E-1
6.03088E-1,-0.42297E-1
5.39978E-1,-0.15716E-1
4.35028E-1,-0.59661E-1
3.74984E-1,-1.68472E-1
3.85543E-1,-2.70660E-1
4.28054E-1,-3.11157E-1
4.54803E-1,-3.03115E-1
4.12048E-1,-2.80670E-1
3.32885E-1,-2.96508E-1
2.67135E-1,-3.61343E-1
2.46841E-1,-4.24911E-1
2.43423E-1,-4.50836E-1
2.14233E-1,-4.44244E-1
1.50299E-1,-4.27749E-1
0.72494E-1,-4.41452E-1
0.22811E-1,-4.77157E-1
0.20523E-1,-4.98565E-1
0.18905E-1,-4.80178E-1
-0.28396E-1,-4.22332E-1
-1.18530E-1,-3.85009E-1
-2.14843E-1,-3.92822E-1
-2.49465E-1,-4.47692E-1
-2.30957E-1,-4.86724E-1
-1.96975E-1,-4.34845E-1
-2.13073E-1,-3.26644E-1
END
BEGIN
-9.25872E-1,0.84777E-1
-8.83300E-1,1.55975E-1
-8.85894E-1,1.8396E-1
-8.36059E-1,3.05481E-1
-7.39105E-1,3.69781E-1
-6.84295E-1,4.70672E-1
-5.90393E-1,5.40954E-1
-5.69641E-1,5.56335E-1
-5.76873E-1,6.14898E-1
-5.26428E-1,6.29394E-1
-4.92523E-1,6.56005E-1
-3.72467E-1,6.81854E-1
-3.14422E-1,6.68487E-1
-2.88024E-1,7.62390E-1
-1.82952E-1,8.48663E-1
-1.44195E-1,8.70361E-1
-0.59417E-1,8.97735E-1
-0.00061E-1,8.05694E-1
0.07019E-1,7.95318E-1
1.35498E-1,8.27362E-1
2.45391E-1,8.18023E-1
3.61663E-1,8.72070E-1
4.73022E-1,8.13873E-1
4.56939E-1,7.78808E-1
5.33721E-1,7.63610E-1
5.98724E-1,6.29455E-1
6.67236E-1,5.58685E-1
7.89245E-1,4.27215E-1
7.70233E-1,3.28460E-1
7.70843E-1,3.60015E-1
7.87506E-1,3.26812E-1
7.63488E-1,3.08105E-1
8.19763E-1,2.20184E-1
7.96875E-1,0.71319E-1
8.07739E-1,0.47454E-1
9.17999E-1,0.11047E-1
9.79614E-1,-0.54687E-1
1.04895E0,-1.56799E-1
9.35943E-1,-3.55194E-1
7.85675E-1,-3.86383E-1
7.83142E-1,-4.60205E-1
7.34497E-1,-5.88256E-1
7.22412E-1,-6.37664E-1
6.80908E-1,-7.4646E-1
5.42266E-1,-7.21862E-1
5.19378E-1,-6.96258E-1
4.43603E-1,-7.86834E-1
3.48907E-1,-8.29528E-1
3.10089E-1,-9.33319E-1
1.49963E-1,-1.00396E0
0.77331E-1,-9.18121E-1
0.40100E-1,-9.01580E-1
-0.51605E-1,-8.56903E-1
-1.04248E-1,-8.40728E-1
-2.11944E-1,-8.69018E-1
-2.95593E-1,-8.26141E-1
-3.11676E-1,-8.26202E-1
-3.67370E-1,-8.09692E-1
-3.92242E-1,-7.79052E-1
-4.91729E-1,-7.79174E-1
-6.21643E-1,-6.85241E-1
-6.68182E-1,-6.11541E-1
-7.43499E-1,-5.63598E-1
-7.45941E-1,-4.78973E-1
-7.44689E-1,-4.77661E-1
-8.09692E-1,-4.06799E-1
-8.09295E-1,-3.04443E-1
-8.31268E-1,-2.53051E-1
-8.78814E-1,-1.80786E-1
-9.12933E-1,-1.45507E-1
-9.88372E-1,-0.70617E-1
-9.68627E-1,0.52063E-1
-9.34051E-1,1.19018E-1
-9.16656E-1,2.26257E-1
-8.61633E-1,3.21044E-1
-8.44757E-1,3.9151E-1
-8.08898E-1,4.75524E-1
-7.72216E-1,4.98138E-1
-7.58148E-1,5.44250E-1
-6.95800E-1,5.92193E-1
-6.50787E-1,6.38427E-1
-5.96191E-1,7.30224E-1
-5.27862E-1,8.03100E-1
-4.79675E-1,8.79760E-1
-3.87603E-1,9.25109E-1
-3.36181E-1,9.18548E-1
-2.56530E-1,9.52545E-1
-1.34460E-1,9.49798E-1
-0.49072E-1,9.52972E-1
0.44769E-1,9.82299E-1
1.10321E-1,9.83184E-1
1.64001E-1,1.02471E0
2.77740E-1,9.99176E-1
3.59375E-1,9.28772E-1
4.48852E-1,8.80493E-1
5.47180E-1,8.18542E-1
6.19384E-1,7.77954E-1
7.05902E-1,7.38494E-1
7.30835E-1,6.66381E-1
7.55859E-1,6.21429E-1
7.99896E-1,5.42205E-1
8.29589E-1,4.59808E-1
8.93920E-1,4.00543E-1
9.62646E-1,3.09845E-1
9.89837E-1,2.44781E-1
1.01684E0,1.68823E-1
1.00189E0,0.6604E-1
9.82574E-1,-0.21545E-1
9.80773E-1,-1.35650E-1
9.58221E-1,-2.46582E-1
9.45343E-1,-3.24371E-1
9.08050E-1,-4.04235E-1
8.50952E-1,-4.3927E-1
8.15979E-1,-4.83520E-1
7.56500E-1,-5.59387E-1
6.97448E-1,-6.30218E-1
6.51031E-1,-7.16400E-1
5.76751E-1,-7.74475E-1
5.32135E-1,-8.05511E-1
4.58068E-1,-8.49060E-1
3.54736E-1,-8.49792E-1
2.71362E-1,-8.61084E-1
1.66442E-1,-8.81866E-1
0.95977E-1,-8.69049E-1
0.45227E-1,-8.87329E-1
-0.11016E-1,-8.69415E-1
-0.42938E-1,-8.44238E-1
-1.04309E-1,-8.24462E-1
-1.71691E-1,-7.99652E-1
-2.56012E-1,-8.07128E-1
-3.56292E-1,-7.78595E-1
-3.85589E-1,-7.53814E-1
-4.29077E-1,-7.43347E-1
-4.62432E-1,-6.82006E-1
-4.85076E-1,-6.30279E-1
-5.53588E-1,-5.71624E-1
-5.88439E-1,-5.03753E-1
-6.38916E-1,-5.09582E-1
-7.01416E-1,-4.77050E-1
-7.04284E-1,-4.43695E-1
-7.26104E-1,-4.08416E-1
-7.43560E-1,-3.12561E-1
-7.66387E-1,-2.39379E-1
-8.29528E-1,-1.43493E-1
-8.34075E-1,-0.70312E-1
-8.52874E-1,-0.56732E-1
-8.46527E-1,0.01403E-1
-7.84515E-1,0.42816E-1
-7.66632E-1,0.99762E-1
-7.44842E-1,1.90124E-1
-7.59857E-1,2.46887E-1
-8.06762E-1,3.27545E-1
-7.86773E-1,3.79150E-1
-7.65411E-1,3.93158E-1
-7.05505E-1,4.52667E-1
-6.31530E-1,4.98626E-1
-5.92773E-1,5.89325E-1
-5.18035E-1,6.73553E-1
-5.14434E-1,6.87713E-1
-5.10498E-1,7.36755E-1
-4.45892E-1,7.38281E-1
-3.93615E-1,7.46307E-1
-2.97515E-1,8.06304E-1
-1.93389E-1,8.43841E-1
-1.28814E-1,9.30358E-1
-0.37933E-1,9.58282E-1
-0.10986E-1,9.30816E-1
0.49926E-1,9.20929E-1
1.51916E-1,8.60443E-1
2.35137E-1,8.15094E-1
3.37188E-1,7.87109E-1
3.68011E-1,7.80181E-1
4.12933E-1,8.15490E-1
4.77447E-1,7.85491E-1
5.07415E-1,7.23938E-1
5.69946E-1,6.63696E-1
6.30188E-1,5.76293E-1
6.96960E-1,5.50415E-1
7.85736E-1,5.04150E-1
8.09143E-1,4.39758E-1
8.15582E-1,4.02374E-1
8.31207E-1,3.25744E-1
8.30047E-1,2.41333E-1
8.65020E-1,1.62841E-1
8.91937E-1,0.67749E-1
8.96698E-1,0.09185E-1
9.11895E-1,-0.36895E-1
9.02832E-1,-1.02417E-1
8.62762E-1,-1.71814E-1
8.34960E-1,-2.43835E-1
8.02673E-1,-3.24981E-1
7.86224E-1,-3.82141E-1
7.94586E-1,-4.42443E-1
7.67181E-1,-5.21759E-1
6.99554E-1,-5.69580E-1
6.29150E-1,-6.24298E-1
5.45715E-1,-6.46545E-1
5.18402E-1,-6.82861E-1
4.85137E-1,-7.62542E-1
4.12750E-1,-8.04748E-1
3.51013E-1,-8.15582E-1
END
BEGIN
-8.15429E-1,0.60852E-1
-8.33862E-1,1.06475E-1
-7.93182E-1,2.34130E-1
-7.33276E-1,2.36938E-1
-7.92999E-1,2.92144E-1
-7.41760E-1,4.18518E-1
-7.09320E-1,4.51202E-1
-6.78253E-1,5.68145E-1
-5.69976E-1,5.92010E-1
-5.87585E-1,6.06658E-1
-5.38452E-1,7.36663E-1
-4.33258E-1,7.71575E-1
-3.61145E-1,8.36822E-1
-2.22839E-1,8.44238E-1
-1.97479E-1,8.22540E-1
-1.30523E-1,9.12384E-1
-0.02990E-1,9.00909E-1
0.57739E-1,9.10980E-1
2.10998E-1,8.87817E-1
2.47833E-1,7.77343E-1
2.60864E-1,7.98797E-1
3.75549E-1,7.80151E-1
4.12475E-1,7.39746E-1
5.16204E-1,7.40753E-1
5.87768E-1,6.23687E-1
5.75317E-1,5.92712E-1
6.60461E-1,5.74340E-1
7.04772E-1,4.98992E-1
7.77282E-1,4.71862E-1
8.54034E-1,3.30078E-1
8.02673E-1,2.45269E-1
8.32000E-1,2.22503E-1
8.53302E-1,1.44989E-1
8.94317E-1,1.04980E-1
9.53918E-1,-0.53649E-1
8.47076E-1,-1.69464E-1
8.23516E-1,-1.68060E-1
8.35723E-1,-2.40570E-1
8.29254E-1,-2.90679E-1
8.60229E-1,-4.22363E-1
7.21069E-1,-5.52154E-1
6.39465E-1,-5.25116E-1
6.31713E-1,-5.61035E-1
5.95184E-1,-5.94085E-1
6.14776E-1,-6.75354E-1
4.91180E-1,-8.14880E-1
3.65783E-1,-7.81494E-1
3.45764E-1,-7.91961E-1
2.78930E-1,-8.16894E-1
2.64495E-1,-8.48785E-1
1.47399E-1,-9.66918E-1
-0.24078E-1,-9.11041E-1
-0.52429E-1,-8.62518E-1
-1.14990E-1,-8.62945E-1
-1.41387E-1,-8.45245E-1
-2.17468E-1,-9.11499E-1
-3.88244E-1,-8.52874E-1
-4.16259E-1,-7.56378E-1
-4.63012E-1,-7.39318E-1
-5.0E-1,-6.94702E-1
-5.44708E-1,-7.18261E-1
-6.89025E-1,-6.66503E-1
-7.10693E-1,-5.30273E-1
-7.19329E-1,-4.87731E-1
-7.47253E-1,-4.22393E-1
-7.62634E-1,-4.13970E-1
-8.82568E-1,-3.76892E-1
-9.17053E-1,-2.21862E-1
-8.85833E-1,-1.62994E-1
-9.01641E-1,-0.97625E-1
-8.94836E-1,-0.47424E-1
-9.61364E-1,0.08056E-1
-9.74151E-1,1.74041E-1
-8.97888E-1,2.54669E-1
-8.80127E-1,3.10668E-1
-8.43536E-1,3.75366E-1
-8.44055E-1,4.25750E-1
-8.26934E-1,5.47485E-1
-7.31903E-1,6.25610E-1
-6.71173E-1,6.62872E-1
-6.10626E-1,7.03155E-1
-5.82489E-1,7.40173E-1
-5.31555E-1,8.35540E-1
-4.18121E-1,8.83087E-1
-3.49823E-1,8.95263E-1
-2.66540E-1,9.27856E-1
-1.92779E-1,9.21966E-1
-1.43951E-1,9.58465E-1
-0.36285E-1,9.99755E-1
0.63079E-1,9.91973E-1
1.47827E-1,9.90448E-1
2.36206E-1,9.52697E-1
2.89550E-1,9.26269E-1
3.79577E-1,9.16717E-1
4.81750E-1,8.73107E-1
5.69793E-1,8.24462E-1
6.44012E-1,7.54241E-1
6.72210E-1,6.93695E-1
7.20977E-1,6.67846E-1
7.94616E-1,5.99517E-1
8.45672E-1,5.11261E-1
8.95263E-1,4.18640E-1
9.08660E-1,3.20526E-1
9.19708E-1,2.73345E-1
9.65576E-1,2.04986E-1
9.77050E-1,1.11297E-1
9.85626E-1,0.28137E-1
9.72991E-1,-0.87341E-1
9.24316E-1,-1.56585E-1
9.26269E-1,-2.09411E-1
9.20745E-1,-3.02124E-1
8.91571E-1,-3.86962E-1
8.46557E-1,-4.90356E-1
7.51647E-1,-5.47424E-1
7.14477E-1,-5.61859E-1
6.9104E-1,-6.22802E-1
6.35986E-1,-6.86645E-1
5.65826E-1,-7.59246E-1
4.43725E-1,-7.98065E-1
3.76709E-1,-7.74658E-1
3.57055E-1,-7.98065E-1
3.10119E-1,-8.45764E-1
2.41729E-1,-8.93737E-1
1.17706E-1,-9.08905E-1
0.28076E-1,-8.48236E-1
-0.01220E-1,-8.29803E-1
-0.51055E-1,-8.49029E-1
-1.12182E-1,-8.73596E-1
-2.24090E-1,-8.83361E-1
-3.14544E-1,-7.91046E-1
-3.13446E-1,-7.26806E-1
-3.38104E-1,-7.25402E-1
-4.01519E-1,-7.27081E-1
-4.95361E-1,-7.19665E-1
-5.81298E-1,-6.40655E-1
-5.85357E-1,-5.68695E-1
-5.96954E-1,-5.39367E-1
-6.26129E-1,-5.04089E-1
-6.77002E-1,-4.79461E-1
-7.60559E-1,-4.12384E-1
-7.76855E-1,-3.09265E-1
-7.68463E-1,-2.59185E-1
-7.68371E-1,-2.17346E-1
-7.85736E-1,-1.89880E-1
-8.4021E-1,-1.30737E-1
-8.53332E-1,-0.25329E-1
-8.33831E-1,0.38696E-1
-8.21197E-1,0.93597E-1
-8.11615E-1,1.25946E-1
-8.45794E-1,1.81915E-1
-8.46893E-1,3.04718E-1
-7.76641E-1,3.89984E-1
-7.35382E-1,4.25842E-1
-6.97326E-1,4.57305E-1
-6.91223E-1,4.73114E-1
-6.74591E-1,5.81329E-1
-5.95459E-1,6.69555E-1
-5.22064E-1,7.14263E-1
-4.55383E-1,7.48931E-1
-4.10095E-1,7.54058E-1
-3.75854E-1,7.92327E-1
-2.91687E-1,8.37158E-1
-1.99432E-1,8.46862E-1
-1.13037E-1,8.56994E-1
-0.47546E-1,8.44421E-1
-0.21148E-1,8.57757E-1
0.42816E-1,8.82751E-1
1.22558E-1,8.68743E-1
2.04071E-1,8.44024E-1
2.83264E-1,7.96386E-1
3.25378E-1,7.72857E-1
3.86261E-1,7.79846E-1
4.60540E-1,7.56042E-1
5.12939E-1,7.09625E-1
5.61737E-1,6.45935E-1
5.87371E-1,5.86975E-1
6.30493E-1,5.53802E-1
6.95404E-1,5.08209E-1
7.39257E-1,4.50805E-1
7.72430E-1,3.93219E-1
7.88299E-1,3.26843E-1
8.00689E-1,2.67822E-1
8.23608E-1,2.05841E-1
8.41827E-1,1.35986E-1
8.55773E-1,0.70282E-1
8.60168E-1,0.02014E-1
8.46832E-1,-0.63324E-1
8.33465E-1,-1.23321E-1
8.25561E-1,-1.84234E-1
8.13354E-1,-2.47558E-1
8.02764E-1,-3.07098E-1
7.82684E-1,-3.74145E-1
7.38769E-1,-4.35607E-1
7.00653E-1,-4.85137E-1
6.60644E-1,-5.44677E-1
6.26617E-1,-5.92193E-1
6.03851E-1,-6.48162E-1
5.45562E-1,-7.06695E-1
4.74578E-1,-7.30621E-1
4.09423E-1,-7.57385E-1
3.41888E-1,-7.80090E-1
END
BEGIN
-4.36615E-1,-0.57235E-1
-4.70138E-1,-0.21942E-1
-5.02471E-1,0.4776E-1
-4.99282E-1,1.23504E-1
-4.60113E-1,1.96441E-1
-4.19235E-1,2.28561E-1
-4.16107E-1,2.70248E-1
-4.11926E-1,3.30535E-1
-3.86138E-1,4.00787E-1
-3.22372E-1,4.48379E-1
-2.55035E-1,4.58419E-1
-2.11853E-1,4.64660E-1
-1.85516E-1,4.94735E-1
-1.37573E-1,5.56060E-1
-0.5896E-1,5.84472E-1
0.16998E-1,5.72723E-1
0.65094E-1,5.37872E-1
0.92254E-1,5.27618E-1
1.40502E-1,5.51208E-1
2.24792E-1,5.44708E-1
2.92388E-1,5.06897E-1
3.30368E-1,4.46991E-1
3.36181E-1,4.05715E-1
3.68164E-1,3.87451E-1
4.31991E-1,3.51974E-1
4.84741E-1,2.91229E-1
5.07812E-1,2.11486E-1
4.90646E-1,1.56814E-1
4.87213E-1,1.21017E-1
5.05554E-1,0.88439E-1
5.32379E-1,0.20904E-1
5.28259E-1,-0.59417E-1
4.90570E-1,-1.13739E-1
4.51492E-1,-1.31652E-1
4.40292E-1,-1.35269E-1
4.41116E-1,-1.92413E-1
4.05883E-1,-2.53326E-1
3.48709E-1,-2.96768E-1
3.00033E-1,-2.94479E-1
2.74642E-1,-2.86377E-1
2.6474E-1,-3.01605E-1
2.30957E-1,-3.33038E-1
1.70791E-1,-3.63952E-1
1.18316E-1,-3.52172E-1
0.93948E-1,-3.38943E-1
0.94055E-1,-3.28964E-1
0.68740E-1,-3.44329E-1
0.15029E-1,-3.50952E-1
-0.41549E-1,-3.25149E-1
-0.57708E-1,-3.013E-1
-0.68420E-1,-2.80304E-1
-0.68450E-1,-2.87612E-1
-1.05590E-1,-2.92846E-1
-1.52511E-1,-2.65960E-1
-1.74728E-1,-2.28942E-1
-1.76010E-1,-2.06176E-1
-1.66076E-1,-2.14004E-1
-1.90002E-1,-2.19955E-1
-2.23037E-1,-1.92390E-1
-2.36053E-1,-1.42791E-1
-2.32269E-1,-1.14723E-1
-2.26013E-1,-1.01463E-1
-2.40020E-1,-1.08367E-1
-2.72323E-1,-0.88516E-1
-2.83004E-1,-0.37933E-1
-2.68692E-1,0.02121E-1
-2.54318E-1,0.20904E-1
-2.65441E-1,0.13061E-1
-2.89718E-1,0.30792E-1
-2.91046E-1,0.68405E-1
-2.60498E-1,1.02615E-1
-2.33558E-1,1.21162E-1
-2.18536E-1,1.29356E-1
-2.23724E-1,1.48452E-1
-2.20558E-1,1.85371E-1
-1.87553E-1,2.19047E-1
-1.44119E-1,2.35267E-1
-1.08070E-1,2.31773E-1
-1.05461E-1,2.41584E-1
-0.98877E-1,2.70278E-1
-0.70373E-1,2.96295E-1
-0.26123E-1,2.94113E-1
0.09643E-1,2.73071E-1
0.29586E-1,2.57598E-1
0.43472E-1,2.60803E-1
0.72586E-1,2.76458E-1
1.17843E-1,2.67913E-1
1.50054E-1,2.34214E-1
1.65496E-1,1.93924E-1
1.73263E-1,1.79428E-1
1.94694E-1,1.82182E-1
2.31506E-1,1.73751E-1
2.47314E-1,1.34735E-1
2.40318E-1,0.88577E-1
2.21588E-1,0.53642E-1
2.19451E-1,0.37147E-1
2.37060E-1,0.18737E-1
2.47657E-1,-0.17372E-1
2.32627E-1,-0.57739E-1
1.95571E-1,-0.85701E-1
1.72607E-1,-0.98190E-1
1.76841E-1,-1.10092E-1
1.91848E-1,-1.41403E-1
1.77688E-1,-1.68983E-1
1.46797E-1,-1.80137E-1
1.10313E-1,-1.75399E-1
0.94947E-1,-1.67747E-1
0.93063E-1,-1.84204E-1
0.76469E-1,-2.07572E-1
0.48355E-1,-2.16865E-1
0.13259E-1,-2.06604E-1
-0.06576E-1,-1.88125E-1
-0.11428E-1,-1.89827E-1
-0.21987E-1,-2.15957E-1
-0.48500E-1,-2.30537E-1
-0.75096E-1,-2.20184E-1
-0.87852E-1,-1.95083E-1
-0.90408E-1,-1.81686E-1
-1.03340E-1,-1.89247E-1
-1.31942E-1,-1.94152E-1
-1.63070E-1,-1.90559E-1
-1.84120E-1,-1.64268E-1
-1.91230E-1,-1.40815E-1
-1.99195E-1,-1.31919E-1
-2.30941E-1,-1.34063E-1
-2.75344E-1,-1.21032E-1
-3.02398E-1,-0.88714E-1
-3.04122E-1,-0.58548E-1
-2.98049E-1,-0.45349E-1
-3.14971E-1,-0.37445E-1
-3.40179E-1,-0.10849E-1
-3.59832E-1,0.35247E-1
-3.55514E-1,0.80246E-1
-3.45123E-1,1.11251E-1
-3.46054E-1,1.29974E-1
-3.56735E-1,1.64199E-1
-3.62762E-1,2.12066E-1
-3.44223E-1,2.62985E-1
-3.18939E-1,2.92572E-1
-3.01071E-1,3.11721E-1
-2.94250E-1,3.35464E-1
-2.80960E-1,3.69003E-1
-2.50198E-1,4.09744E-1
-2.05413E-1,4.34417E-1
-1.63803E-1,4.52590E-1
-1.28204E-1,4.61883E-1
-0.96099E-1,4.81155E-1
-0.48461E-1,5.10925E-1
0.20080E-1,5.27130E-1
0.81268E-1,5.25024E-1
1.22497E-1,5.11718E-1
1.48834E-1,5.14404E-1
1.86065E-1,5.14709E-1
2.45819E-1,5.0177E-1
3.26171E-1,4.52453E-1
3.49166E-1,4.21478E-1
3.81744E-1,3.91693E-1
4.16351E-1,3.65554E-1
4.54376E-1,3.32092E-1
4.93454E-1,2.72155E-1
5.11352E-1,2.03125E-1
5.23803E-1,1.54083E-1
5.43731E-1,1.12701E-1
5.63171E-1,0.78949E-1
5.89019E-1,0.28808E-1
5.78460E-1,-0.32043E-1
5.59600E-1,-0.87829E-1
5.35125E-1,-1.39251E-1
5.09491E-1,-1.82067E-1
4.89685E-1,-2.22885E-1
4.57504E-1,-2.81341E-1
4.09835E-1,-3.33038E-1
3.55667E-1,-3.71536E-1
3.09768E-1,-3.95889E-1
2.80426E-1,-4.15603E-1
2.41424E-1,-4.51904E-1
1.80679E-1,-4.70077E-1
1.19659E-1,-4.78683E-1
0.61218E-1,-4.74838E-1
0.18936E-1,-4.64508E-1
-0.17730E-1,-4.66766E-1
-0.73806E-1,-4.58770E-1
-1.28921E-1,-4.38064E-1
-1.86065E-1,-4.05944E-1
-2.25174E-1,-3.67935E-1
-2.53768E-1,-3.48373E-1
-2.91915E-1,-3.32794E-1
-3.21670E-1,-3.04931E-1
-3.50082E-1,-2.69882E-1
-3.62777E-1,-2.18414E-1
-3.62640E-1,-1.78756E-1
-3.70712E-1,-1.49734E-1
-3.91037E-1,-1.13372E-1
-4.00375E-1,-0.66970E-1
-3.94821E-1,-0.16616E-1
-3.77121E-1,0.24871E-1
-3.62426E-1,0.60775E-1
-3.65692E-1,0.86807E-1
-3.66577E-1,1.25869E-1
-3.56018E-1,1.57516E-1
-3.30490E-1,1.82663E-1
END
