CITIFILE A.01.01
#NA VERSION HP8510C.08.10
NAME DATA
#NA REGISTER 1
VAR FREQ MAG 201
DATA S[1,1] RI
DATA S[2,1] RI
DATA S[1,2] RI
DATA S[2,2] RI
SEG_LIST_BEGIN
SEG 8000000000 12000000000 201
SEG_LIST_END
COMMENT       YEAR MONTH DAY HOUR MINUTE SECONDS
CONSTANT TIME 2013   09   12  23    28    27.0
BEGIN
-3.75351E-1,-3.20236E-1
-4.18212E-1,-3.22570E-1
-4.40750E-1,-2.97515E-1
-4.38049E-1,-2.65258E-1
-4.39559E-1,-2.16705E-1
-4.32128E-1,-1.64810E-1
-4.46624E-1,-1.03607E-1
-4.64630E-1,-0.30792E-1
-5.03356E-1,0.29907E-1
-5.32775E-1,0.63720E-1
-5.36254E-1,0.62561E-1
-4.98931E-1,0.62835E-1
-4.31961E-1,0.94177E-1
-3.76449E-1,1.84646E-1
-3.52813E-1,2.97866E-1
-3.82629E-1,3.83209E-1
-4.23751E-1,4.04037E-1
-4.34127E-1,3.58093E-1
-3.80874E-1,3.21273E-1
-2.46200E-1,3.37631E-1
-1.25457E-1,4.07562E-1
-0.70343E-1,5.06378E-1
-0.97808E-1,5.71472E-1
-1.44043E-1,5.74707E-1
-1.34704E-1,5.12359E-1
-0.54443E-1,4.32540E-1
0.71991E-1,3.94989E-1
1.80435E-1,4.24514E-1
2.41210E-1,4.85794E-1
2.36450E-1,5.23803E-1
2.27233E-1,4.97116E-1
2.37884E-1,4.10827E-1
2.85263E-1,3.23043E-1
3.60702E-1,2.55996E-1
4.24926E-1,2.35031E-1
4.74548E-1,2.12814E-1
4.74411E-1,1.97021E-1
4.65820E-1,1.68518E-1
4.53643E-1,1.18530E-1
4.35104E-1,0.47073E-1
4.24987E-1,-0.32348E-1
4.19326E-1,-1.06582E-1
4.36340E-1,-1.72439E-1
4.54040E-1,-2.04376E-1
4.51293E-1,-2.13836E-1
4.03564E-1,-2.01278E-1
3.09005E-1,-2.24243E-1
2.20840E-1,-2.87384E-1
1.73538E-1,-3.77807E-1
1.93206E-1,-4.57000E-1
2.13302E-1,-4.70840E-1
2.13485E-1,-4.07028E-1
1.48971E-1,-3.32275E-1
0.23727E-1,-3.06259E-1
-0.92025E-1,-3.50250E-1
-1.48056E-1,-4.33410E-1
-1.20895E-1,-4.80697E-1
-0.72799E-1,-4.48852E-1
-0.66162E-1,-3.50189E-1
-1.3134E-1,-2.39250E-1
-2.41470E-1,-1.99371E-1
-3.36441E-1,-2.18368E-1
-3.49258E-1,-2.70721E-1
-3.05328E-1,-2.96402E-1
-2.54821E-1,-2.44888E-1
-2.38403E-1,-1.48574E-1
-2.78884E-1,-0.57846E-1
-3.41537E-1,-0.25131E-1
-3.85589E-1,-0.26580E-1
-3.80386E-1,-0.3685E-1
-3.32489E-1,-0.28411E-1
-2.95074E-1,0.01022E-1
-2.67715E-1,0.49346E-1
-2.53891E-1,0.90637E-1
-2.49572E-1,1.22261E-1
-2.46330E-1,1.55151E-1
-2.50213E-1,1.81594E-1
-2.53402E-1,1.83746E-1
-2.58926E-1,1.63452E-1
-2.24403E-1,1.45431E-1
-1.54899E-1,1.59011E-1
-0.73623E-1,2.07878E-1
-0.51788E-1,2.71987E-1
-0.98037E-1,3.24768E-1
-1.58081E-1,3.10668E-1
-1.72363E-1,2.35717E-1
-0.95748E-1,1.61346E-1
0.21507E-1,1.41311E-1
1.11084E-1,2.06161E-1
1.15463E-1,3.12301E-1
0.4039E-1,3.67050E-1
-0.34423E-1,3.20312E-1
-0.31395E-1,1.89918E-1
5.26237E-2,9.03816E-2
1.77467E-1,0.81375E-1
2.64328E-1,1.53793E-1
2.51831E-1,2.42858E-1
1.70181E-1,2.64389E-1
1.00433E-1,1.96212E-1
1.01806E-1,8.25576E-2
1.78306E-1,0.10276E-1
2.72522E-1,0.05935E-1
3.29971E-1,0.44662E-1
1.87210E-1,0.63407E-1
8.86573E-2,-4.06150E-2
2.05757E-1,-0.06683E-1
2.06382E-1,-0.75698E-1
2.29431E-1,-1.26144E-1
2.41981E-1,-1.52580E-1
2.40867E-1,-1.65168E-1
2.27981E-1,-1.84486E-1
2.19360E-1,-2.01484E-1
2.05795E-1,-2.08778E-1
1.77345E-1,-2.13760E-1
1.18507E-1,-2.34443E-1
0.59326E-1,-2.83813E-1
0.34942E-1,-3.46298E-1
0.52276E-1,-3.92578E-1
0.82595E-1,-3.77578E-1
0.78170E-1,-3.11019E-1
0.07690E-1,-2.57476E-1
-1.12365E-1,-2.56301E-1
-2.04711E-1,-3.22418E-1
-2.12966E-1,-4.01687E-1
-1.51214E-1,-4.41574E-1
-1.01272E-1,-3.95233E-1
-1.35040E-1,-2.83096E-1
-2.44934E-1,-1.88278E-1
-3.70346E-1,-1.84982E-1
-4.41192E-1,-2.59063E-1
-4.14382E-1,-3.30017E-1
-3.51547E-1,-3.19320E-1
-3.10134E-1,-2.09030E-1
-3.4375E-1,-0.80246E-1
-4.39788E-1,-0.19760E-1
-5.35095E-1,-0.35461E-1
-5.62622E-1,-0.85479E-1
-5.13458E-1,-0.88592E-1
-4.35226E-1,-0.17150E-1
-4.11026E-1,0.84823E-1
-4.55886E-1,1.72744E-1
-5.07232E-1,2.08648E-1
-5.27618E-1,2.04864E-1
-4.87106E-1,2.08496E-1
-4.20913E-1,2.45605E-1
-3.84384E-1,3.04275E-1
-3.84811E-1,3.58825E-1
-3.89404E-1,3.79165E-1
-3.73458E-1,4.00131E-1
-3.01757E-1,4.30770E-1
-2.39654E-1,4.57916E-1
-2.30865E-1,5.13153E-1
-2.34344E-1,5.31402E-1
-2.22229E-1,5.08270E-1
-1.46011E-1,4.88082E-1
-0.36651E-1,4.75250E-1
0.35461E-1,5.19653E-1
0.60913E-1,5.90484E-1
0.13671E-1,6.03210E-1
-0.16754E-1,5.55816E-1
0.52749E-1,4.65225E-1
1.67602E-1,4.02526E-1
2.96066E-1,4.32815E-1
3.63098E-1,5.07720E-1
3.32336E-1,5.64971E-1
2.59979E-1,5.07293E-1
2.44064E-1,3.63891E-1
3.24447E-1,2.37228E-1
4.5401E-1,1.80892E-1
5.37353E-1,2.16735E-1
5.22277E-1,2.94708E-1
4.32495E-1,3.10714E-1
3.47900E-1,2.12585E-1
3.53515E-1,0.68512E-1
4.38446E-1,-0.34851E-1
5.31646E-1,-0.52215E-1
5.65063E-1,0.02197E-1
5.06988E-1,0.34545E-1
4.06234E-1,-0.05340E-1
3.48754E-1,-1.10794E-1
3.60336E-1,-2.12875E-1
4.07287E-1,-2.51113E-1
4.42810E-1,-2.41806E-1
4.07623E-1,-2.18429E-1
3.35998E-1,-2.33352E-1
2.76123E-1,-2.97683E-1
2.58453E-1,-3.60977E-1
2.60589E-1,-3.90411E-1
2.36526E-1,-3.89068E-1
1.78421E-1,-3.77975E-1
1.06216E-1,-3.98468E-1
0.60531E-1,-4.36370E-1
0.64102E-1,-4.61135E-1
0.63156E-1,-4.47738E-1
0.16799E-1,-3.94912E-1
-0.72738E-1,-3.64700E-1
-1.72271E-1,-3.79806E-1
-2.0578E-1,-4.40460E-1
-1.87362E-1,-4.85977E-1
-1.55593E-1,-4.38018E-1
-1.71295E-1,-3.33374E-1
END
BEGIN
-9.51293E-1,0.78430E-1
-9.07074E-1,1.49597E-1
-9.15802E-1,1.77032E-1
-8.64563E-1,3.05419E-1
-7.63641E-1,3.71368E-1
-7.0401E-1,4.78485E-1
-6.05712E-1,5.48614E-1
-5.87249E-1,5.64880E-1
-5.99243E-1,6.27471E-1
-5.49194E-1,6.44043E-1
-5.12664E-1,6.73828E-1
-3.85742E-1,6.98333E-1
-3.28277E-1,6.83624E-1
-2.99926E-1,7.84454E-1
-1.89727E-1,8.73718E-1
-1.46759E-1,8.98529E-1
-0.57342E-1,9.24438E-1
0.00152E-1,8.28704E-1
0.06897E-1,8.20953E-1
1.40777E-1,8.51348E-1
2.54791E-1,8.41308E-1
3.79425E-1,8.90319E-1
4.90051E-1,8.27575E-1
4.74395E-1,7.95440E-1
5.54382E-1,7.78289E-1
6.16119E-1,6.43127E-1
6.85546E-1,5.69519E-1
8.00872E-1,4.31762E-1
7.82592E-1,3.37982E-1
7.90771E-1,3.67370E-1
8.1073E-1,3.33282E-1
7.92053E-1,3.15246E-1
8.47839E-1,2.2052E-1
8.18573E-1,0.72784E-1
8.31939E-1,0.45471E-1
9.39971E-1,-0.00244E-1
1.00524E0,-0.68969E-1
1.07360E0,-1.83288E-1
9.48364E-1,-3.73016E-1
8.03314E-1,-3.95752E-1
7.99408E-1,-4.74731E-1
7.46582E-1,-6.02905E-1
7.31170E-1,-6.61529E-1
6.81396E-1,-7.73101E-1
5.48278E-1,-7.40997E-1
5.32867E-1,-7.19696E-1
4.50286E-1,-8.09875E-1
3.52600E-1,-8.50799E-1
3.03161E-1,-9.61212E-1
1.31164E-1,-1.02398E0
0.67108E-1,-9.35791E-1
0.32135E-1,-9.22821E-1
-0.56152E-1,-8.73504E-1
-1.07788E-1,-8.59741E-1
-2.27081E-1,-8.84765E-1
-3.11035E-1,-8.36578E-1
-3.28552E-1,-8.43566E-1
-3.85192E-1,-8.28002E-1
-4.06524E-1,-8.03161E-1
-5.17852E-1,-8.03009E-1
-6.53503E-1,-6.87988E-1
-6.97296E-1,-6.05743E-1
-7.74169E-1,-5.50659E-1
-7.67425E-1,-4.68719E-1
-7.65991E-1,-4.80346E-1
-8.34777E-1,-4.02069E-1
-8.19702E-1,-2.94982E-1
-8.41308E-1,-2.44628E-1
-8.90899E-1,-1.66961E-1
-9.33258E-1,-1.36108E-1
-1.02453E0,-0.54809E-1
-9.91882E-1,0.77850E-1
-9.46929E-1,1.40106E-1
-9.18914E-1,2.53753E-1
-8.48327E-1,3.46069E-1
-8.36120E-1,4.15039E-1
-7.97576E-1,5.00488E-1
-7.64312E-1,5.09826E-1
-7.54882E-1,5.49957E-1
-6.87530E-1,5.90240E-1
-6.47644E-1,6.30096E-1
-5.96954E-1,7.33123E-1
-5.26153E-1,8.12103E-1
-4.84008E-1,8.95721E-1
-3.86749E-1,9.41467E-1
-3.40087E-1,9.23278E-1
-2.63732E-1,9.59808E-1
-1.30371E-1,9.58099E-1
-0.44128E-1,9.5755E-1
0.52307E-1,9.91333E-1
1.13464E-1,9.91607E-1
1.57653E-1,1.04162E0
2.80090E-1,1.02081E0
3.64959E-1,9.42535E-1
4.58526E-1,8.91723E-1
5.61706E-1,8.23089E-1
6.32629E-1,7.84149E-1
7.23175E-1,7.45575E-1
7.44964E-1,6.71905E-1
7.66174E-1,6.28570E-1
8.09570E-1,5.48889E-1
8.35723E-1,4.67956E-1
9.06921E-1,4.07989E-1
9.84008E-1,3.12286E-1
1.00201E0,2.47192E-1
1.04406E0,1.62231E-1
1.02130E0,0.58715E-1
9.99084E-1,-0.23925E-1
9.93255E-1,-1.41998E-1
9.63775E-1,-2.53936E-1
9.52972E-1,-3.36029E-1
9.11804E-1,-4.16717E-1
8.61480E-1,-4.44122E-1
8.36059E-1,-4.89379E-1
7.74627E-1,-5.66741E-1
7.13226E-1,-6.38732E-1
6.55578E-1,-7.30896E-1
5.77270E-1,-7.88269E-1
5.34606E-1,-8.24462E-1
4.58587E-1,-8.67736E-1
3.65600E-1,-8.63189E-1
2.85400E-1,-8.76281E-1
1.72882E-1,-8.92028E-1
1.01684E-1,-8.79638E-1
0.46081E-1,-9.02740E-1
-0.09033E-1,-8.88336E-1
-0.38299E-1,-8.75488E-1
-1.04888E-1,-8.58673E-1
-1.76513E-1,-8.29467E-1
-2.67120E-1,-8.28308E-1
-3.70758E-1,-7.90649E-1
-4.01428E-1,-7.70141E-1
-4.51446E-1,-7.65380E-1
-4.87976E-1,-7.00866E-1
-5.07324E-1,-6.48925E-1
-5.73669E-1,-5.81085E-1
-6.03820E-1,-5.12603E-1
-6.63147E-1,-5.18158E-1
-7.35015E-1,-4.78668E-1
-7.39440E-1,-4.42077E-1
-7.59674E-1,-4.03778E-1
-7.68676E-1,-3.05938E-1
-7.87933E-1,-2.31933E-1
-8.49639E-1,-1.28326E-1
-8.50555E-1,-0.51025E-1
-8.70117E-1,-0.35278E-1
-8.59405E-1,0.24292E-1
-7.96325E-1,0.55938E-1
-7.80822E-1,1.09680E-1
-7.58148E-1,2.01812E-1
-7.71423E-1,2.63397E-1
-8.12561E-1,3.51532E-1
-7.88970E-1,4.02893E-1
-7.68554E-1,4.14489E-1
-7.10083E-1,4.73510E-1
-6.36718E-1,5.19714E-1
-5.92437E-1,6.10199E-1
-5.13153E-1,6.89880E-1
-5.06042E-1,7.03277E-1
-4.98535E-1,7.47497E-1
-4.40673E-1,7.52319E-1
-3.89526E-1,7.65564E-1
-2.91626E-1,8.24279E-1
-1.86828E-1,8.56750E-1
-1.20391E-1,9.40521E-1
-0.27954E-1,9.65637E-1
0.03143E-1,9.42169E-1
0.67474E-1,9.33197E-1
1.66046E-1,8.72772E-1
2.46063E-1,8.28674E-1
3.41857E-1,7.99011E-1
3.73016E-1,7.93182E-1
4.28680E-1,8.23120E-1
4.99298E-1,7.89215E-1
5.33874E-1,7.29064E-1
5.93811E-1,6.70349E-1
6.50543E-1,5.86517E-1
7.16674E-1,5.58105E-1
8.04718E-1,5.01586E-1
8.28277E-1,4.30572E-1
8.39813E-1,3.89373E-1
8.56750E-1,3.14422E-1
8.59375E-1,2.34100E-1
8.90747E-1,1.53228E-1
9.11132E-1,0.59478E-1
9.11773E-1,-0.07446E-1
9.23736E-1,-0.61767E-1
9.17846E-1,-1.29669E-1
8.79974E-1,-1.99523E-1
8.53302E-1,-2.68524E-1
8.16101E-1,-3.47778E-1
7.91137E-1,-4.05242E-1
7.92511E-1,-4.69512E-1
7.58453E-1,-5.56335E-1
6.91314E-1,-6.05072E-1
6.20788E-1,-6.59271E-1
5.38208E-1,-6.74652E-1
5.09033E-1,-7.05322E-1
4.65881E-1,-7.83844E-1
3.86901E-1,-8.22326E-1
3.25256E-1,-8.32397E-1
END
BEGIN
-8.40667E-1,0.44464E-1
-8.58978E-1,0.92468E-1
-8.24615E-1,2.26043E-1
-7.59826E-1,2.36572E-1
-8.17993E-1,2.88787E-1
-7.71789E-1,4.21234E-1
-7.34924E-1,4.58831E-1
-7.06054E-1,5.77117E-1
-5.94238E-1,6.08856E-1
-6.05041E-1,6.21246E-1
-5.61187E-1,7.51739E-1
-4.52117E-1,7.92572E-1
-3.78479E-1,8.59191E-1
-2.35870E-1,8.74450E-1
-2.01934E-1,8.50585E-1
-1.37634E-1,9.37469E-1
-0.05462E-1,9.31762E-1
0.58166E-1,9.38934E-1
2.14325E-1,9.21630E-1
2.64984E-1,8.07495E-1
2.76886E-1,8.20312E-1
3.92486E-1,8.02459E-1
4.32525E-1,7.56378E-1
5.34912E-1,7.56500E-1
6.12976E-1,6.38183E-1
5.98541E-1,5.98754E-1
6.80969E-1,5.80902E-1
7.26104E-1,5.02716E-1
7.95715E-1,4.74365E-1
8.76251E-1,3.33587E-1
8.23669E-1,2.41699E-1
8.49517E-1,2.17559E-1
8.70361E-1,1.39556E-1
9.08996E-1,0.99609E-1
9.71130E-1,-0.59967E-1
8.60809E-1,-1.77459E-1
8.36761E-1,-1.74835E-1
8.50067E-1,-2.47680E-1
8.42468E-1,-2.97851E-1
8.76068E-1,-4.29016E-1
7.37793E-1,-5.64727E-1
6.53228E-1,-5.38726E-1
6.44043E-1,-5.77209E-1
6.05072E-1,-6.10412E-1
6.24145E-1,-6.92718E-1
4.98352E-1,-8.34533E-1
3.71307E-1,-8.00689E-1
3.49456E-1,-8.12530E-1
2.8125E-1,-8.37585E-1
2.65075E-1,-8.70361E-1
1.45202E-1,-9.88220E-1
-0.28259E-1,-9.31823E-1
-0.58868E-1,-8.84307E-1
-1.23779E-1,-8.84552E-1
-1.52862E-1,-8.65539E-1
-2.30102E-1,-9.30236E-1
-4.03198E-1,-8.69598E-1
-4.33288E-1,-7.72491E-1
-4.81323E-1,-7.5354E-1
-5.20996E-1,-7.07489E-1
-5.66803E-1,-7.29522E-1
-7.13867E-1,-6.73217E-1
-7.34680E-1,-5.33569E-1
-7.43011E-1,-4.88311E-1
-7.70111E-1,-4.19433E-1
-7.82684E-1,-4.07226E-1
-8.99322E-1,-3.71856E-1
-9.37713E-1,-2.1521E-1
-9.04571E-1,-1.52282E-1
-9.17785E-1,-0.85754E-1
-9.06646E-1,-0.33264E-1
-9.71374E-1,0.15411E-1
-9.94018E-1,1.83624E-1
-9.12902E-1,2.73529E-1
-8.89862E-1,3.29193E-1
-8.48815E-1,3.95904E-1
-8.45459E-1,4.39636E-1
-8.37371E-1,5.60089E-1
-7.39532E-1,6.49780E-1
-6.70806E-1,6.85821E-1
-6.04034E-1,7.24304E-1
-5.73089E-1,7.50122E-1
-5.35553E-1,8.44787E-1
-4.15985E-1,9.04724E-1
-3.40087E-1,9.11590E-1
-2.54913E-1,9.44305E-1
-1.72973E-1,9.28192E-1
-1.39007E-1,9.55139E-1
-0.37658E-1,1.01129E0
0.69824E-1,1.00512E0
1.56677E-1,1.00347E0
2.52594E-1,9.58801E-1
2.94586E-1,9.23004E-1
3.77014E-1,9.27307E-1
4.89929E-1,8.89923E-1
5.85540E-1,8.39477E-1
6.68273E-1,7.57720E-1
6.83990E-1,6.85913E-1
7.22656E-1,6.72424E-1
8.07464E-1,6.09375E-1
8.62426E-1,5.15167E-1
9.13147E-1,4.18029E-1
9.20410E-1,3.09539E-1
0.67688E-1,1.02850E0
1.17828E-1,9.34509E-1
9.88098E-1,1.10565E-1
9.99054E-1,0.26916E-1
9.85717E-1,-0.94238E-1
9.29473E-1,-1.63269E-1
9.32708E-1,-2.09564E-1
9.30969E-1,-3.04077E-1
9.03564E-1,-3.90777E-1
8.60015E-1,-4.96154E-1
7.62420E-1,-5.56579E-1
7.22259E-1,-5.67749E-1
7.00988E-1,-6.27258E-1
6.48162E-1,-6.92688E-1
5.80261E-1,-7.68524E-1
4.56268E-1,-8.13995E-1
3.82537E-1,-7.92266E-1
3.61267E-1,-8.12469E-1
3.16650E-1,-8.58398E-1
2.51068E-1,-9.07196E-1
1.28021E-1,-9.29962E-1
0.27923E-1,-8.73626E-1
-0.05188E-1,-8.49517E-1
-0.54779E-1,-8.66210E-1
-1.138E-1,-8.90014E-1
-2.21496E-1,-9.06311E-1
-3.23791E-1,-8.20861E-1
-3.31695E-1,-7.46734E-1
-3.54614E-1,-7.39257E-1
-4.13238E-1,-7.38922E-1
-5.06256E-1,-7.35290E-1
-6.00891E-1,-6.61956E-1
-6.12548E-1,-5.82244E-1
-6.22497E-1,-5.47058E-1
-6.48315E-1,-5.07415E-1
-6.95434E-1,-4.83337E-1
-7.81097E-1,-4.19860E-1
-8.04351E-1,-3.12957E-1
-7.96112E-1,-2.55676E-1
-7.94281E-1,-2.08587E-1
-8.05999E-1,-1.79046E-1
-8.59405E-1,-1.22650E-1
-8.75793E-1,-0.15838E-1
-8.54095E-1,0.54107E-1
-8.39813E-1,1.11938E-1
-8.25225E-1,1.46270E-1
-8.55468E-1,1.987E-1
-8.59222E-1,3.18786E-1
-7.91046E-1,4.09729E-1
-7.45727E-1,4.49493E-1
-7.02484E-1,4.81506E-1
-6.90490E-1,4.96002E-1
-6.74774E-1,6.00860E-1
-5.95062E-1,6.90338E-1
-5.20629E-1,7.36785E-1
-4.48913E-1,7.71637E-1
-3.98834E-1,7.69805E-1
-3.69903E-1,8.04595E-1
-2.87078E-1,8.50891E-1
-1.93359E-1,8.63586E-1
-1.05529E-1,8.74176E-1
-0.36315E-1,8.62243E-1
-0.08606E-1,8.73748E-1
0.55542E-1,8.96942E-1
1.35955E-1,8.83056E-1
2.18536E-1,8.57086E-1
2.99133E-1,8.09448E-1
3.45550E-1,7.83996E-1
4.07959E-1,7.88299E-1
4.81506E-1,7.62451E-1
5.33905E-1,7.15515E-1
5.8255E-1,6.51153E-1
6.11236E-1,5.90576E-1
6.55822E-1,5.52856E-1
7.19848E-1,5.04577E-1
7.63275E-1,4.44763E-1
7.96356E-1,3.862E-1
8.13385E-1,3.17199E-1
8.23669E-1,2.54760E-1
8.44696E-1,1.88903E-1
8.60351E-1,1.16760E-1
8.72833E-1,0.50140E-1
8.75610E-1,-0.20080E-1
8.60504E-1,-0.87249E-1
8.45459E-1,-1.47033E-1
8.34381E-1,-2.10479E-1
8.18328E-1,-2.74047E-1
8.05725E-1,-3.34442E-1
7.81646E-1,-4.01916E-1
7.35137E-1,-4.62005E-1
6.94976E-1,-5.11840E-1
6.50817E-1,-5.70251E-1
6.14959E-1,-6.16027E-1
5.88317E-1,-6.71264E-1
5.28869E-1,-7.26623E-1
4.57855E-1,-7.48992E-1
3.90960E-1,-7.74292E-1
3.22967E-1,-7.95593E-1
END
BEGIN
-4.60128E-1,-0.40695E-1
-4.91912E-1,-0.03860E-1
-5.23437E-1,0.67932E-1
-5.18798E-1,1.47064E-1
-4.75799E-1,2.23815E-1
-4.29702E-1,2.55737E-1
-4.23278E-1,2.96386E-1
-4.16488E-1,3.55194E-1
-3.88076E-1,4.27246E-1
-3.18420E-1,4.74884E-1
-2.46582E-1,4.81033E-1
-2.01187E-1,4.82696E-1
-1.73797E-1,5.08606E-1
-1.23779E-1,5.69122E-1
-0.39611E-1,5.94390E-1
0.39123E-1,5.76721E-1
0.87219E-1,5.35980E-1
1.12243E-1,5.21301E-1
1.59393E-1,5.43243E-1
2.45758E-1,5.31372E-1
3.10989E-1,4.87945E-1
3.45611E-1,4.22241E-1
3.46572E-1,3.79562E-1
3.74252E-1,3.60107E-1
4.35073E-1,3.21991E-1
4.83978E-1,2.57431E-1
5.00762E-1,1.75018E-1
4.78271E-1,1.19522E-1
4.70581E-1,0.86029E-1
4.86114E-1,0.54702E-1
5.09216E-1,-0.12298E-1
5.00701E-1,-0.92163E-1
4.57443E-1,-1.44271E-1
4.16412E-1,-1.59454E-1
4.06555E-1,-1.61026E-1
4.05853E-1,-2.17163E-1
3.66729E-1,-2.76794E-1
3.05786E-1,-3.17169E-1
2.55401E-1,-3.11294E-1
2.29385E-1,-3.00781E-1
2.19406E-1,-3.14437E-1
1.85318E-1,-3.45871E-1
1.21658E-1,-3.72512E-1
0.69992E-1,-3.56399E-1
0.46340E-1,-3.41278E-1
0.47576E-1,-3.30917E-1
0.22659E-1,-3.46649E-1
-0.31570E-1,-3.52325E-1
-0.87326E-1,-3.23638E-1
-1.03546E-1,-2.97988E-1
-1.13159E-1,-2.74276E-1
-1.12716E-1,-2.82623E-1
-1.52160E-1,-2.87811E-1
-2.00241E-1,-2.59109E-1
-2.22145E-1,-2.19825E-1
-2.23197E-1,-1.94976E-1
-2.13485E-1,-2.02926E-1
-2.39593E-1,-2.08381E-1
-2.75390E-1,-1.78344E-1
-2.86819E-1,-1.25122E-1
-2.81448E-1,-0.96893E-1
-2.74841E-1,-0.85052E-1
-2.91412E-1,-0.90072E-1
-3.27026E-1,-0.65734E-1
-3.37265E-1,-0.09216E-1
-3.21014E-1,0.34133E-1
-3.05252E-1,0.56549E-1
-3.16604E-1,0.50506E-1
-3.41278E-1,0.73501E-1
-3.40179E-1,1.16241E-1
-3.07434E-1,1.52648E-1
-2.79327E-1,1.74697E-1
-2.59765E-1,1.85836E-1
-2.61627E-1,2.07077E-1
-2.52960E-1,2.47695E-1
-2.14157E-1,2.83569E-1
-1.64474E-1,3.01132E-1
-1.23397E-1,2.95974E-1
-1.18164E-1,3.06930E-1
-1.05590E-1,3.36898E-1
-0.69503E-1,3.62976E-1
-0.18112E-1,3.57971E-1
0.21957E-1,3.34167E-1
0.44921E-1,3.17901E-1
0.63324E-1,3.17001E-1
0.97122E-1,3.28903E-1
1.48986E-1,3.13888E-1
1.83822E-1,2.73330E-1
2.01652E-1,2.26333E-1
2.11418E-1,2.06977E-1
2.34123E-1,2.03887E-1
2.73071E-1,1.89239E-1
2.87704E-1,1.41784E-1
2.79342E-1,0.90713E-1
2.59491E-1,0.50018E-1
2.54623E-1,0.27557E-1
2.68875E-1,0.04165E-1
2.73666E-1,-0.38757E-1
2.52731E-1,-0.83038E-1
2.10243E-1,-1.15219E-1
1.81587E-1,-1.31546E-1
1.79695E-1,-1.45561E-1
1.87820E-1,-1.80374E-1
1.99768E-1,-2.22976E-1
1.19682E-1,-1.60400E-1
0.84259E-1,-2.16575E-1
0.63026E-1,-2.06474E-1
0.55351E-1,-2.20375E-1
0.31486E-1,-2.38983E-1
-0.01853E-1,-2.43980E-1
-0.44197E-1,-2.29126E-1
-0.69534E-1,-2.04620E-1
-0.77560E-1,-2.00828E-1
-0.92529E-1,-2.21778E-1
-1.21589E-1,-2.29049E-1
-1.50245E-1,-2.12219E-1
-1.63726E-1,-1.79733E-1
-1.65870E-1,-1.59706E-1
-1.77391E-1,-1.60186E-1
-2.02537E-1,-1.59606E-1
-2.32772E-1,-1.49192E-1
-2.51007E-1,-1.16149E-1
-2.54516E-1,-0.85815E-1
-2.57492E-1,-0.71624E-1
-2.84408E-1,-0.70175E-1
-3.24951E-1,-0.52932E-1
-3.46160E-1,-0.14587E-1
-3.42529E-1,0.16861E-1
-3.31039E-1,0.32959E-1
-3.41247E-1,0.41366E-1
-3.61373E-1,0.66299E-1
-3.75091E-1,1.14608E-1
-3.62655E-1,1.58920E-1
-3.45886E-1,1.89437E-1
-3.39325E-1,2.06420E-1
-3.45932E-1,2.37533E-1
-3.47045E-1,2.85583E-1
-3.21304E-1,3.33526E-1
-2.91610E-1,3.57772E-1
-2.69302E-1,3.73611E-1
-2.58209E-1,3.92593E-1
-2.43331E-1,4.22103E-1
-2.08618E-1,4.58648E-1
-1.62262E-1,4.76669E-1
-1.17645E-1,4.87686E-1
-0.81375E-1,4.8909E-1
-0.49591E-1,5.01922E-1
-0.00091E-1,5.26184E-1
0.70770E-1,5.33660E-1
1.29882E-1,5.22308E-1
1.66503E-1,5.02899E-1
1.88629E-1,5.00793E-1
2.22183E-1,4.96505E-1
2.77130E-1,4.79431E-1
3.51272E-1,4.22271E-1
3.64822E-1,3.88488E-1
3.88351E-1,3.55682E-1
4.13833E-1,3.28903E-1
4.41162E-1,2.97515E-1
4.73861E-1,2.44049E-1
4.94659E-1,1.80755E-1
5.06774E-1,1.25091E-1
5.18829E-1,0.80169E-1
5.30761E-1,0.46142E-1
5.49621E-1,-0.01953E-1
5.33264E-1,-0.6073E-1
5.08026E-1,-1.12793E-1
4.77203E-1,-1.57730E-1
4.46838E-1,-1.93542E-1
4.23828E-1,-2.27142E-1
3.88244E-1,-2.79708E-1
3.35891E-1,-3.25241E-1
2.79068E-1,-3.54812E-1
2.32437E-1,-3.71582E-1
2.04559E-1,-3.8414E-1
1.67923E-1,-4.1539E-1
1.07513E-1,-4.27978E-1
0.47332E-1,-4.2836E-1
-0.06500E-1,-4.17175E-1
-0.43746E-1,-4.00741E-1
-0.76431E-1,-3.98315E-1
-1.28021E-1,-3.85513E-1
-1.78649E-1,-3.59375E-1
-2.29568E-1,-3.21228E-1
-2.60726E-1,-2.80914E-1
-2.83676E-1,-2.58789E-1
-3.16268E-1,-2.41836E-1
-3.41918E-1,-2.13348E-1
-3.64608E-1,-1.76010E-1
-3.70117E-1,-1.25122E-1
-3.63739E-1,-0.87646E-1
-3.66317E-1,-0.61889E-1
-3.81515E-1,-0.26199E-1
-3.84506E-1,0.19439E-1
-3.72726E-1,0.67016E-1
-3.50402E-1,1.04217E-1
-3.32855E-1,1.36230E-1
-3.33816E-1,1.58569E-1
-3.30902E-1,1.93756E-1
-3.18176E-1,2.20825E-1
-2.90695E-1,2.41394E-1
END
