CITIFILE A.01.01
#NA VERSION HP8510C.08.10
NAME DATA
#NA REGISTER 1
VAR FREQ MAG 201
DATA S[1,1] RI
DATA S[2,1] RI
DATA S[1,2] RI
DATA S[2,2] RI
SEG_LIST_BEGIN
SEG 8000000000 12000000000 201
SEG_LIST_END
COMMENT       YEAR MONTH DAY HOUR MINUTE SECONDS
CONSTANT TIME 2013   09   12  23    34    43.0
BEGIN
-4.88830E-1,-2.45513E-1
-5.22186E-1,-2.27996E-1
-5.27801E-1,-1.80206E-1
-5.11993E-1,-1.27563E-1
-5.01403E-1,-0.63079E-1
-4.85687E-1,-0.00351E-1
-4.85626E-1,0.70449E-1
-4.81842E-1,1.44561E-1
-4.92858E-1,2.07580E-1
-4.94842E-1,2.36816E-1
-4.75585E-1,2.32940E-1
-4.20517E-1,2.31582E-1
-3.38577E-1,2.56683E-1
-2.66265E-1,3.37249E-1
-2.27584E-1,4.28314E-1
-2.47467E-1,4.90142E-1
-2.79495E-1,4.91607E-1
-2.79830E-1,4.31579E-1
-2.13913E-1,3.82110E-1
-0.76629E-1,3.75167E-1
0.34408E-1,4.25033E-1
0.76202E-1,5.07629E-1
0.39642E-1,5.58227E-1
-0.12634E-1,5.43762E-1
-0.08880E-1,4.64157E-1
0.63308E-1,3.74755E-1
1.78695E-1,3.34365E-1
2.75772E-1,3.64273E-1
3.24173E-1,4.22714E-1
3.06137E-1,4.58145E-1
2.85064E-1,4.25582E-1
2.84317E-1,3.37265E-1
3.24691E-1,2.5177E-1
3.91998E-1,1.92993E-1
4.52026E-1,1.82968E-1
4.99435E-1,1.69723E-1
4.91790E-1,1.52252E-1
4.76226E-1,1.28326E-1
4.64736E-1,0.81359E-1
4.49890E-1,0.14801E-1
4.44458E-1,-0.58227E-1
4.40612E-1,-1.25762E-1
4.58480E-1,-1.86645E-1
4.7229E-1,-2.15164E-1
4.70382E-1,-2.24151E-1
4.27795E-1,-2.12951E-1
3.42910E-1,-2.37167E-1
2.64007E-1,-2.99423E-1
2.23068E-1,-3.88046E-1
2.46719E-1,-4.63317E-1
2.67227E-1,-4.81414E-1
2.67471E-1,-4.24392E-1
2.06237E-1,-3.59527E-1
0.87753E-1,-3.43093E-1
-0.21789E-1,-3.91677E-1
-0.71777E-1,-4.78942E-1
-0.43609E-1,-5.27496E-1
0.03326E-1,-4.99984E-1
0.06256E-1,-4.11697E-1
-0.64590E-1,-3.13171E-1
-1.74392E-1,-2.87628E-1
-2.71255E-1,-3.18801E-1
-2.84423E-1,-3.77410E-1
-2.41607E-1,-4.06234E-1
-1.99661E-1,-3.59695E-1
-1.94564E-1,-2.67501E-1
-2.49847E-1,-1.83433E-1
-3.15673E-1,-1.58935E-1
-3.64120E-1,-1.76452E-1
-3.64791E-1,-1.99432E-1
-3.26095E-1,-1.93878E-1
-2.98507E-1,-1.66626E-1
-2.89947E-1,-1.16088E-1
-2.97027E-1,-0.74966E-1
-3.11126E-1,-0.48416E-1
-3.26019E-1,-0.23849E-1
-3.44162E-1,-0.00106E-1
-3.56369E-1,0.10726E-1
-3.68927E-1,-0.06744E-1
-3.51059E-1,-0.14343E-1
-3.10348E-1,0.03219E-1
-2.62085E-1,0.69839E-1
-2.57507E-1,1.45706E-1
-3.19320E-1,2.06390E-1
-3.81759E-1,2.09381E-1
-4.02343E-1,1.49749E-1
-3.44909E-1,1.10961E-1
-2.35855E-1,1.24664E-1
-1.54136E-1,2.16796E-1
-1.56051E-1,3.38333E-1
-2.31521E-1,4.01611E-1
-3.06716E-1,3.78463E-1
-2.76519E-1,2.87170E-1
-1.75132E-1,2.16751E-1
-0.41259E-1,2.38212E-1
0.52017E-1,3.37493E-1
0.44036E-1,4.40490E-1
-0.16494E-1,4.74914E-1
-0.55847E-1,4.11941E-1
-0.11566E-1,3.09249E-1
0.98770E-1,2.50396E-1
2.16384E-1,2.59918E-1
2.88803E-1,3.18618E-1
2.86178E-1,3.39675E-1
2.45193E-1,3.08853E-1
2.30239E-1,2.29461E-1
2.61901E-1,1.45217E-1
3.18405E-1,0.87295E-1
3.57345E-1,0.52917E-1
3.67858E-1,0.33905E-1
3.62518E-1,-0.03738E-1
3.55911E-1,-0.46783E-1
3.46160E-1,-0.85678E-1
3.28979E-1,-1.15020E-1
2.83111E-1,-1.58554E-1
2.30232E-1,-2.22778E-1
2.02941E-1,-2.95410E-1
2.12051E-1,-3.51608E-1
2.28820E-1,-3.53500E-1
2.09167E-1,-3.06289E-1
1.32507E-1,-2.72552E-1
0.06225E-1,-2.88818E-1
-0.90484E-1,-3.64929E-1
-1.09848E-1,-4.42321E-1
-0.58609E-1,-4.73953E-1
-0.22827E-1,-4.24789E-1
-0.74783E-1,-3.17596E-1
-1.99615E-1,-2.28828E-1
-3.31848E-1,-2.29080E-1
-4.00344E-1,-3.03726E-1
-3.70788E-1,-3.68209E-1
-3.09173E-1,-3.49365E-1
-2.77954E-1,-2.27081E-1
-3.23822E-1,-0.91125E-1
-4.27795E-1,-0.28839E-1
-5.22613E-1,-0.48156E-1
-5.42846E-1,-1.00799E-1
-4.86160E-1,-1.00051E-1
-4.0065E-1,-0.18844E-1
-3.75335E-1,0.93444E-1
-4.23568E-1,1.86828E-1
-4.77798E-1,2.21847E-1
-4.96002E-1,2.10281E-1
-4.49173E-1,2.06863E-1
-3.75564E-1,2.40905E-1
-3.30673E-1,3.07128E-1
-3.25714E-1,3.68515E-1
-3.30749E-1,3.91113E-1
-3.13140E-1,4.07409E-1
-2.40829E-1,4.26544E-1
-1.73980E-1,4.45678E-1
-1.53762E-1,4.95407E-1
-1.49963E-1,5.11413E-1
-1.34658E-1,4.87442E-1
-0.59738E-1,4.59182E-1
0.42861E-1,4.39788E-1
1.14913E-1,4.74197E-1
1.43432E-1,5.3125E-1
1.06903E-1,5.33477E-1
0.82107E-1,4.66232E-1
1.33377E-1,3.65402E-1
2.37228E-1,3.05938E-1
3.55270E-1,3.32351E-1
4.13147E-1,3.99704E-1
3.77883E-1,4.41864E-1
2.96630E-1,3.75137E-1
2.72689E-1,2.34512E-1
3.48190E-1,1.07803E-1
4.67193E-1,0.55511E-1
5.39947E-1,0.89447E-1
5.11627E-1,1.59301E-1
4.12582E-1,1.67846E-1
3.19122E-1,0.63613E-1
3.15963E-1,-0.81253E-1
3.93707E-1,-1.78955E-1
4.72000E-1,-1.90292E-1
4.87442E-1,-1.32278E-1
4.10873E-1,-0.96344E-1
2.95791E-1,-1.29608E-1
2.32414E-1,-2.28782E-1
2.41912E-1,-3.25958E-1
2.81967E-1,-3.55361E-1
3.01467E-1,-3.32412E-1
2.52212E-1,-2.92190E-1
1.71814E-1,-2.91961E-1
1.06658E-1,-3.45916E-1
0.8461E-1,-4.00741E-1
0.85708E-1,-4.12826E-1
0.63736E-1,-3.90777E-1
0.10208E-1,-3.58306E-1
-0.57495E-1,-3.62258E-1
-1.02111E-1,-3.90014E-1
-1.00509E-1,-4.04861E-1
-0.95077E-1,-3.77914E-1
-1.31057E-1,-3.11325E-1
-2.07214E-1,-2.66952E-1
-2.90832E-1,-2.73986E-1
-3.16665E-1,-3.22937E-1
-2.88711E-1,-3.56094E-1
-2.42218E-1,-3.03955E-1
-2.44003E-1,-1.93153E-1
END
BEGIN
-9.37683E-1,-0.14984E-1
-9.02526E-1,0.78094E-1
-8.85864E-1,1.02600E-1
-8.62304E-1,2.29339E-1
-7.78625E-1,3.20465E-1
-7.55920E-1,4.33746E-1
-6.75842E-1,5.42053E-1
-6.25976E-1,5.55725E-1
-6.29058E-1,5.89691E-1
-5.67810E-1,6.08398E-1
-5.30944E-1,6.37054E-1
-4.14978E-1,7.02880E-1
-3.30719E-1,7.03735E-1
-3.16986E-1,7.71881E-1
-2.37823E-1,8.61419E-1
-1.96106E-1,8.73596E-1
-1.15814E-1,9.10339E-1
-0.14099E-1,8.34472E-1
0.13122E-1,8.06976E-1
1.23199E-1,8.44970E-1
2.26654E-1,8.44512E-1
3.16741E-1,9.03442E-1
4.42321E-1,8.61969E-1
4.44732E-1,8.01605E-1
5.16326E-1,7.83325E-1
6.00494E-1,6.56005E-1
6.70440E-1,5.89569E-1
8.02246E-1,4.79278E-1
7.97454E-1,3.63739E-1
7.84881E-1,3.78570E-1
7.95929E-1,3.37921E-1
7.66723E-1,3.10089E-1
8.22326E-1,2.28698E-1
8.11187E-1,0.80993E-1
8.17230E-1,0.54504E-1
9.19738E-1,0.24505E-1
9.79736E-1,-0.38696E-1
1.05078E0,-1.35986E-1
9.45526E-1,-3.34899E-1
7.95166E-1,-3.72039E-1
7.94097E-1,-4.45129E-1
7.49359E-1,-5.75012E-1
7.36846E-1,-6.27563E-1
6.95098E-1,-7.39593E-1
5.54718E-1,-7.11486E-1
5.39215E-1,-6.83410E-1
4.61242E-1,-7.77496E-1
3.65905E-1,-8.20037E-1
3.22479E-1,-9.35363E-1
1.48498E-1,-1.00244E0
0.85296E-1,-9.09179E-1
0.57830E-1,-8.94744E-1
-0.27160E-1,-8.44268E-1
-0.74462E-1,-8.33190E-1
-1.94122E-1,-8.62243E-1
-2.75421E-1,-8.14453E-1
-2.88543E-1,-8.27301E-1
-3.43078E-1,-8.17321E-1
-3.61328E-1,-8.02246E-1
-4.79888E-1,-8.05236E-1
-6.10321E-1,-6.79931E-1
-6.47125E-1,-5.99090E-1
-7.18322E-1,-5.48095E-1
-7.10205E-1,-4.82269E-1
-7.23358E-1,-5.07415E-1
-7.96020E-1,-4.28100E-1
-7.75543E-1,-3.31298E-1
-8.03558E-1,-2.85675E-1
-8.52294E-1,-2.06146E-1
-9.11468E-1,-1.73889E-1
-1.00885E0,-0.67016E-1
-9.61669E-1,0.59722E-1
-9.22332E-1,1.08429E-1
-8.77319E-1,2.07794E-1
-8.10272E-1,2.69073E-1
-8.10882E-1,3.41461E-1
-7.73834E-1,4.27337E-1
-7.65533E-1,4.41223E-1
-7.68493E-1,4.95361E-1
-7.14660E-1,5.18859E-1
-7.02514E-1,5.63476E-1
-6.40228E-1,6.84936E-1
-5.55511E-1,7.68707E-1
-4.86663E-1,8.68225E-1
-3.83300E-1,8.88855E-1
-3.84246E-1,8.74725E-1
-3.13934E-1,9.33990E-1
-1.89544E-1,9.07959E-1
-1.18530E-1,9.16198E-1
-0.02838E-1,9.45739E-1
0.42999E-1,9.52514E-1
0.94421E-1,1.05310E0
2.47253E-1,1.03619E0
3.13629E-1,9.47296E-1
4.05273E-1,8.88122E-1
4.86602E-1,7.90100E-1
5.43457E-1,7.61962E-1
6.43646E-1,7.35321E-1
6.52618E-1,6.83807E-1
6.82067E-1,6.86859E-1
7.36328E-1,6.12518E-1
7.52716E-1,5.44891E-1
8.46160E-1,4.96673E-1
9.40368E-1,3.87420E-1
1.00024E0,3.25012E-1
1.06243E0,2.16796E-1
1.01269E0,1.03698E-1
9.81964E-1,0.47332E-1
9.76135E-1,-0.71228E-1
9.45068E-1,-1.82647E-1
9.46991E-1,-2.76672E-1
9.02771E-1,-3.61816E-1
8.68621E-1,-3.67858E-1
8.66638E-1,-4.10095E-1
8.11248E-1,-4.90020E-1
7.54089E-1,-5.70343E-1
6.91314E-1,-6.76605E-1
6.09405E-1,-7.32849E-1
5.77117E-1,-7.73559E-1
5.09735E-1,-8.17352E-1
4.30328E-1,-8.12957E-1
3.54400E-1,-8.34442E-1
2.42736E-1,-8.55621E-1
1.73400E-1,-8.50860E-1
1.21765E-1,-8.83941E-1
0.69427E-1,-8.79455E-1
0.41748E-1,-8.74206E-1
-0.29937E-1,-8.65020E-1
-1.05438E-1,-8.41583E-1
-1.96197E-1,-8.48541E-1
-3.02825E-1,-8.22326E-1
-3.35144E-1,-8.04870E-1
-3.85803E-1,-8.03863E-1
-4.29321E-1,-7.43896E-1
-4.55688E-1,-6.91162E-1
-5.31921E-1,-6.33239E-1
-5.72845E-1,-5.64605E-1
-6.26190E-1,-5.75775E-1
-6.97845E-1,-5.45745E-1
-7.04650E-1,-5.07049E-1
-7.29919E-1,-4.69818E-1
-7.58148E-1,-3.70300E-1
-7.86712E-1,-2.93335E-1
-8.59252E-1,-2.01904E-1
-8.69812E-1,-1.22375E-1
-8.84857E-1,-1.07727E-1
-8.83636E-1,-0.44464E-1
-8.19152E-1,0.13580E-1
-8.02093E-1,0.75225E-1
-7.86865E-1,1.70715E-1
-8.02978E-1,2.24884E-1
-8.53698E-1,2.97729E-1
-8.37768E-1,3.52417E-1
-8.07098E-1,3.75152E-1
-7.45178E-1,4.43664E-1
-6.6922E-1,4.98748E-1
-6.38732E-1,5.90759E-1
-5.73425E-1,6.83837E-1
-5.60577E-1,6.97570E-1
-5.52002E-1,7.34985E-1
-4.82421E-1,7.41882E-1
-4.23950E-1,7.56317E-1
-3.31115E-1,8.24432E-1
-2.30529E-1,8.73168E-1
-1.69891E-1,9.59472E-1
-0.81512E-1,9.83306E-1
-0.44403E-1,9.51843E-1
0.22460E-1,9.41070E-1
1.31805E-1,8.92883E-1
2.25830E-1,8.57788E-1
3.29864E-1,8.35723E-1
3.61663E-1,8.23730E-1
4.02099E-1,8.48022E-1
4.65423E-1,8.13324E-1
5.03418E-1,7.51464E-1
5.77179E-1,6.89727E-1
6.45202E-1,6.02325E-1
7.07916E-1,5.79956E-1
7.91076E-1,5.35095E-1
8.11187E-1,4.71832E-1
8.22479E-1,4.27368E-1
8.41033E-1,3.41247E-1
8.40423E-1,2.52349E-1
8.79547E-1,1.77368E-1
9.07531E-1,0.88714E-1
9.15435E-1,0.33294E-1
9.29657E-1,-0.19226E-1
9.13024E-1,-0.86914E-1
8.74328E-1,-1.58966E-1
8.49121E-1,-2.36816E-1
8.20892E-1,-3.16070E-1
8.06701E-1,-3.76403E-1
8.08075E-1,-4.34814E-1
7.81341E-1,-5.07690E-1
7.14508E-1,-5.57220E-1
6.43096E-1,-6.13220E-1
5.65185E-1,-6.40289E-1
5.36346E-1,-6.82251E-1
5.02563E-1,-7.57782E-1
4.36401E-1,-8.03100E-1
3.72283E-1,-8.14209E-1
END
BEGIN
-7.94158E-1,0.08270E-1
-8.22753E-1,0.54534E-1
-7.84576E-1,1.75964E-1
-7.43560E-1,1.74163E-1
-8.13537E-1,2.44506E-1
-7.60437E-1,3.67858E-1
-7.44049E-1,4.05578E-1
-7.08984E-1,5.28686E-1
-6.13952E-1,5.4953E-1
-6.40045E-1,5.84686E-1
-5.75378E-1,7.20947E-1
-4.76745E-1,7.55950E-1
-3.98468E-1,8.27880E-1
-2.70538E-1,8.31268E-1
-2.5E-1,8.29528E-1
-1.68304E-1,9.22058E-1
-0.45959E-1,9.08142E-1
0.20263E-1,9.24224E-1
1.6745E-1,8.94561E-1
1.97845E-1,8.03466E-1
2.27935E-1,8.35571E-1
3.46496E-1,8.12530E-1
3.89129E-1,7.80365E-1
5.01525E-1,7.74597E-1
5.69458E-1,6.61560E-1
5.68695E-1,6.35620E-1
6.61132E-1,6.10229E-1
7.07214E-1,5.34515E-1
7.86132E-1,5.00824E-1
8.56872E-1,3.56872E-1
8.09967E-1,2.75970E-1
8.44512E-1,2.49206E-1
8.66149E-1,1.69708E-1
9.11499E-1,1.24267E-1
9.65728E-1,-0.39276E-1
8.58032E-1,-1.52343E-1
8.37371E-1,-1.52526E-1
8.48358E-1,-2.27264E-1
8.42010E-1,-2.77587E-1
8.72833E-1,-4.11560E-1
7.31109E-1,-5.41107E-1
6.50360E-1,-5.11932E-1
6.43035E-1,-5.49713E-1
6.06170E-1,-5.80596E-1
6.30859E-1,-6.60675E-1
5.09033E-1,-8.07189E-1
3.78845E-1,-7.72460E-1
3.59985E-1,-7.80395E-1
2.93731E-1,-8.04138E-1
2.85095E-1,-8.30169E-1
1.80358E-1,-9.58557E-1
-0.02288E-1,-9.13238E-1
-0.33233E-1,-8.57910E-1
-0.94085E-1,-8.57879E-1
-1.18408E-1,-8.33587E-1
-1.73797E-1,-9.05731E-1
-3.55346E-1,-8.73565E-1
-3.97857E-1,-7.68646E-1
-4.41375E-1,-7.49145E-1
-4.80651E-1,-6.98211E-1
-5.03112E-1,-7.21618E-1
-6.53228E-1,-7.02545E-1
-7.01843E-1,-5.57006E-1
-7.06634E-1,-5.04638E-1
-7.37274E-1,-4.32769E-1
-7.29614E-1,-4.15161E-1
-8.32611E-1,-4.21051E-1
-9.16931E-1,-2.77374E-1
-8.862E-1,-1.90673E-1
-8.99963E-1,-1.24481E-1
-8.78387E-1,-0.60943E-1
-9.21997E-1,-0.44769E-1
-9.97741E-1,0.94482E-1
-9.36767E-1,2.27417E-1
-9.01794E-1,2.88452E-1
-8.58306E-1,3.67614E-1
-8.30322E-1,3.96881E-1
-8.53118E-1,4.85168E-1
-7.87414E-1,6.09466E-1
-7.03613E-1,6.65130E-1
-6.25152E-1,7.17132E-1
-5.63293E-1,7.27752E-1
-5.51483E-1,7.84057E-1
-4.64874E-1,8.80279E-1
-3.63678E-1,8.97857E-1
-2.84668E-1,9.35607E-1
-1.62963E-1,9.27703E-1
-1.26373E-1,8.96026E-1
-0.82366E-1,9.48364E-1
0.23223E-1,9.74121E-1
1.04431E-1,9.75311E-1
2.19268E-1,9.52758E-1
2.76245E-1,8.78692E-1
3.09906E-1,8.73779E-1
4.07714E-1,8.75701E-1
5.06927E-1,8.46160E-1
6.16668E-1,7.88055E-1
6.54754E-1,6.76696E-1
6.42547E-1,6.47338E-1
7.13684E-1,6.32843E-1
7.88665E-1,5.56182E-1
8.55987E-1,4.76013E-1
8.96148E-1,3.51806E-1
8.67706E-1,2.91778E-1
9.07074E-1,2.63458E-1
9.39514E-1,1.76086E-1
9.52087E-1,1.04583E-1
9.76837E-1,-0.13153E-1
9.16412E-1,-1.18652E-1
8.97308E-1,-1.46087E-1
9.13238E-1,-2.18566E-1
9.01947E-1,-2.98797E-1
8.87847E-1,-4.06555E-1
7.93304E-1,-5.03051E-1
7.29431E-1,-5.08178E-1
7.18780E-1,-5.51116E-1
6.82159E-1,-6.15570E-1
6.36291E-1,-6.95709E-1
5.21545E-1,-7.73040E-1
4.26055E-1,-7.55127E-1
4.06616E-1,-7.59857E-1
3.76190E-1,-8.02673E-1
3.27514E-1,-8.56964E-1
2.14263E-1,-9.05700E-1
0.98236E-1,-8.66027E-1
0.60089E-1,-8.37921E-1
0.17089E-1,-8.56872E-1
-0.33721E-1,-8.86535E-1
-1.34246E-1,-9.19891E-1
-2.52563E-1,-8.52264E-1
-2.73101E-1,-7.73437E-1
-2.96051E-1,-7.63946E-1
-3.53546E-1,-7.69378E-1
-4.43359E-1,-7.76641E-1
-5.45471E-1,-7.15759E-1
-5.67627E-1,-6.36718E-1
-5.82428E-1,-6.01104E-1
-6.14013E-1,-5.62103E-1
-6.65374E-1,-5.39032E-1
-7.55676E-1,-4.81842E-1
-7.89642E-1,-3.78021E-1
-7.89001E-1,-3.18359E-1
-7.91503E-1,-2.69287E-1
-8.06457E-1,-2.36969E-1
-8.61572E-1,-1.80908E-1
-8.83209E-1,-0.74188E-1
-8.67889E-1,-0.02624E-1
-8.5849E-1,0.55755E-1
-8.49700E-1,0.94329E-1
-8.83209E-1,1.50848E-1
-8.87115E-1,2.74292E-1
-8.20556E-1,3.65387E-1
-7.79785E-1,4.05822E-1
-7.42584E-1,4.42993E-1
-7.34741E-1,4.66003E-1
-7.14538E-1,5.75683E-1
-6.34948E-1,6.64886E-1
-5.62347E-1,7.09899E-1
-4.98718E-1,7.43255E-1
-4.57428E-1,7.52502E-1
-4.22851E-1,7.98675E-1
-3.34228E-1,8.46496E-1
-2.41241E-1,8.60992E-1
-1.54510E-1,8.73046E-1
-0.93109E-1,8.67462E-1
-0.59295E-1,8.87115E-1
0.09613E-1,9.11193E-1
0.92437E-1,8.97369E-1
1.76910E-1,8.69689E-1
2.51861E-1,8.2547E-1
2.97943E-1,8.13049E-1
3.66851E-1,8.21044E-1
4.44000E-1,7.97424E-1
4.99725E-1,7.50366E-1
5.45532E-1,6.87225E-1
5.77911E-1,6.38336E-1
6.34246E-1,6.03668E-1
7.04925E-1,5.54809E-1
7.53997E-1,4.94995E-1
7.87567E-1,4.33502E-1
8.04565E-1,3.70361E-1
8.26263E-1,3.08105E-1
8.51959E-1,2.39959E-1
8.76068E-1,1.65679E-1
8.9151E-1,0.93200E-1
8.94836E-1,0.22491E-1
8.86138E-1,-0.45776E-1
8.72222E-1,-1.12396E-1
8.65509E-1,-1.79260E-1
8.51715E-1,-2.48413E-1
8.36303E-1,-3.13110E-1
8.12377E-1,-3.82965E-1
7.66174E-1,-4.46777E-1
7.24945E-1,-4.98291E-1
6.83502E-1,-5.59448E-1
6.46148E-1,-6.09344E-1
6.18499E-1,-6.68151E-1
5.54260E-1,-7.24182E-1
4.81475E-1,-7.45727E-1
4.17114E-1,-7.70568E-1
3.48815E-1,-7.93548E-1
END
BEGIN
-3.92547E-1,-2.00103E-1
-4.36340E-1,-1.77490E-1
-4.85046E-1,-1.18194E-1
-4.99206E-1,-0.50613E-1
-4.82803E-1,0.18371E-1
-4.57290E-1,0.53894E-1
-4.73342E-1,0.90866E-1
-4.87136E-1,1.55883E-1
-4.79675E-1,2.27722E-1
-4.33303E-1,2.88345E-1
-3.75167E-1,3.11569E-1
-3.41995E-1,3.31024E-1
-3.23883E-1,3.75686E-1
-2.91381E-1,4.48562E-1
-2.22518E-1,4.99572E-1
-1.47186E-1,5.05615E-1
-0.98144E-1,4.86572E-1
-0.69076E-1,4.90722E-1
-0.22247E-1,5.27374E-1
0.63812E-1,5.44433E-1
1.42303E-1,5.22644E-1
1.90780E-1,4.72641E-1
2.06161E-1,4.37805E-1
2.46780E-1,4.30343E-1
3.22845E-1,4.07562E-1
3.91494E-1,3.55484E-1
4.27795E-1,2.78259E-1
4.20944E-1,2.23342E-1
4.27764E-1,1.89941E-1
4.56039E-1,1.57959E-1
4.96109E-1,0.90545E-1
5.02655E-1,0.06897E-1
4.71023E-1,-0.53710E-1
4.35424E-1,-0.78430E-1
4.28405E-1,-0.89614E-1
4.36264E-1,-1.54464E-1
4.05975E-1,-2.27050E-1
3.51776E-1,-2.81005E-1
3.03009E-1,-2.86163E-1
2.77130E-1,-2.85354E-1
2.65808E-1,-3.07785E-1
2.28714E-1,-3.47793E-1
1.64337E-1,-3.83346E-1
1.08154E-1,-3.75442E-1
0.78460E-1,-3.65661E-1
0.70983E-1,-3.57284E-1
0.37262E-1,-3.74099E-1
-0.24536E-1,-3.82888E-1
-0.89263E-1,-3.58886E-1
-1.13021E-1,-3.35678E-1
-1.32186E-1,-3.09997E-1
-1.36459E-1,-3.11264E-1
-1.79367E-1,-3.11554E-1
-2.33093E-1,-2.78823E-1
-2.60513E-1,-2.3526E-1
-2.68920E-1,-2.01187E-1
-2.58697E-1,-1.95785E-1
-2.82974E-1,-1.91223E-1
-3.18359E-1,-1.51367E-1
-3.32611E-1,-0.88821E-1
-3.30703E-1,-0.49011E-1
-3.16070E-1,-0.23895E-1
-3.24234E-1,-0.28305E-1
-3.53286E-1,0.03265E-1
-3.54965E-1,0.67062E-1
-3.31008E-1,1.19796E-1
-3.01071E-1,1.53747E-1
-2.95059E-1,1.50116E-1
-3.06304E-1,1.73965E-1
-2.91000E-1,2.18093E-1
-2.45407E-1,2.57720E-1
-1.99600E-1,2.87750E-1
-1.59118E-1,2.93136E-1
-1.50833E-1,3.03878E-1
-1.30676E-1,3.35983E-1
-0.80505E-1,3.61999E-1
-0.13473E-1,3.70208E-1
0.42480E-1,3.46694E-1
0.56304E-1,3.40942E-1
0.76202E-1,3.52844E-1
1.18118E-1,3.61053E-1
1.78466E-1,3.33816E-1
2.23053E-1,2.86926E-1
2.49801E-1,2.50442E-1
2.66189E-1,2.29614E-1
2.91488E-1,2.22351E-1
3.36654E-1,1.90231E-1
3.60183E-1,1.24191E-1
3.58032E-1,0.59295E-1
3.55560E-1,0.24612E-1
3.58947E-1,0.05950E-1
3.81195E-1,-0.16265E-1
3.73962E-1,-0.74935E-1
3.43917E-1,-1.31805E-1
3.08349E-1,-1.78344E-1
2.80761E-1,-2.06588E-1
2.79342E-1,-2.21618E-1
2.73437E-1,-2.65441E-1
2.29736E-1,-3.04214E-1
1.73873E-1,-3.22372E-1
1.28936E-1,-3.35342E-1
1.07666E-1,-3.39004E-1
1.02615E-1,-3.65570E-1
0.63156E-1,-3.79241E-1
0.20248E-1,-3.77624E-1
-0.37292E-1,-3.68194E-1
-0.72204E-1,-3.44757E-1
-0.87570E-1,-3.44177E-1
-1.15982E-1,-3.46069E-1
-1.45507E-1,-3.35800E-1
-1.86035E-1,-3.11019E-1
-2.14401E-1,-2.73086E-1
-2.22763E-1,-2.51739E-1
-2.34130E-1,-2.56591E-1
-2.53448E-1,-2.49923E-1
-2.73559E-1,-2.24884E-1
-2.83660E-1,-1.82769E-1
-2.82241E-1,-1.49383E-1
-2.84576E-1,-1.36337E-1
-2.95806E-1,-1.31744E-1
-3.15765E-1,-1.23550E-1
-3.25317E-1,-0.91934E-1
-3.19961E-1,-0.61172E-1
-3.10516E-1,-0.42526E-1
-3.22174E-1,-0.43106E-1
-3.52279E-1,-0.33279E-1
-3.68591E-1,-0.02273E-1
-3.60046E-1,0.24765E-1
-3.41568E-1,0.38909E-1
-3.42376E-1,0.41854E-1
-3.59481E-1,0.58639E-1
-3.77212E-1,0.97198E-1
-3.68881E-1,1.34262E-1
-3.54782E-1,1.56417E-1
-3.48388E-1,1.64871E-1
-3.56903E-1,1.85302E-1
-3.64624E-1,2.24700E-1
-3.47274E-1,2.70813E-1
-3.23486E-1,2.93350E-1
-3.06869E-1,3.04748E-1
-3.03390E-1,3.19412E-1
-2.95349E-1,3.46633E-1
-2.71240E-1,3.85513E-1
-2.31582E-1,4.09988E-1
-1.98959E-1,4.26086E-1
-1.73004E-1,4.3367E-1
-1.52145E-1,4.49813E-1
-1.18057E-1,4.80636E-1
-0.57647E-1,5.01495E-1
-0.04760E-1,5.03326E-1
0.27664E-1,4.93698E-1
0.43579E-1,5.00335E-1
0.71991E-1,5.06042E-1
1.24908E-1,5.03448E-1
2.06863E-1,4.64736E-1
2.23800E-1,4.44778E-1
2.52334E-1,4.29550E-1
2.82653E-1,4.20303E-1
3.19366E-1,4.03762E-1
3.63754E-1,3.56521E-1
3.89648E-1,2.97637E-1
4.06372E-1,2.54150E-1
4.28329E-1,2.24731E-1
4.49752E-1,2.04361E-1
4.81277E-1,1.69845E-1
4.80300E-1,1.15173E-1
4.72106E-1,0.64041E-1
4.61303E-1,0.18631E-1
4.5224E-1,-0.17242E-1
4.50592E-1,-0.50994E-1
4.36523E-1,-1.02706E-1
4.05944E-1,-1.51351E-1
3.68362E-1,-1.90658E-1
3.36990E-1,-2.17666E-1
3.24508E-1,-2.38067E-1
3.04657E-1,-2.77648E-1
2.58377E-1,-3.05343E-1
2.07595E-1,-3.23638E-1
1.59240E-1,-3.32016E-1
1.26754E-1,-3.32092E-1
1.03958E-1,-3.47457E-1
0.59173E-1,-3.55316E-1
0.10940E-1,-3.48831E-1
-0.42419E-1,-3.30520E-1
-0.79040E-1,-3.06549E-1
-1.01669E-1,-3.00949E-1
-1.37283E-1,-3.03482E-1
-1.69708E-1,-2.89413E-1
-1.99508E-1,-2.63839E-1
-2.19032E-1,-2.21817E-1
-2.23732E-1,-1.89353E-1
-2.37640E-1,-1.75468E-1
-2.67730E-1,-1.53686E-1
-2.86315E-1,-1.18438E-1
-2.89993E-1,-0.76904E-1
-2.78350E-1,-0.40237E-1
-2.70782E-1,-0.14709E-1
-2.88833E-1,0.03616E-1
-3.02032E-1,0.40176E-1
-3.01727E-1,0.70358E-1
-2.82852E-1,0.95184E-1
END
