CITIFILE A.01.01
#NA VERSION HP8510C.08.10
NAME DATA
#NA REGISTER 1
VAR FREQ MAG 201
DATA S[1,1] RI
DATA S[2,1] RI
DATA S[1,2] RI
DATA S[2,2] RI
SEG_LIST_BEGIN
SEG 8000000000 12000000000 201
SEG_LIST_END
COMMENT       YEAR MONTH DAY HOUR MINUTE SECONDS
CONSTANT TIME 2013   09   12  23    41    16.0
BEGIN
-4.38797E-1,-2.10784E-1
-4.72808E-1,-1.99890E-1
-4.80636E-1,-1.64489E-1
-4.65087E-1,-1.25808E-1
-4.5224E-1,-0.72021E-1
-4.33654E-1,-0.17288E-1
-4.32739E-1,0.49865E-1
-4.33288E-1,1.23260E-1
-4.52652E-1,1.84387E-1
-4.66232E-1,2.11761E-1
-4.57443E-1,2.03064E-1
-4.08767E-1,1.96121E-1
-3.30108E-1,2.18917E-1
-2.57202E-1,3.00537E-1
-2.19635E-1,3.98025E-1
-2.42431E-1,4.69345E-1
-2.79312E-1,4.78286E-1
-2.85217E-1,4.23248E-1
-2.21328E-1,3.74588E-1
-0.82519E-1,3.65966E-1
0.34820E-1,4.16137E-1
0.83221E-1,5.02136E-1
0.51757E-1,5.58685E-1
0.03143E-1,5.50018E-1
0.07415E-1,4.71206E-1
0.79269E-1,3.77792E-1
1.94854E-1,3.31375E-1
2.96524E-1,3.55361E-1
3.51593E-1,4.08340E-1
3.39050E-1,4.41055E-1
3.17337E-1,4.05212E-1
3.10409E-1,3.14666E-1
3.4552E-1,2.26013E-1
4.08340E-1,1.61148E-1
4.66156E-1,1.44393E-1
5.10650E-1,1.22863E-1
5.00335E-1,1.04766E-1
4.80316E-1,0.83038E-1
4.64325E-1,0.39459E-1
4.40277E-1,-0.25558E-1
4.25643E-1,-1.00006E-1
4.15359E-1,-1.69387E-1
4.28482E-1,-2.30041E-1
4.44152E-1,-2.54486E-1
4.40490E-1,-2.58102E-1
3.95370E-1,-2.39242E-1
3.03817E-1,-2.55966E-1
2.18673E-1,-3.13522E-1
2.93548E-1,-3.01147E-1
3.91647E-1,-3.30871E-1
2.21481E-1,-4.90539E-1
2.27523E-1,-4.27078E-1
1.68838E-1,-3.53973E-1
0.48599E-1,-3.27728E-1
-0.63049E-1,-3.71551E-1
-1.15066E-1,-4.55505E-1
-0.83831E-1,-5.06469E-1
-0.29617E-1,-4.79873E-1
-0.18264E-1,-3.89282E-1
-0.79711E-1,-2.86087E-1
-1.86965E-1,-2.55096E-1
-2.82211E-1,-2.81631E-1
-2.97210E-1,-3.42132E-1
-2.54531E-1,-3.76174E-1
-2.08847E-1,-3.34732E-1
-1.98341E-1,-2.47566E-1
-2.47085E-1,-1.63505E-1
-3.09036E-1,-1.38351E-1
-3.58169E-1,-1.53060E-1
-3.63555E-1,-1.75659E-1
-3.30658E-1,-1.73889E-1
-3.07083E-1,-1.50543E-1
-2.95806E-1,-1.05102E-1
-2.98736E-1,-0.66650E-1
-3.09005E-1,-0.38681E-1
-3.22860E-1,-0.07904E-1
-3.44101E-1,0.2388E-1
-3.59222E-1,0.36087E-1
-3.76968E-1,0.19149E-1
-3.58749E-1,0.07492E-1
-3.13461E-1,0.23819E-1
-2.56210E-1,0.91201E-1
-2.44438E-1,1.73439E-1
-3.03695E-1,2.42004E-1
-3.67675E-1,2.47390E-1
-3.92059E-1,1.86294E-1
-3.30688E-1,1.42227E-1
-2.15362E-1,1.50085E-1
-1.23085E-1,2.38632E-1
-1.16653E-1,3.61343E-1
-1.89331E-1,4.28115E-1
-2.65335E-1,4.05517E-1
-2.40875E-1,3.07022E-1
-1.41571E-1,2.27996E-1
-0.05226E-1,2.40936E-1
0.94802E-1,3.33709E-1
0.95275E-1,4.35516E-1
0.34729E-1,4.65667E-1
-0.12405E-1,4.03945E-1
0.23483E-1,2.97744E-1
1.26129E-1,2.31483E-1
2.3983E-1,2.32605E-1
3.12973E-1,2.82714E-1
3.09661E-1,3.02917E-1
2.67990E-1,2.75131E-1
2.49229E-1,2.01889E-1
2.72934E-1,1.20498E-1
3.20007E-1,0.61981E-1
3.51059E-1,0.26458E-1
3.60443E-1,0.05157E-1
3.55972E-1,-0.32852E-1
3.52767E-1,-0.73486E-1
3.43551E-1,-1.06246E-1
3.22876E-1,-1.29043E-1
2.71774E-1,-1.66397E-1
2.14973E-1,-2.28790E-1
1.86584E-1,-3.03848E-1
1.98501E-1,-3.63433E-1
2.20565E-1,-3.64959E-1
2.07641E-1,-3.14682E-1
1.33682E-1,-2.76046E-1
0.06393E-1,-2.88650E-1
-0.94741E-1,-3.63250E-1
-1.17019E-1,-4.45785E-1
-0.66177E-1,-4.84359E-1
-0.27938E-1,-4.39102E-1
-0.74203E-1,-3.30795E-1
-1.96533E-1,-2.38952E-1
-3.29315E-1,-2.35763E-1
-4.03778E-1,-3.10363E-1
-3.80783E-1,-3.78128E-1
-3.23028E-1,-3.63830E-1
-2.89718E-1,-2.44506E-1
-3.33389E-1,-1.08596E-1
-4.37194E-1,-0.42938E-1
-5.35888E-1,-0.58319E-1
-5.61798E-1,-1.06597E-1
-5.09338E-1,-1.04126E-1
-4.25613E-1,-0.22934E-1
-3.99642E-1,0.88302E-1
-4.46411E-1,1.83136E-1
-4.98962E-1,2.21694E-1
-5.17730E-1,2.16247E-1
-4.70886E-1,2.18902E-1
-3.97674E-1,2.57766E-1
-3.54751E-1,3.23745E-1
-3.49868E-1,3.85360E-1
-3.50494E-1,4.09423E-1
-3.28506E-1,4.29031E-1
-2.46994E-1,4.53567E-1
-1.77246E-1,4.75555E-1
-1.57531E-1,5.28503E-1
-1.54815E-1,5.43701E-1
-1.36505E-1,5.18035E-1
-0.53863E-1,4.86114E-1
0.56182E-1,4.61486E-1
1.32888E-1,4.96948E-1
1.64032E-1,5.56182E-1
1.24237E-1,5.62164E-1
1.00509E-1,4.97207E-1
1.60171E-1,3.86856E-1
2.68203E-1,3.15078E-1
3.91937E-1,3.32183E-1
4.52514E-1,3.93814E-1
4.18930E-1,4.32540E-1
3.30886E-1,3.62655E-1
2.99774E-1,2.12539E-1
3.68820E-1,0.78826E-1
4.83169E-1,0.19912E-1
5.52154E-1,0.50750E-1
5.20996E-1,1.19628E-1
4.16381E-1,1.27853E-1
3.12439E-1,0.24520E-1
2.99179E-1,-1.20376E-1
3.68789E-1,-2.18292E-1
4.41391E-1,-2.28500E-1
4.51843E-1,-1.67877E-1
3.70040E-1,-1.27670E-1
2.49511E-1,-1.52389E-1
1.82136E-1,-2.42950E-1
1.86248E-1,-3.34884E-1
2.24090E-1,-3.56674E-1
2.41684E-1,-3.29025E-1
1.92123E-1,-2.81173E-1
1.15890E-1,-2.72811E-1
0.53375E-1,-3.18206E-1
0.33477E-1,-3.63082E-1
0.38772E-1,-3.67797E-1
0.19409E-1,-3.38211E-1
-0.30365E-1,-3.03634E-1
-0.91491E-1,-3.06350E-1
-1.28173E-1,-3.30688E-1
-1.16882E-1,-3.41278E-1
-1.01959E-1,-3.10440E-1
-1.30424E-1,-2.39379E-1
-2.03781E-1,-1.95999E-1
-2.84194E-1,-2.06893E-1
-3.04977E-1,-2.61505E-1
-2.66967E-1,-2.98812E-1
-2.12509E-1,-2.48779E-1
-2.07183E-1,-1.40052E-1
END
BEGIN
-9.82849E-1,0.50170E-1
-9.32373E-1,1.39587E-1
-9.20593E-1,1.5802E-1
-8.81408E-1,2.91442E-1
-7.79785E-1,3.75762E-1
-7.37731E-1,4.95727E-1
-6.35650E-1,5.95092E-1
-5.94665E-1,5.97473E-1
-6.05072E-1,6.36444E-1
-5.44464E-1,6.48071E-1
-5.07263E-1,6.73309E-1
-3.76037E-1,7.25219E-1
-2.94982E-1,7.11486E-1
-2.82318E-1,7.89062E-1
-1.92260E-1,8.81103E-1
-1.54235E-1,8.92852E-1
-0.70159E-1,9.25109E-1
0.22979E-1,8.32977E-1
0.40374E-1,8.04229E-1
1.56921E-1,8.39996E-1
2.61413E-1,8.35601E-1
3.57818E-1,8.95843E-1
4.80926E-1,8.46923E-1
4.75647E-1,7.87353E-1
5.47546E-1,7.67059E-1
6.25854E-1,6.35894E-1
6.92749E-1,5.67627E-1
8.22845E-1,4.53094E-1
8.14025E-1,3.39508E-1
8.01940E-1,3.53729E-1
8.11279E-1,3.12652E-1
7.81524E-1,2.84027E-1
8.35845E-1,2.02728E-1
8.23425E-1,0.56304E-1
8.27789E-1,0.26916E-1
9.25933E-1,-0.07110E-1
9.81353E-1,-0.72723E-1
1.04589E0,-1.70471E-1
9.41986E-1,-3.64135E-1
7.96539E-1,-4.01062E-1
7.91656E-1,-4.74792E-1
7.42492E-1,-6.03271E-1
7.26104E-1,-6.56127E-1
6.79718E-1,-7.66204E-1
5.44250E-1,-7.38647E-1
5.26062E-1,-7.1698E-1
4.44091E-1,-8.08258E-1
3.45764E-1,-8.48480E-1
2.87414E-1,-9.62768E-1
1.10229E-1,-1.00476E0
0.58624E-1,-9.27124E-1
0.26336E-1,-9.15466E-1
-0.57373E-1,-8.63830E-1
-1.06964E-1,-8.53088E-1
-2.29492E-1,-8.73291E-1
-3.11248E-1,-8.21594E-1
-3.30627E-1,-8.34320E-1
-3.89495E-1,-8.20892E-1
-4.10797E-1,-8.06427E-1
-5.33691E-1,-7.98156E-1
-6.53137E-1,-6.60949E-1
-6.85577E-1,-5.77514E-1
-7.55432E-1,-5.19439E-1
-7.43591E-1,-4.53216E-1
-7.63092E-1,-4.78393E-1
-8.30047E-1,-3.91387E-1
-8.01422E-1,-2.98156E-1
-8.27636E-1,-2.48291E-1
-8.71368E-1,-1.62780E-1
-9.31152E-1,-1.25793E-1
-1.02356E0,-0.07690E-1
-9.64080E-1,1.13983E-1
-9.21905E-1,1.56372E-1
-8.67797E-1,2.54303E-1
-7.95227E-1,3.09326E-1
-7.94036E-1,3.81805E-1
-7.51586E-1,4.66400E-1
-7.45605E-1,4.77508E-1
-7.49389E-1,5.30517E-1
-6.93725E-1,5.4953E-1
-6.80633E-1,5.93170E-1
-6.10778E-1,7.14263E-1
-5.22369E-1,7.94525E-1
-4.51232E-1,8.94470E-1
-3.46649E-1,9.11499E-1
-3.48327E-1,8.95233E-1
-2.77404E-1,9.51995E-1
-1.49536E-1,9.19372E-1
-0.77209E-1,9.23187E-1
0.39337E-1,9.51202E-1
0.85601E-1,9.56573E-1
1.39282E-1,1.05542E0
2.90954E-1,1.03131E0
3.54400E-1,9.39666E-1
4.44671E-1,8.76647E-1
5.23620E-1,7.75634E-1
5.83038E-1,7.48840E-1
6.88201E-1,7.12097E-1
6.92291E-1,6.56829E-1
7.20275E-1,6.55273E-1
7.69195E-1,5.79620E-1
7.83569E-1,5.10192E-1
8.75E-1,4.55963E-1
9.63195E-1,3.40545E-1
1.01776E0,2.74169E-1
1.07452E0,1.64184E-1
1.01953E0,0.54504E-1
9.87213E-1,-0.01678E-1
9.73815E-1,-1.18866E-1
9.36401E-1,-2.27447E-1
9.31854E-1,-3.22174E-1
8.82843E-1,-4.05304E-1
8.50708E-1,-4.09545E-1
8.49121E-1,-4.52880E-1
7.88848E-1,-5.28686E-1
7.27417E-1,-6.06140E-1
6.54754E-1,-7.08618E-1
5.70465E-1,-7.59643E-1
5.36407E-1,-8.00018E-1
4.65637E-1,-8.40606E-1
3.90564E-1,-8.29895E-1
3.15795E-1,-8.48266E-1
2.01751E-1,-8.59893E-1
1.34338E-1,-8.50250E-1
0.80322E-1,-8.81286E-1
0.30242E-1,-8.76983E-1
0.03692E-1,-8.73779E-1
-0.66345E-1,-8.64563E-1
-1.41296E-1,-8.34899E-1
-2.32727E-1,-8.33496E-1
-3.36517E-1,-7.98370E-1
-3.67004E-1,-7.83691E-1
-4.2099E-1,-7.84393E-1
-4.60144E-1,-7.21283E-1
-4.81262E-1,-6.68914E-1
-5.50476E-1,-6.04339E-1
-5.85205E-1,-5.37780E-1
-6.44500E-1,-5.48004E-1
-7.18048E-1,-5.13855E-1
-7.23877E-1,-4.76654E-1
-7.47314E-1,-4.37896E-1
-7.65136E-1,-3.37249E-1
-7.88848E-1,-2.62329E-1
-8.58245E-1,-1.63818E-1
-8.63586E-1,-0.84838E-1
-8.82263E-1,-0.71228E-1
-8.75824E-1,-0.09521E-1
-8.09143E-1,0.36682E-1
-7.91473E-1,0.94268E-1
-7.72491E-1,1.90155E-1
-7.89794E-1,2.44873E-1
-8.40545E-1,3.24249E-1
-8.21899E-1,3.78234E-1
-7.95410E-1,3.94928E-1
-7.3172E-1,4.61944E-1
-6.53900E-1,5.12573E-1
-6.21246E-1,6.06384E-1
-5.51513E-1,6.99157E-1
-5.42266E-1,7.14050E-1
-5.34210E-1,7.55310E-1
-4.63134E-1,7.56347E-1
-4.06616E-1,7.66296E-1
-3.10699E-1,8.33343E-1
-2.07000E-1,8.79974E-1
-1.41296E-1,9.68689E-1
-0.52368E-1,9.93011E-1
-0.18463E-1,9.60113E-1
0.45715E-1,9.48181E-1
1.55273E-1,8.95965E-1
2.51586E-1,8.56170E-1
3.60015E-1,8.29803E-1
3.90930E-1,8.17047E-1
4.31549E-1,8.45367E-1
4.94628E-1,8.10058E-1
5.29937E-1,7.46307E-1
6.03820E-1,6.80206E-1
6.70715E-1,5.86547E-1
7.33459E-1,5.60821E-1
8.17565E-1,5.14679E-1
8.38867E-1,4.53613E-1
8.49792E-1,4.08691E-1
8.62915E-1,3.19122E-1
8.59283E-1,2.28973E-1
8.95416E-1,1.49719E-1
9.22729E-1,0.57861E-1
9.31793E-1,-0.00152E-1
9.45465E-1,-0.54077E-1
9.24713E-1,-1.21917E-1
8.82934E-1,-1.92718E-1
8.52600E-1,-2.69348E-1
8.21441E-1,-3.51318E-1
8.05389E-1,-4.16137E-1
8.03619E-1,-4.76348E-1
7.76428E-1,-5.50201E-1
7.05810E-1,-5.98449E-1
6.29699E-1,-6.51214E-1
5.47088E-1,-6.74896E-1
5.11627E-1,-7.18627E-1
4.73419E-1,-7.95105E-1
4.02557E-1,-8.38592E-1
3.36578E-1,-8.45703E-1
END
BEGIN
-8.28979E-1,0.37384E-1
-8.53424E-1,0.91827E-1
-8.09509E-1,2.14477E-1
-7.66632E-1,2.19696E-1
-8.24859E-1,2.95043E-1
-7.65899E-1,4.16259E-1
-7.41516E-1,4.57305E-1
-6.98059E-1,5.76751E-1
-6.01104E-1,5.95977E-1
-6.18682E-1,6.33209E-1
-5.47363E-1,7.60742E-1
-4.45678E-1,7.91534E-1
-3.63678E-1,8.56567E-1
-2.35199E-1,8.55743E-1
-2.10296E-1,8.52020E-1
-1.25549E-1,9.375E-1
-0.03845E-1,9.17633E-1
0.63293E-1,9.29870E-1
2.07611E-1,8.92913E-1
2.34039E-1,7.99713E-1
2.64770E-1,8.28918E-1
3.80889E-1,8.00994E-1
4.21142E-1,7.67425E-1
5.32775E-1,7.56897E-1
5.94085E-1,6.41784E-1
5.92681E-1,6.18927E-1
6.85363E-1,5.90057E-1
7.27081E-1,5.13732E-1
8.07373E-1,4.77752E-1
8.71002E-1,3.29650E-1
8.20831E-1,2.55737E-1
8.59436E-1,2.28942E-1
8.80157E-1,1.47979E-1
9.28405E-1,0.97839E-1
9.71283E-1,-0.73333E-1
8.58520E-1,-1.74072E-1
8.44970E-1,-1.73858E-1
8.55346E-1,-2.52807E-1
8.50463E-1,-3.06549E-1
8.71765E-1,-4.48638E-1
7.21527E-1,-5.66375E-1
6.49871E-1,-5.33660E-1
6.42944E-1,-5.77026E-1
6.06506E-1,-6.11816E-1
6.22833E-1,-7.01355E-1
4.86389E-1,-8.38867E-1
3.63708E-1,-7.97210E-1
3.44055E-1,-8.10394E-1
1.07165E0,-1.44226E-1
8.72314E-1,-0.22705E-1
1.38427E-1,-9.88189E-1
-0.36956E-1,-9.27948E-1
-0.64849E-1,-8.76373E-1
-1.29119E-1,-8.76068E-1
-1.54693E-1,-8.53942E-1
-2.25128E-1,-9.23339E-1
-4.04327E-1,-8.71551E-1
-4.38598E-1,-7.67150E-1
-4.85382E-1,-7.45849E-1
-5.24780E-1,-6.93145E-1
-5.55633E-1,-7.13653E-1
-7.04254E-1,-6.76849E-1
-7.39563E-1,-5.30365E-1
-7.43774E-1,-4.77630E-1
-7.70446E-1,-4.03839E-1
-7.65411E-1,-3.85162E-1
-8.71124E-1,-3.77594E-1
-9.40216E-1,-2.27874E-1
-9.05242E-1,-1.44897E-1
-9.14947E-1,-0.76416E-1
-8.90808E-1,-0.15350E-1
-9.34387E-1,0.03997E-1
-9.99389E-1,1.50024E-1
-9.29229E-1,2.77435E-1
-8.90502E-1,3.35937E-1
-8.43078E-1,4.11499E-1
-8.16589E-1,4.39086E-1
-8.33709E-1,5.32501E-1
-7.57385E-1,6.52282E-1
-6.71142E-1,7.00897E-1
-5.90759E-1,7.47070E-1
-5.32653E-1,7.53570E-1
-5.18402E-1,8.14422E-1
-4.21875E-1,9.05639E-1
-3.22082E-1,9.14733E-1
-2.39776E-1,9.50042E-1
-1.23291E-1,9.31762E-1
-0.93902E-1,9.04296E-1
-0.41961E-1,9.60113E-1
0.67443E-1,9.77630E-1
1.50024E-1,9.76532E-1
2.63183E-1,9.44274E-1
3.10272E-1,8.71521E-1
3.47686E-1,8.69476E-1
4.50317E-1,8.65539E-1
5.50750E-1,8.30749E-1
6.58905E-1,7.63763E-1
6.88598E-1,6.48773E-1
6.78283E-1,6.24908E-1
7.52105E-1,6.03088E-1
8.21594E-1,5.20263E-1
8.84887E-1,4.34387E-1
9.12658E-1,3.07739E-1
8.83483E-1,2.54150E-1
9.25720E-1,2.20367E-1
9.52087E-1,1.29455E-1
9.62097E-1,0.56701E-1
9.77691E-1,-0.63568E-1
9.10644E-1,-1.62109E-1
8.92425E-1,-1.88659E-1
9.04357E-1,-2.64038E-1
8.88336E-1,-3.44574E-1
8.67462E-1,-4.53155E-1
7.66052E-1,-5.41412E-1
7.04986E-1,-5.42724E-1
6.92565E-1,-5.85601E-1
6.52313E-1,-6.48590E-1
6.01593E-1,-7.26440E-1
4.81933E-1,-7.95898E-1
3.88244E-1,-7.72552E-1
3.69598E-1,-7.77099E-1
3.36486E-1,-8.18542E-1
2.85888E-1,-8.69751E-1
1.70318E-1,-9.12658E-1
0.57495E-1,-8.64776E-1
0.22308E-1,-8.34777E-1
-0.20813E-1,-8.52325E-1
-0.72296E-1,-8.80493E-1
-1.75750E-1,-9.10888E-1
-2.90924E-1,-8.36578E-1
-3.06488E-1,-7.55554E-1
-3.27056E-1,-7.46826E-1
-3.83392E-1,-7.49511E-1
-4.74609E-1,-7.54272E-1
-5.74737E-1,-6.87469E-1
-5.90179E-1,-6.06231E-1
-6.02478E-1,-5.72570E-1
-6.31378E-1,-5.33416E-1
-6.81945E-1,-5.10986E-1
-7.72094E-1,-4.50256E-1
-8.00445E-1,-3.42834E-1
-7.95013E-1,-2.84912E-1
-7.96081E-1,-2.36541E-1
-8.10089E-1,-2.06024E-1
-8.64898E-1,-1.48742E-1
-8.82232E-1,-0.39856E-1
-8.62701E-1,0.30304E-1
-8.51165E-1,0.87402E-1
-8.39782E-1,1.22375E-1
-8.74023E-1,1.79534E-1
-8.75549E-1,3.05389E-1
-8.04687E-1,3.92242E-1
-7.62298E-1,4.30206E-1
-7.25158E-1,4.64935E-1
-7.19268E-1,4.85839E-1
-6.97418E-1,5.98053E-1
-6.12945E-1,6.8573E-1
-5.39886E-1,7.27996E-1
-4.74365E-1,7.612E-1
-4.33258E-1,7.69287E-1
-3.96759E-1,8.14361E-1
-3.06152E-1,8.58642E-1
-2.11853E-1,8.67767E-1
-1.25488E-1,8.75335E-1
-0.66772E-1,8.67950E-1
-0.35034E-1,8.90136E-1
0.35308E-1,9.14398E-1
1.18103E-1,8.98956E-1
2.01812E-1,8.68896E-1
2.73376E-1,8.22326E-1
3.20983E-1,8.11187E-1
3.93035E-1,8.19793E-1
4.71374E-1,7.93457E-1
5.26458E-1,7.44506E-1
5.70587E-1,6.80877E-1
6.04309E-1,6.32568E-1
6.63543E-1,5.95764E-1
7.33673E-1,5.42724E-1
7.84027E-1,4.79339E-1
8.16284E-1,4.15679E-1
8.34014E-1,3.51959E-1
8.55163E-1,2.85675E-1
8.80950E-1,2.13256E-1
9.02221E-1,1.35925E-1
9.15008E-1,0.59509E-1
9.15954E-1,-0.14068E-1
9.04846E-1,-0.85937E-1
8.87146E-1,-1.54724E-1
8.77075E-1,-2.23663E-1
8.58367E-1,-2.96508E-1
8.38958E-1,-3.61724E-1
8.10516E-1,-4.32830E-1
7.57629E-1,-4.95697E-1
7.11761E-1,-5.46569E-1
6.63757E-1,-6.07605E-1
6.22924E-1,-6.56402E-1
5.89416E-1,-7.14630E-1
5.18890E-1,-7.65960E-1
4.43725E-1,-7.82074E-1
3.76556E-1,-8.02673E-1
3.06610E-1,-8.21350E-1
END
BEGIN
-4.54483E-1,-1.71081E-1
-5.02166E-1,-1.41235E-1
-5.48492E-1,-0.72540E-1
-5.58227E-1,0.03631E-1
-5.33905E-1,0.81146E-1
-5.03601E-1,1.18682E-1
-5.15930E-1,1.63543E-1
-5.21606E-1,2.33032E-1
-5.05767E-1,3.08319E-1
-4.47692E-1,3.68682E-1
-3.82110E-1,3.87420E-1
-3.43292E-1,4.05151E-1
-3.19046E-1,4.47952E-1
-2.77832E-1,5.20080E-1
-1.99493E-1,5.63385E-1
-1.21368E-1,5.59814E-1
-0.71655E-1,5.34454E-1
-0.41931E-1,5.33905E-1
0.06347E-1,5.65551E-1
0.93841E-1,5.737E-1
1.69921E-1,5.42968E-1
2.13028E-1,4.87869E-1
2.25280E-1,4.51110E-1
2.64114E-1,4.40811E-1
3.36685E-1,4.14016E-1
4.00100E-1,3.58169E-1
4.30618E-1,2.79174E-1
4.18838E-1,2.26059E-1
4.24026E-1,1.94335E-1
4.50622E-1,1.63085E-1
4.87793E-1,0.96817E-1
4.90905E-1,0.14328E-1
4.56222E-1,-0.43289E-1
4.20608E-1,-0.65048E-1
4.13803E-1,-0.73867E-1
4.22363E-1,-1.37283E-1
3.91220E-1,-2.08511E-1
3.35357E-1,-2.59201E-1
2.87185E-1,-2.62329E-1
2.63473E-1,-2.59536E-1
2.54684E-1,-2.82608E-1
2.18933E-1,-3.22601E-1
1.53701E-1,-3.56582E-1
0.97976E-1,-3.46496E-1
0.69305E-1,-3.34899E-1
0.64590E-1,-3.28094E-1
0.31158E-1,-3.47091E-1
-0.31417E-1,-3.55056E-1
-1.47415E-1,-3.54309E-1
-1.73156E-1,-2.60940E-1
-1.33667E-1,-2.78823E-1
-1.38534E-1,-2.83599E-1
-1.83197E-1,-2.84545E-1
-2.35565E-1,-2.50213E-1
-2.60726E-1,-2.05856E-1
-2.65731E-1,-1.72836E-1
-2.55828E-1,-1.71218E-1
-2.82943E-1,-1.67114E-1
-3.18603E-1,-1.26129E-1
-3.29437E-1,-0.64346E-1
-3.26583E-1,-0.25756E-1
-3.12179E-1,-0.03112E-1
-3.22799E-1,-0.08850E-1
-3.54599E-1,0.25131E-1
-3.54888E-1,0.89492E-1
-3.29940E-1,1.39770E-1
-2.99697E-1,1.70517E-1
-2.98309E-1,1.68273E-1
-3.09600E-1,1.96746E-1
-2.92114E-1,2.42828E-1
-2.44384E-1,2.80761E-1
-1.98226E-1,3.08319E-1
-1.59912E-1,3.12408E-1
-1.50863E-1,3.26538E-1
-1.27014E-1,3.60824E-1
-0.75149E-1,3.86856E-1
-0.07247E-1,3.92959E-1
0.44448E-1,3.67370E-1
0.57464E-1,3.63662E-1
0.80261E-1,3.76312E-1
1.25732E-1,3.83483E-1
1.85821E-1,3.54507E-1
2.28408E-1,3.07113E-1
2.54150E-1,2.71469E-1
2.71270E-1,2.50656E-1
2.99682E-1,2.42050E-1
3.46252E-1,2.06146E-1
3.68957E-1,1.40976E-1
3.65844E-1,0.78155E-1
3.64151E-1,0.43838E-1
3.69323E-1,0.23986E-1
3.92883E-1,-0.02899E-1
3.84017E-1,-0.64544E-1
3.53759E-1,-1.21887E-1
3.17962E-1,-1.68869E-1
2.90985E-1,-1.98928E-1
2.86727E-1,-2.21099E-1
2.72399E-1,-2.64511E-1
2.29354E-1,-3.01864E-1
1.73736E-1,-3.20312E-1
1.29104E-1,-3.31298E-1
1.09146E-1,-3.35113E-1
0.99990E-1,-3.63739E-1
0.57601E-1,-3.76739E-1
0.12512E-1,-3.75412E-1
-0.45822E-1,-3.64334E-1
-0.78979E-1,-3.40148E-1
-0.96069E-1,-3.39874E-1
-1.26647E-1,-3.39965E-1
-1.59378E-1,-3.28430E-1
-2.01721E-1,-3.02078E-1
-2.28927E-1,-2.63656E-1
-2.36251E-1,-2.43629E-1
-2.49504E-1,-2.47367E-1
-2.70553E-1,-2.37381E-1
-2.91534E-1,-2.08694E-1
-3.01132E-1,-1.65023E-1
-2.99209E-1,-1.31622E-1
-3.01788E-1,-1.18469E-1
-3.13385E-1,-1.11816E-1
-3.35037E-1,-0.99487E-1
-3.44177E-1,-0.64682E-1
-3.38699E-1,-0.32104E-1
-3.2901E-1,-0.13519E-1
-3.41445E-1,-0.13443E-1
-3.71383E-1,0.01007E-1
-3.83606E-1,0.35522E-1
-3.72131E-1,0.64712E-1
-3.53241E-1,0.80017E-1
-3.53256E-1,0.83892E-1
-3.68713E-1,1.01303E-1
-3.81576E-1,1.43249E-1
-3.68927E-1,1.80633E-1
-3.52508E-1,2.04345E-1
-3.45077E-1,2.13806E-1
-3.52432E-1,2.35107E-1
-3.5672E-1,2.75161E-1
-3.34716E-1,3.18481E-1
-3.08258E-1,3.37646E-1
-2.89306E-1,3.49121E-1
-2.83645E-1,3.63769E-1
-2.73452E-1,3.90380E-1
-2.45391E-1,4.27703E-1
-2.03735E-1,4.47555E-1
-1.67556E-1,4.61807E-1
-1.39541E-1,4.67178E-1
-1.17324E-1,4.82910E-1
-0.79620E-1,5.11901E-1
-0.17272E-1,5.28472E-1
0.34820E-1,5.26458E-1
0.66528E-1,5.13793E-1
0.83953E-1,5.19500E-1
1.13098E-1,5.22674E-1
1.65893E-1,5.16296E-1
2.43957E-1,4.72305E-1
2.60528E-1,4.51141E-1
2.88253E-1,4.33822E-1
3.19183E-1,4.21600E-1
3.55163E-1,4.04571E-1
3.97949E-1,3.58810E-1
4.23843E-1,3.00827E-1
4.40628E-1,2.55111E-1
4.63195E-1,2.22091E-1
4.84878E-1,1.99020E-1
5.16418E-1,1.61315E-1
5.12725E-1,1.07055E-1
5.02777E-1,0.56976E-1
4.90676E-1,0.10955E-1
4.79171E-1,-0.26245E-1
4.76577E-1,-0.62210E-1
4.61410E-1,-1.15676E-1
4.30801E-1,-1.65481E-1
3.92257E-1,-2.04238E-1
3.60290E-1,-2.31170E-1
3.47168E-1,-2.52441E-1
3.25302E-1,-2.94586E-1
2.78533E-1,-3.23074E-1
2.27020E-1,-3.42056E-1
1.77917E-1,-3.50067E-1
1.46225E-1,-3.51150E-1
1.21810E-1,-3.68804E-1
0.74325E-1,-3.79409E-1
0.22872E-1,-3.74481E-1
-0.31280E-1,-3.56430E-1
-0.68466E-1,-3.32519E-1
-0.91888E-1,-3.29177E-1
-1.32186E-1,-3.34045E-1
-1.68380E-1,-3.20541E-1
-2.01034E-1,-2.95806E-1
-2.21954E-1,-2.53234E-1
-2.26219E-1,-2.21702E-1
-2.43476E-1,-2.09564E-1
-2.79892E-1,-1.84646E-1
-3.02200E-1,-1.45858E-1
-3.08746E-1,-1.01882E-1
-2.96798E-1,-0.64788E-1
-2.91839E-1,-0.41626E-1
-3.14178E-1,-0.18386E-1
-3.28002E-1,0.23712E-1
-3.28659E-1,0.57846E-1
-3.10104E-1,0.85113E-1
END
