CITIFILE A.01.01
#NA VERSION HP8510C.08.10
NAME DATA
#NA REGISTER 1
VAR FREQ MAG 201
DATA S[1,1] RI
DATA S[2,1] RI
DATA S[1,2] RI
DATA S[2,2] RI
SEG_LIST_BEGIN
SEG 8000000000 12000000000 201
SEG_LIST_END
COMMENT       YEAR MONTH DAY HOUR MINUTE SECONDS
CONSTANT TIME 2013   09   12  23    48    00.0
BEGIN
-4.04876E-1,-2.93350E-1
-4.51095E-1,-2.86117E-1
-4.75708E-1,-2.54043E-1
-4.75906E-1,-2.22885E-1
-4.73632E-1,-1.77169E-1
-4.60235E-1,-1.30249E-1
-4.65728E-1,-0.66223E-1
-4.74899E-1,0.11611E-1
-5.08728E-1,0.79742E-1
-5.40405E-1,1.16912E-1
-5.49102E-1,1.13891E-1
-5.13916E-1,1.08337E-1
-4.44335E-1,1.34903E-1
-3.78295E-1,2.25174E-1
-3.42056E-1,3.4021E-1
-3.64349E-1,4.30908E-1
-4.03167E-1,4.55825E-1
-4.16595E-1,4.10537E-1
-3.64044E-1,3.71597E-1
-2.24243E-1,3.75305E-1
-0.99807E-1,4.32678E-1
-0.40374E-1,5.25238E-1
-0.64788E-1,5.92559E-1
-1.10656E-1,6.00677E-1
-1.02478E-1,5.40588E-1
-0.27145E-1,4.59655E-1
0.93261E-1,4.17724E-1
2.00439E-1,4.40551E-1
2.64526E-1,4.95681E-1
2.66876E-1,5.32684E-1
2.63000E-1,5.05584E-1
2.72659E-1,4.22714E-1
3.14865E-1,3.36807E-1
3.81546E-1,2.69455E-1
4.40856E-1,2.46276E-1
4.97543E-1,2.20016E-1
5.02533E-1,1.92993E-1
4.96917E-1,1.63711E-1
4.86450E-1,1.18438E-1
4.63256E-1,0.53543E-1
4.45602E-1,-0.24047E-1
4.33120E-1,-1.01486E-1
4.47906E-1,-1.74072E-1
4.67056E-1,-2.08831E-1
4.69207E-1,-2.15652E-1
4.27642E-1,-1.97265E-1
3.34701E-1,-2.13729E-1
2.43591E-1,-2.74414E-1
1.92611E-1,-3.67813E-1
2.11135E-1,-4.52835E-1
2.34176E-1,-4.72732E-1
2.40768E-1,-4.12826E-1
1.80679E-1,-3.38439E-1
0.56182E-1,-3.09326E-1
-0.62744E-1,-3.50189E-1
-1.23260E-1,-4.33868E-1
-0.98892E-1,-4.85656E-1
-0.50308E-1,-4.59594E-1
-0.40084E-1,-3.66134E-1
-1.02233E-1,-2.56500E-1
-2.11853E-1,-2.14256E-1
-3.10119E-1,-2.31430E-1
-3.29147E-1,-2.82119E-1
-2.91381E-1,-3.08517E-1
-2.44506E-1,-2.58544E-1
-2.25502E-1,-1.65092E-1
-2.60513E-1,-0.72692E-1
-3.16116E-1,-0.37017E-1
-3.57894E-1,-0.34011E-1
-3.54492E-1,-0.43167E-1
-3.11706E-1,-0.40405E-1
-2.77557E-1,-0.18417E-1
-2.48321E-1,0.20225E-1
-2.30781E-1,0.55557E-1
-2.22259E-1,0.88546E-1
-2.18269E-1,1.26655E-1
-2.27317E-1,1.57547E-1
-2.40432E-1,1.58401E-1
-2.53692E-1,1.31683E-1
-2.20214E-1,1.04606E-1
-1.47598E-1,1.10801E-1
-0.61767E-1,1.59141E-1
-0.40435E-1,2.31933E-1
-0.91796E-1,2.95761E-1
-1.61758E-1,2.86972E-1
-1.85287E-1,2.09861E-1
-1.13357E-1,1.27143E-1
0.77247E-2,1.01989E-1
1.04942E-1,1.66114E-1
1.16409E-1,2.76718E-1
0.41122E-1,3.39431E-1
-0.42327E-1,2.98477E-1
-0.52459E-1,1.70593E-1
2.25830E-2,6.70700E-2
1.48613E-1,0.52429E-1
2.41165E-1,1.22291E-1
2.38708E-1,2.14233E-1
1.64123E-1,2.43797E-1
0.95649E-1,1.84150E-1
9.20143E-2,7.44590E-2
1.61247E-1,-0.02044E-1
2.51709E-1,-0.16464E-1
3.09127E-1,0.09567E-1
2.91809E-1,0.29754E-1
2.39975E-1,0.15876E-1
1.99531E-1,-0.35430E-1
1.94061E-1,-0.98083E-1
2.03971E-1,-1.48643E-1
2.04612E-1,-1.81381E-1
1.98432E-1,-2.07527E-1
1.85981E-1,-2.35771E-1
1.82189E-1,-2.53997E-1
1.68624E-1,-2.51571E-1
1.31034E-1,-2.42805E-1
0.56854E-1,-2.50915E-1
-0.16708E-1,-2.95440E-1
-0.47378E-1,-3.61755E-1
-0.28396E-1,-4.11041E-1
0.10742E-1,-3.92303E-1
0.16830E-1,-3.15368E-1
-0.54885E-1,-2.47261E-1
-1.82296E-1,-2.30339E-1
-2.83172E-1,-2.89825E-1
-2.94662E-1,-3.70300E-1
-2.32360E-1,-4.14245E-1
-1.75079E-1,-3.64883E-1
-1.95678E-1,-2.41340E-1
-2.93853E-1,-1.35009E-1
-4.16290E-1,-1.23733E-1
-4.91760E-1,-1.91497E-1
-4.70184E-1,-2.63610E-1
-4.06814E-1,-2.54364E-1
-3.55789E-1,-1.45645E-1
-3.77014E-1,-0.17913E-1
-4.66064E-1,0.47195E-1
-5.56152E-1,0.42297E-1
-5.81665E-1,0.02655E-1
-5.30304E-1,0.03997E-1
-4.45785E-1,0.69397E-1
-4.17434E-1,1.62216E-1
-4.51873E-1,2.46246E-1
-4.89364E-1,2.80532E-1
-5.0E-1,2.81204E-1
-4.57428E-1,2.87872E-1
-3.95034E-1,3.23928E-1
-3.67401E-1,3.75732E-1
-3.67935E-1,4.20272E-1
-3.63433E-1,4.31945E-1
-3.29498E-1,4.52041E-1
-2.42233E-1,4.83154E-1
-1.81610E-1,5.15533E-1
-1.79473E-1,5.77728E-1
-1.94427E-1,5.88745E-1
-1.87744E-1,5.52642E-1
-1.01898E-1,5.18646E-1
0.1651E-1,4.99588E-1
0.99670E-1,5.50445E-1
1.29821E-1,6.30157E-1
0.75592E-1,6.53106E-1
0.42785E-1,5.99823E-1
1.08291E-1,4.86938E-1
2.21771E-1,4.11682E-1
3.61923E-1,4.34021E-1
4.37408E-1,5.07659E-1
4.10644E-1,5.71258E-1
3.29650E-1,5.18066E-1
3.01834E-1,3.72436E-1
3.74221E-1,2.35931E-1
5.01861E-1,1.67388E-1
5.90393E-1,1.96228E-1
5.85571E-1,2.74475E-1
5.03234E-1,2.90649E-1
4.13742E-1,1.96731E-1
4.11132E-1,0.53024E-1
4.85199E-1,-0.54916E-1
5.72174E-1,-0.79834E-1
6.08917E-1,-0.36224E-1
5.55175E-1,-0.08422E-1
4.58175E-1,-0.47515E-1
4.03396E-1,-1.48407E-1
4.10171E-1,-2.44369E-1
4.50759E-1,-2.82791E-1
4.76211E-1,-2.86148E-1
4.33425E-1,-2.73986E-1
3.61434E-1,-2.98919E-1
3.03573E-1,-3.64028E-1
2.89276E-1,-4.20776E-1
2.85980E-1,-4.43405E-1
2.47528E-1,-4.35058E-1
1.77078E-1,-4.24560E-1
0.97518E-1,-4.50759E-1
0.54443E-1,-4.95193E-1
0.65429E-1,-5.23376E-1
0.63964E-1,-5.03936E-1
0.13290E-1,-4.38659E-1
-0.86547E-1,-3.99841E-1
-1.96182E-1,-4.10049E-1
-2.35137E-1,-4.79354E-1
-2.18597E-1,-5.31005E-1
-1.77841E-1,-4.79583E-1
-1.90567E-1,-3.66882E-1
END
BEGIN
-9.37896E-1,1.36901E-1
-8.90869E-1,2.04162E-1
-8.98437E-1,2.33825E-1
-8.39019E-1,3.55743E-1
-7.3349E-1,4.12719E-1
-6.67327E-1,5.13183E-1
-5.65979E-1,5.75042E-1
-5.47699E-1,5.91369E-1
-5.53985E-1,6.57348E-1
-5.04119E-1,6.70105E-1
-4.68170E-1,6.97479E-1
-3.41125E-1,7.09014E-1
-2.88818E-1,6.88415E-1
-2.51983E-1,7.89611E-1
-1.34277E-1,8.69964E-1
-0.93078E-1,8.94836E-1
-0.04730E-1,9.15466E-1
0.40618E-1,8.17016E-1
0.45623E-1,8.12988E-1
1.82952E-1,8.35510E-1
2.97363E-1,8.17932E-1
4.29260E-1,8.58367E-1
5.33905E-1,7.86712E-1
5.16082E-1,7.62023E-1
5.96862E-1,7.40203E-1
6.43005E-1,6.00616E-1
7.06756E-1,5.21606E-1
8.05755E-1,3.70422E-1
7.77191E-1,2.84454E-1
7.94097E-1,3.21472E-1
8.15368E-1,2.89398E-1
7.98980E-1,2.79937E-1
8.50280E-1,1.80450E-1
8.04016E-1,0.38421E-1
8.21899E-1,0.16326E-1
9.41162E-1,-0.44036E-1
1.00372E0,-1.24816E-1
1.0672E0,-2.50854E-1
9.15252E-1,-4.29046E-1
7.70080E-1,-4.26696E-1
7.65441E-1,-5.06195E-1
7.02362E-1,-6.33758E-1
6.89239E-1,-6.93420E-1
6.28570E-1,-8.05999E-1
5.04699E-1,-7.57293E-1
5.00244E-1,-7.37854E-1
4.08447E-1,-8.25103E-1
3.08868E-1,-8.59283E-1
2.44689E-1,-9.73114E-1
0.61523E-1,-1.01495E0
0.15930E-1,-9.22210E-1
-0.12176E-1,-9.12597E-1
-0.89782E-1,-8.58551E-1
-1.38549E-1,-8.47808E-1
-2.65167E-1,-8.63678E-1
-3.43078E-1,-8.10607E-1
-3.65051E-1,-8.24127E-1
-4.22393E-1,-8.09417E-1
-4.43634E-1,-7.91717E-1
-5.63049E-1,-7.81372E-1
-6.83105E-1,-6.47613E-1
-7.17620E-1,-5.66162E-1
-7.9245E-1,-5.07019E-1
-7.80609E-1,-4.33898E-1
-7.91778E-1,-4.51904E-1
-8.57360E-1,-3.67309E-1
-8.36944E-1,-2.65319E-1
-8.61755E-1,-2.12677E-1
-9.07959E-1,-1.28448E-1
-9.54528E-1,-0.89111E-1
-1.03814E0,0.09765E-1
-9.94293E-1,1.3797E-1
-9.49707E-1,1.96289E-1
-9.09393E-1,3.05328E-1
-8.37371E-1,3.86352E-1
-8.23181E-1,4.59472E-1
-7.79663E-1,5.45043E-1
-7.49420E-1,5.60577E-1
-7.37915E-1,6.08673E-1
-6.70715E-1,6.45233E-1
-6.27563E-1,6.90826E-1
-5.59448E-1,7.90557E-1
-4.78332E-1,8.61877E-1
-4.18945E-1,9.43725E-1
-3.18756E-1,9.75555E-1
-2.77832E-1,9.63958E-1
-1.93267E-1,9.96246E-1
-0.65582E-1,9.79217E-1
0.21179E-1,9.76562E-1
1.23748E-1,9.97528E-1
1.88751E-1,9.96551E-1
2.53662E-1,1.04217E0
3.74267E-1,1.00225E0
4.34112E-1,9.07440E-1
5.32867E-1,8.61267E-1
6.22863E-1,7.83966E-1
6.94305E-1,7.38708E-1
7.82226E-1,6.86981E-1
7.99896E-1,6.15997E-1
8.25836E-1,5.72845E-1
8.63189E-1,4.88708E-1
8.84460E-1,4.07043E-1
9.49859E-1,3.36364E-1
1.00909E0,2.28271E-1
1.03479E0,1.56494E-1
1.05786E0,0.70068E-1
1.02856E0,-0.28747E-1
1.00079E0,-1.10046E-1
9.82849E-1,-2.26257E-1
9.43023E-1,-3.34716E-1
9.23400E-1,-4.16229E-1
8.77807E-1,-4.94293E-1
8.24951E-1,-5.19195E-1
7.93884E-1,-5.62133E-1
7.25524E-1,-6.33544E-1
6.57775E-1,-6.99249E-1
5.95947E-1,-7.86102E-1
5.13275E-1,-8.38714E-1
4.64660E-1,-8.73321E-1
3.84033E-1,-9.10522E-1
2.87719E-1,-8.95629E-1
2.05566E-1,-8.99658E-1
0.91644E-1,-9.04815E-1
0.21270E-1,-8.85986E-1
-0.36499E-1,-9.05273E-1
-0.88531E-1,-8.86261E-1
-1.14410E-1,-8.69537E-1
-1.78314E-1,-8.45977E-1
-2.47894E-1,-8.10821E-1
-3.42376E-1,-8.01849E-1
-4.45220E-1,-7.51556E-1
-4.71740E-1,-7.29858E-1
-5.21972E-1,-7.20214E-1
-5.45684E-1,-6.53045E-1
-5.57830E-1,-6.01867E-1
-6.19293E-1,-5.24749E-1
-6.42639E-1,-4.54650E-1
-7.08435E-1,-4.5578E-1
-7.76702E-1,-4.11041E-1
-7.78015E-1,-3.78723E-1
-7.98217E-1,-3.38287E-1
-7.94952E-1,-2.35321E-1
-8.07037E-1,-1.57318E-1
-8.57696E-1,-0.42419E-1
-8.48205E-1,0.35430E-1
-8.70941E-1,0.52734E-1
-8.52325E-1,1.08459E-1
-7.85949E-1,1.25732E-1
-7.67242E-1,1.78558E-1
-7.30102E-1,2.69714E-1
-7.39990E-1,3.33618E-1
-7.72857E-1,4.32769E-1
-7.43713E-1,4.81353E-1
-7.27325E-1,4.89440E-1
-6.60430E-1,5.41351E-1
-5.8078E-1,5.74798E-1
-5.23101E-1,6.60797E-1
-4.30816E-1,7.26745E-1
-4.32983E-1,7.43530E-1
-4.26544E-1,7.99957E-1
-3.64624E-1,7.98980E-1
-3.11767E-1,8.04046E-1
-2.02179E-1,8.44360E-1
-0.94757E-1,8.59405E-1
-0.14892E-1,9.37347E-1
0.80841E-1,9.51477E-1
1.05438E-1,9.27581E-1
1.66076E-1,9.12414E-1
2.49725E-1,8.36853E-1
3.16955E-1,7.83447E-1
4.07226E-1,7.43530E-1
4.42657E-1,7.38098E-1
5.05279E-1,7.63855E-1
5.71929E-1,7.24609E-1
5.95214E-1,6.65008E-1
6.45721E-1,6.02996E-1
6.92169E-1,5.14984E-1
7.55188E-1,4.75708E-1
8.35449E-1,4.06799E-1
8.52325E-1,3.34228E-1
8.60199E-1,2.97729E-1
8.72009E-1,2.28393E-1
8.66027E-1,1.47216E-1
8.82476E-1,0.65185E-1
8.89160E-1,-0.30609E-1
8.81652E-1,-0.96771E-1
8.93493E-1,-1.47399E-1
8.85101E-1,-2.14630E-1
8.41156E-1,-2.75604E-1
8.09478E-1,-3.37860E-1
7.63946E-1,-4.10095E-1
7.33673E-1,-4.63623E-1
7.33001E-1,-5.30944E-1
6.86004E-1,-6.16424E-1
6.18164E-1,-6.54785E-1
5.45867E-1,-7.01110E-1
4.64233E-1,-7.02941E-1
4.375E-1,-7.29370E-1
3.83850E-1,-8.04565E-1
3.02642E-1,-8.32000E-1
2.42950E-1,-8.40728E-1
END
BEGIN
-8.30322E-1,0.94604E-1
-8.48724E-1,1.43798E-1
-8.00384E-1,2.71972E-1
-7.41699E-1,2.73529E-1
-7.99163E-1,3.37341E-1
-7.39135E-1,4.65057E-1
-7.03826E-1,4.99542E-1
-6.63635E-1,6.18133E-1
-5.51544E-1,6.37603E-1
-5.66741E-1,6.56127E-1
-5.06805E-1,7.84027E-1
-3.96087E-1,8.12927E-1
-3.17901E-1,8.73504E-1
-1.76391E-1,8.73107E-1
-1.50634E-1,8.48602E-1
-0.77423E-1,9.34448E-1
0.50994E-1,9.16259E-1
1.13128E-1,9.23248E-1
2.67730E-1,8.92089E-1
3.01757E-1,7.76641E-1
3.16131E-1,7.95257E-1
4.32739E-1,7.68798E-1
4.68658E-1,7.22686E-1
5.72906E-1,7.15484E-1
6.40319E-1,5.89416E-1
6.22009E-1,5.55725E-1
7.03949E-1,5.33477E-1
7.42645E-1,4.52636E-1
8.10668E-1,4.22149E-1
8.80584E-1,2.74200E-1
8.19976E-1,1.90460E-1
8.45336E-1,1.68548E-1
8.60595E-1,0.90698E-1
8.98651E-1,0.51208E-1
9.51660E-1,-1.1026E-1
8.36547E-1,-2.22473E-1
8.09997E-1,-2.16125E-1
8.19366E-1,-2.86590E-1
8.11309E-1,-3.33038E-1
8.42010E-1,-4.65850E-1
6.95861E-1,-5.94970E-1
6.13678E-1,-5.60699E-1
6.04797E-1,-5.97381E-1
5.66101E-1,-6.26831E-1
5.85449E-1,-7.08343E-1
4.56115E-1,-8.48724E-1
3.27362E-1,-8.09631E-1
3.06060E-1,-8.17565E-1
2.39074E-1,-8.38928E-1
2.23693E-1,-8.67828E-1
1.04766E-1,-9.85076E-1
-0.70251E-1,-9.25170E-1
-0.98632E-1,-8.73046E-1
-1.62506E-1,-8.71124E-1
-1.90124E-1,-8.49578E-1
-2.64068E-1,-9.13513E-1
-4.36431E-1,-8.54400E-1
-4.67620E-1,-7.53295E-1
-5.14801E-1,-7.31262E-1
-5.53558E-1,-6.81121E-1
-5.94726E-1,-7.00439E-1
-7.39410E-1,-6.47064E-1
-7.61566E-1,-5.05249E-1
-7.68432E-1,-4.57641E-1
-7.93670E-1,-3.86596E-1
-8.05938E-1,-3.72161E-1
-9.20043E-1,-3.34320E-1
-9.57275E-1,-1.77063E-1
-9.24835E-1,-1.10473E-1
-9.36737E-1,-0.40405E-1
-9.24102E-1,0.16815E-1
-9.80468E-1,0.71167E-1
-9.95605E-1,2.34314E-1
-9.15679E-1,3.26751E-1
-8.87451E-1,3.85284E-1
-8.42498E-1,4.54711E-1
-8.30566E-1,5.02990E-1
-8.11431E-1,6.19140E-1
-7.13928E-1,7.04681E-1
-6.40686E-1,7.41851E-1
-5.69580E-1,7.79907E-1
-5.28259E-1,8.09234E-1
-4.76593E-1,8.94134E-1
-3.58825E-1,9.45159E-1
-2.80273E-1,9.50958E-1
-1.91711E-1,9.77569E-1
-1.07391E-1,9.60144E-1
-0.62164E-1,9.80255E-1
0.43151E-1,1.02154E0
1.48193E-1,1.00952E0
2.35839E-1,1.00103E0
3.28460E-1,9.53002E-1
3.75579E-1,9.11651E-1
4.71405E-1,9.21173E-1
5.64331E-1,8.52233E-1
6.53717E-1,7.95105E-1
7.31170E-1,7.10296E-1
7.46215E-1,6.37481E-1
7.85675E-1,6.15783E-1
8.63250E-1,5.44952E-1
9.08477E-1,4.46533E-1
9.50866E-1,3.44940E-1
9.50042E-1,2.39013E-1
9.53826E-1,1.98089E-1
1.00097E0,1.23596E-1
1.00311E0,0.25329E-1
1.00647E0,-0.60668E-1
9.78546E-1,-1.79870E-1
9.20318E-1,-2.39959E-1
9.21814E-1,-2.91320E-1
9.07501E-1,-3.88855E-1
8.70758E-1,-4.74151E-1
8.11584E-1,-5.75988E-1
7.12097E-1,-6.18591E-1
6.80114E-1,-6.30554E-1
6.52374E-1,-6.95404E-1
5.89813E-1,-7.56500E-1
5.07995E-1,-8.24157E-1
3.80645E-1,-8.48602E-1
3.18420E-1,-8.22052E-1
2.95257E-1,-8.50097E-1
2.40539E-1,-8.96209E-1
1.63452E-1,-9.38629E-1
0.35797E-1,-9.38690E-1
-0.46722E-1,-8.70178E-1
-0.77117E-1,-8.52325E-1
-1.35040E-1,-8.68438E-1
-2.03765E-1,-8.86688E-1
-3.19793E-1,-8.82385E-1
-4.00421E-1,-7.80334E-1
-3.94409E-1,-7.16186E-1
-4.22637E-1,-7.11425E-1
-4.87335E-1,-7.03613E-1
-5.84411E-1,-6.83502E-1
-6.63757E-1,-5.91339E-1
-6.58813E-1,-5.18890E-1
-6.70196E-1,-4.89257E-1
-6.96746E-1,-4.48455E-1
-7.47528E-1,-4.16839E-1
-8.25042E-1,-3.35815E-1
-8.27606E-1,-2.28637E-1
-8.14575E-1,-1.77948E-1
-8.12561E-1,-1.32690E-1
-8.26843E-1,-1.00494E-1
-8.74725E-1,-0.31768E-1
-8.72283E-1,0.76690E-1
-8.42987E-1,1.39526E-1
-8.22906E-1,1.95129E-1
-8.06640E-1,2.27844E-1
-8.33648E-1,2.90893E-1
-8.17718E-1,4.15863E-1
-7.35107E-1,4.91607E-1
-6.90490E-1,5.22064E-1
-6.47247E-1,5.49133E-1
-6.36413E-1,5.63354E-1
-6.03759E-1,6.71386E-1
-5.08606E-1,7.48443E-1
-4.31182E-1,7.82897E-1
-3.59771E-1,8.09478E-1
-3.15399E-1,8.07220E-1
-2.78320E-1,8.41857E-1
-1.83654E-1,8.73748E-1
-0.90026E-1,8.67981E-1
-0.03234E-1,8.66272E-1
0.59478E-1,8.43933E-1
0.85723E-1,8.55529E-1
1.52679E-1,8.73718E-1
2.29492E-1,8.48877E-1
3.05236E-1,8.14056E-1
3.78784E-1,7.56164E-1
4.17968E-1,7.25433E-1
4.78759E-1,7.25036E-1
5.50048E-1,6.91589E-1
5.95611E-1,6.41784E-1
6.37298E-1,5.72906E-1
6.55975E-1,5.09948E-1
6.93176E-1,4.71496E-1
7.50946E-1,4.17388E-1
7.86102E-1,3.53576E-1
8.11676E-1,2.91900E-1
8.19519E-1,2.21435E-1
8.19305E-1,1.62414E-1
8.34533E-1,1.01013E-1
8.43475E-1,0.30975E-1
8.48053E-1,-0.33203E-1
8.44604E-1,-1.01928E-1
8.20983E-1,-1.64062E-1
8.02215E-1,-2.18658E-1
7.88970E-1,-2.79235E-1
7.69561E-1,-3.37616E-1
7.54241E-1,-3.94989E-1
7.24731E-1,-4.58496E-1
6.7276E-1,-5.10253E-1
6.31195E-1,-5.55481E-1
5.83648E-1,-6.09405E-1
5.47302E-1,-6.52008E-1
5.18737E-1,-7.05658E-1
4.55261E-1,-7.53784E-1
3.87420E-1,-7.68981E-1
3.19946E-1,-7.88787E-1
2.51068E-1,-8.02154E-1
END
BEGIN
-4.65164E-1,-0.24337E-1
-4.98611E-1,0.15380E-1
-5.25848E-1,0.89233E-1
-5.16815E-1,1.67968E-1
-4.68795E-1,2.41912E-1
-4.22256E-1,2.73300E-1
-4.14321E-1,3.181E-1
-4.03015E-1,3.80004E-1
-3.67828E-1,4.51416E-1
-2.93899E-1,4.96017E-1
-2.20764E-1,5.00457E-1
-1.74499E-1,5.03418E-1
-1.44958E-1,5.32501E-1
-0.89813E-1,5.90667E-1
-0.06378E-1,6.09375E-1
0.68908E-1,5.87249E-1
1.13342E-1,5.44647E-1
1.39099E-1,5.29754E-1
1.91803E-1,5.47393E-1
2.77679E-1,5.27069E-1
3.42102E-1,4.76791E-1
3.74801E-1,4.05700E-1
3.78921E-1,3.59985E-1
4.11514E-1,3.34579E-1
4.72778E-1,2.88131E-1
5.18615E-1,2.18689E-1
5.30670E-1,1.34185E-1
5.06073E-1,0.79711E-1
4.97360E-1,0.4245E-1
5.11688E-1,0.05889E-1
5.27984E-1,-0.66223E-1
5.12176E-1,-1.45904E-1
4.64660E-1,-1.96807E-1
4.21310E-1,-2.11700E-1
4.09256E-1,-2.18734E-1
3.96911E-1,-2.77572E-1
3.53393E-1,-3.32534E-1
2.89901E-1,-3.69430E-1
2.41531E-1,-3.61145E-1
2.13195E-1,-3.50204E-1
1.97052E-1,-3.62213E-1
1.57501E-1,-3.88610E-1
0.89157E-1,-4.08966E-1
0.37323E-1,-3.88305E-1
0.09414E-1,-3.70468E-1
0.05493E-1,-3.58108E-1
-0.25344E-1,-3.67309E-1
-0.83206E-1,-3.66699E-1
-1.38565E-1,-3.32962E-1
-1.55059E-1,-3.07220E-1
-1.65329E-1,-2.78060E-1
-1.64184E-1,-2.82302E-1
-2.03155E-1,-2.80975E-1
-2.48069E-1,-2.44781E-1
-2.65960E-1,-2.01843E-1
-2.65609E-1,-1.71478E-1
-2.53646E-1,-1.75796E-1
-2.77847E-1,-1.75720E-1
-3.09112E-1,-1.39526E-1
-3.15063E-1,-0.83801E-1
-3.09570E-1,-0.54824E-1
-2.99072E-1,-0.41641E-1
-3.12088E-1,-0.48492E-1
-3.41568E-1,-0.23315E-1
-3.42361E-1,0.31097E-1
-3.19381E-1,0.70831E-1
-2.96279E-1,0.90164E-1
-3.04184E-1,0.82366E-1
-3.23181E-1,1.04385E-1
-3.14346E-1,1.44638E-1
-2.74749E-1,1.76620E-1
-2.40722E-1,1.96746E-1
-2.17689E-1,2.02827E-1
-2.19558E-1,2.21427E-1
-2.08633E-1,2.59445E-1
-1.67587E-1,2.88208E-1
-1.16958E-1,2.97882E-1
-0.77667E-1,2.83966E-1
-0.737E-1,2.92221E-1
-0.61294E-1,3.17810E-1
-0.25268E-1,3.38073E-1
0.23101E-1,3.24401E-1
0.58044E-1,2.94601E-1
0.77102E-1,2.74993E-1
0.91430E-1,2.74368E-1
1.22467E-1,2.85034E-1
1.66976E-1,2.66082E-1
1.91902E-1,2.23075E-1
1.98066E-1,1.77650E-1
2.02301E-1,1.59187E-1
2.21702E-1,1.56120E-1
2.55966E-1,1.38473E-1
2.61322E-1,0.91705E-1
1.47979E-1,2.62298E-1
2.20649E-1,0.07850E-1
2.15736E-1,-0.11825E-1
2.31201E-1,-0.34637E-1
2.33825E-1,-0.74546E-1
2.09999E-1,-1.11152E-1
1.68426E-1,-1.32171E-1
1.42219E-1,-1.41120E-1
1.43707E-1,-1.52549E-1
1.50085E-1,-1.86157E-1
1.27876E-1,-2.09114E-1
0.93391E-1,-2.15126E-1
0.54283E-1,-2.05322E-1
0.39863E-1,-1.95182E-1
0.3508E-1,-2.11494E-1
0.14534E-1,-2.30468E-1
-0.13885E-1,-2.34870E-1
-0.47584E-1,-2.18559E-1
-0.63674E-1,-1.96205E-1
-0.66574E-1,-1.96464E-1
-0.81726E-1,-2.19772E-1
-1.10633E-1,-2.26554E-1
-1.36451E-1,-2.09045E-1
-1.46316E-1,-1.79412E-1
-1.48162E-1,-1.64436E-1
-1.64527E-1,-1.69288E-1
-1.95068E-1,-1.68899E-1
-2.28691E-1,-1.58287E-1
-2.47077E-1,-1.28021E-1
-2.51571E-1,-1.03515E-1
-2.58377E-1,-0.94802E-1
-2.91870E-1,-0.90820E-1
-3.34594E-1,-0.67611E-1
-3.54751E-1,-0.25619E-1
-3.51318E-1,0.06454E-1
-3.45306E-1,0.20599E-1
-3.63235E-1,0.35003E-1
-3.84994E-1,0.68496E-1
-3.97308E-1,1.2323E-1
-3.84445E-1,1.68808E-1
-3.71444E-1,1.98654E-1
-3.70742E-1,2.18826E-1
-3.75228E-1,2.55722E-1
-3.71124E-1,3.07022E-1
-3.39675E-1,3.54171E-1
-3.08532E-1,3.77243E-1
-2.86773E-1,3.94683E-1
-2.71987E-1,4.19158E-1
-2.47970E-1,4.51721E-1
-2.03277E-1,4.89288E-1
-1.48132E-1,5.07537E-1
-0.97869E-1,5.20874E-1
-0.58013E-1,5.24597E-1
-0.20416E-1,5.38238E-1
0.37048E-1,5.58654E-1
1.13037E-1,5.57342E-1
1.73828E-1,5.40130E-1
2.10296E-1,5.20080E-1
2.39440E-1,5.17028E-1
2.78472E-1,5.05859E-1
3.38562E-1,4.74716E-1
4.10491E-1,4.02114E-1
4.28665E-1,3.65280E-1
4.58068E-1,3.29071E-1
4.88983E-1,2.94952E-1
5.19866E-1,2.55249E-1
5.46203E-1,1.86279E-1
5.52215E-1,1.13922E-1
5.55542E-1,0.56854E-1
5.62683E-1,0.07843E-1
5.69549E-1,-0.29968E-1
5.78857E-1,-0.85845E-1
5.48675E-1,-1.4505E-1
5.14892E-1,-1.97509E-1
4.76272E-1,-2.444E-1
4.39376E-1,-2.79556E-1
4.09988E-1,-3.14041E-1
3.62411E-1,-3.63952E-1
2.99392E-1,-4.02664E-1
2.35809E-1,-4.26086E-1
1.83609E-1,-4.39453E-1
1.48971E-1,-4.51904E-1
0.99334E-1,-4.77127E-1
0.31524E-1,-4.76028E-1
-0.34164E-1,-4.65698E-1
-0.92529E-1,-4.46029E-1
-1.34124E-1,-4.25933E-1
-1.72790E-1,-4.18609E-1
-2.25463E-1,-3.93737E-1
-2.72125E-1,-3.57238E-1
-3.17718E-1,-3.08502E-1
-3.44146E-1,-2.61718E-1
-3.67599E-1,-2.33978E-1
-3.98132E-1,-2.07275E-1
-4.16580E-1,-1.70700E-1
-4.31350E-1,-1.25991E-1
-4.27490E-1,-0.69320E-1
-4.16320E-1,-0.28640E-1
-4.16748E-1,0.03433E-1
-4.24423E-1,0.46417E-1
-4.16351E-1,0.93689E-1
-3.93722E-1,1.41830E-1
-3.63601E-1,1.79061E-1
-3.40148E-1,2.12890E-1
-3.34869E-1,2.40097E-1
-3.23196E-1,2.74719E-1
-3.02841E-1,3.00201E-1
-2.67456E-1,3.16268E-1
END
