CITIFILE A.01.01
#NA VERSION HP8510C.08.10
NAME DATA
#NA REGISTER 4
VAR FREQ MAG 201
DATA S[1,1] RI
DATA S[2,1] RI
DATA S[1,2] RI
DATA S[2,2] RI
SEG_LIST_BEGIN
SEG 8000000000 12000000000 201
SEG_LIST_END
COMMENT       YEAR MONTH DAY HOUR MINUTE SECONDS
CONSTANT TIME 2013   12   09  21    35    45.0
BEGIN
-4.57885E-1,-2.56835E-1
-4.80560E-1,-2.09045E-1
-5.01739E-1,-1.50878E-1
-5.12268E-1,-1.00372E-1
-5.24871E-1,-0.42907E-1
-5.23345E-1,0.13427E-1
-5.18249E-1,0.66711E-1
-5.08087E-1,1.13739E-1
-4.99282E-1,1.71310E-1
-4.75677E-1,2.23556E-1
-4.53079E-1,2.67440E-1
-4.18624E-1,3.11706E-1
-3.88000E-1,3.45932E-1
-3.51318E-1,3.96759E-1
-3.04931E-1,4.26132E-1
-2.63198E-1,4.55856E-1
-2.09091E-1,4.78576E-1
-1.63513E-1,4.89273E-1
-1.15722E-1,5.10986E-1
-0.53497E-1,5.11535E-1
-0.03906E-1,5.12817E-1
0.50262E-1,5.07171E-1
0.93948E-1,4.93164E-1
1.39999E-1,4.77432E-1
1.81472E-1,4.53002E-1
2.17514E-1,4.39102E-1
2.60650E-1,4.13803E-1
2.95684E-1,3.87710E-1
3.31573E-1,3.51944E-1
3.54965E-1,3.25500E-1
3.89999E-1,2.92099E-1
4.18014E-1,2.44323E-1
4.37133E-1,2.02270E-1
4.53414E-1,1.52236E-1
4.61944E-1,1.14898E-1
4.72885E-1,0.56655E-1
4.62875E-1,0.10635E-1
4.57641E-1,-0.28137E-1
4.60342E-1,-0.74340E-1
4.36080E-1,-1.26083E-1
4.18884E-1,-1.64581E-1
3.98437E-1,-1.97830E-1
3.73397E-1,-2.35702E-1
3.46450E-1,-2.69699E-1
3.03390E-1,-3.02017E-1
2.79815E-1,-3.11050E-1
2.49023E-1,-3.33969E-1
2.1875E-1,-3.52050E-1
1.89056E-1,-3.65112E-1
1.58538E-1,-3.92013E-1
1.08230E-1,-3.91220E-1
0.85647E-1,-3.95782E-1
0.53741E-1,-4.06646E-1
0.16525E-1,-4.08279E-1
-0.20721E-1,-4.07836E-1
-0.61767E-1,-4.01458E-1
-0.88470E-1,-3.98727E-1
-1.27792E-1,-3.89526E-1
-1.60003E-1,-3.71353E-1
-1.83746E-1,-3.48663E-1
-2.13012E-1,-3.40103E-1
-2.39929E-1,-3.13507E-1
-2.60559E-1,-3.00048E-1
-2.85491E-1,-2.86346E-1
-3.09280E-1,-2.60299E-1
-3.25393E-1,-2.35549E-1
-3.47152E-1,-2.05123E-1
-3.70758E-1,-1.86218E-1
-3.88427E-1,-1.50116E-1
-3.94043E-1,-1.18423E-1
-3.92028E-1,-0.90866E-1
-4.05761E-1,-0.64468E-1
-4.13513E-1,-0.26733E-1
-4.12994E-1,0.07110E-1
-4.13467E-1,0.30761E-1
-4.13665E-1,0.59143E-1
-4.10385E-1,0.92132E-1
-4.01107E-1,1.25488E-1
-4.03793E-1,1.63726E-1
-3.92532E-1,2.03292E-1
-3.77533E-1,2.39288E-1
-3.45718E-1,2.66082E-1
-3.24539E-1,2.91183E-1
-2.99255E-1,3.31298E-1
-2.64602E-1,3.58444E-1
-2.37350E-1,3.79394E-1
-2.0224E-1,3.96148E-1
-1.69464E-1,4.06509E-1
-1.27975E-1,4.22744E-1
-0.82321E-1,4.4133E-1
-0.37292E-1,4.51538E-1
0.06683E-1,4.55658E-1
0.47637E-1,4.39315E-1
0.89019E-1,4.30892E-1
1.37619E-1,4.16442E-1
1.84890E-1,3.95034E-1
2.18368E-1,3.72390E-1
2.48184E-1,3.50860E-1
2.81875E-1,3.23165E-1
3.10257E-1,2.83645E-1
3.43536E-1,2.47940E-1
3.73657E-1,2.08099E-1
4.04007E-1,1.65145E-1
4.14703E-1,1.09893E-1
4.16076E-1,0.56533E-1
4.16442E-1,-0.01068E-1
4.09591E-1,-0.59478E-1
3.95950E-1,-1.09863E-1
3.74725E-1,-1.50116E-1
3.53469E-1,-1.88400E-1
3.20343E-1,-2.30468E-1
2.84881E-1,-2.69577E-1
2.50381E-1,-2.99560E-1
2.25494E-1,-3.31924E-1
1.85302E-1,-3.59176E-1
1.34994E-1,-3.77349E-1
0.78369E-1,-3.89022E-1
0.24353E-1,-3.96637E-1
-0.17471E-1,-3.99581E-1
-0.48767E-1,-3.96575E-1
-0.87036E-1,-3.9711E-1
-1.36245E-1,-3.80645E-1
-1.85272E-1,-3.59878E-1
-2.23312E-1,-3.41995E-1
-2.57217E-1,-3.34350E-1
-2.93426E-1,-3.17291E-1
-3.29849E-1,-2.80792E-1
-3.58001E-1,-2.29278E-1
-3.77822E-1,-1.86172E-1
-3.97064E-1,-1.53930E-1
-3.99261E-1,-1.30523E-1
-4.02938E-1,-1.06475E-1
-3.98117E-1,-0.75622E-1
-4.00268E-1,-0.48339E-1
-4.18884E-1,-0.26886E-1
-4.44809E-1,-0.07125E-1
-4.68933E-1,0.17684E-1
-4.78698E-1,0.60455E-1
-4.73388E-1,1.09085E-1
-4.71160E-1,1.62445E-1
-4.70672E-1,2.16888E-1
-4.60784E-1,2.58728E-1
-4.40628E-1,2.94097E-1
-4.07608E-1,3.26705E-1
-3.70895E-1,3.67538E-1
-3.38073E-1,4.06967E-1
-3.13827E-1,4.36874E-1
-2.94281E-1,4.60662E-1
-2.62039E-1,4.78897E-1
-2.15164E-1,4.98504E-1
-1.64367E-1,5.13580E-1
-1.24054E-1,5.42877E-1
-0.86090E-1,5.62225E-1
-0.513E-1,5.68542E-1
-0.05737E-1,5.64209E-1
0.50628E-1,5.52764E-1
1.02722E-1,5.51971E-1
1.59668E-1,5.54138E-1
2.02758E-1,5.41900E-1
2.35076E-1,5.24810E-1
2.77847E-1,4.92004E-1
3.19198E-1,4.60998E-1
3.76632E-1,4.36172E-1
4.28176E-1,4.00116E-1
4.58068E-1,3.61709E-1
4.80178E-1,3.16665E-1
5.01342E-1,2.53997E-1
5.26275E-1,1.90765E-1
5.47576E-1,1.20758E-1
5.44158E-1,0.64727E-1
5.34454E-1,0.22277E-1
5.15411E-1,-0.31402E-1
4.91760E-1,-0.81268E-1
4.80865E-1,-1.39907E-1
4.64126E-1,-1.93084E-1
4.42764E-1,-2.34115E-1
4.09774E-1,-2.67257E-1
3.60168E-1,-2.98980E-1
3.13339E-1,-3.36746E-1
2.64267E-1,-3.75976E-1
2.21328E-1,-4.01199E-1
1.80053E-1,-4.08584E-1
1.34719E-1,-4.03579E-1
0.87417E-1,-3.96041E-1
0.37048E-1,-4.00177E-1
-0.10025E-1,-4.09271E-1
-0.49560E-1,-4.09805E-1
-0.80917E-1,-3.94912E-1
-1.15432E-1,-3.69705E-1
-1.60263E-1,-3.40530E-1
-2.06756E-1,-3.17337E-1
-2.45575E-1,-2.95410E-1
-2.64450E-1,-2.66830E-1
-2.64938E-1,-2.33001E-1
-2.69332E-1,-1.93573E-1
-2.85980E-1,-1.56646E-1
-3.09936E-1,-1.23138E-1
-3.17474E-1,-1.08535E-1
-3.11584E-1,-0.97656E-1
-3.01895E-1,-0.81161E-1
-3.03573E-1,-0.43563E-1
END
BEGIN
-9.10156E-1,-0.10742E-1
-8.35662E-1,0.91217E-1
-8.48968E-1,1.25854E-1
-8.48236E-1,2.64923E-1
-7.88940E-1,3.41033E-1
-7.56286E-1,4.51599E-1
-6.25274E-1,5.12359E-1
-5.83038E-1,4.82177E-1
-5.88256E-1,5.42266E-1
-5.34942E-1,5.94421E-1
-5.10955E-1,6.62353E-1
-3.94226E-1,7.27630E-1
-3.43536E-1,6.89544E-1
-3.55804E-1,7.60772E-1
-2.42370E-1,8.36303E-1
-1.71844E-1,8.51196E-1
-0.49408E-1,8.99505E-1
0.53497E-1,8.29162E-1
0.51635E-1,8.29345E-1
1.49719E-1,8.78173E-1
2.32757E-1,8.56658E-1
3.40515E-1,8.83941E-1
4.81445E-1,7.93975E-1
5.02441E-1,7.27356E-1
5.99090E-1,7.12951E-1
6.72149E-1,6.06964E-1
7.2229E-1,5.62561E-1
8.15307E-1,4.32708E-1
7.58789E-1,3.04809E-1
7.46032E-1,2.94799E-1
7.69836E-1,2.33581E-1
7.69134E-1,2.08740E-1
8.41949E-1,1.49780E-1
8.16131E-1,0.34545E-1
7.99957E-1,0.33050E-1
8.70513E-1,-0.20111E-1
8.93463E-1,-1.10137E-1
9.48303E-1,-2.30255E-1
8.67767E-1,-4.23950E-1
7.46246E-1,-4.39575E-1
7.50091E-1,-4.85809E-1
6.76605E-1,-5.69427E-1
6.41937E-1,-6.00341E-1
5.73394E-1,-7.01416E-1
4.62463E-1,-6.91558E-1
4.70214E-1,-7.02728E-1
4.08935E-1,-7.96234E-1
3.35540E-1,-8.11431E-1
2.80944E-1,-9.02435E-1
0.93322E-1,-9.21691E-1
0.28442E-1,-8.40942E-1
-0.17822E-1,-8.45672E-1
-0.82763E-1,-8.10363E-1
-1.00585E-1,-8.22082E-1
-2.07183E-1,-8.40850E-1
-2.67761E-1,-7.78686E-1
-3.01574E-1,-7.80761E-1
-3.75640E-1,-7.59185E-1
-4.12841E-1,-7.61352E-1
-5.53588E-1,-7.73803E-1
-6.57592E-1,-6.33483E-1
-6.59118E-1,-5.63690E-1
-7.09381E-1,-4.93286E-1
-6.87042E-1,-4.30481E-1
-7.34405E-1,-4.47296E-1
-8.20343E-1,-3.50189E-1
-8.01574E-1,-2.75421E-1
-8.45184E-1,-2.48443E-1
-8.76892E-1,-1.66259E-1
-9.22485E-1,-1.21093E-1
-9.92034E-1,0.26519E-1
-9.23187E-1,1.63879E-1
-8.96240E-1,2.24212E-1
-8.41003E-1,3.29589E-1
-7.72613E-1,3.48480E-1
-7.73956E-1,3.97277E-1
-7.18383E-1,4.62341E-1
-6.99127E-1,4.82818E-1
-6.80969E-1,5.64605E-1
-6.17797E-1,6.00677E-1
-6.27136E-1,6.50116E-1
-5.69061E-1,7.64648E-1
-4.82360E-1,8.18237E-1
-3.89556E-1,8.91662E-1
-2.52533E-1,8.83606E-1
-2.26348E-1,8.63952E-1
-1.5271E-1,9.27063E-1
-0.43304E-1,9.03045E-1
-0.04486E-1,9.05548E-1
0.96679E-1,9.14367E-1
1.39312E-1,8.79241E-1
2.01080E-1,9.29016E-1
3.48266E-1,9.13360E-1
4.23522E-1,8.42498E-1
5.09429E-1,8.02124E-1
5.68267E-1,7.07580E-1
5.88104E-1,6.67785E-1
6.58386E-1,6.13555E-1
6.63391E-1,5.38848E-1
6.95861E-1,5.28564E-1
7.59063E-1,4.65667E-1
7.75116E-1,4.11590E-1
8.39019E-1,3.77319E-1
8.862E-1,2.83355E-1
9.13757E-1,2.21710E-1
9.76776E-1,1.14532E-1
9.50103E-1,-0.21881E-1
9.20166E-1,-0.84594E-1
9.10919E-1,-1.73309E-1
8.69537E-1,-2.41851E-1
8.56903E-1,-3.12774E-1
7.98370E-1,-3.99231E-1
7.45269E-1,-4.23278E-1
7.36328E-1,-4.73907E-1
6.95556E-1,-5.42297E-1
6.60430E-1,-6.00036E-1
6.00891E-1,-6.82342E-1
5.10040E-1,-7.19879E-1
4.54040E-1,-7.52166E-1
3.64440E-1,-7.89794E-1
2.94372E-1,-7.79144E-1
2.47772E-1,-8.03466E-1
1.61987E-1,-8.10974E-1
1.09619E-1,-7.96783E-1
0.49408E-1,-8.00659E-1
-0.07171E-1,-7.77374E-1
-0.35491E-1,-7.81311E-1
-0.98419E-1,-7.96844E-1
-1.65191E-1,-7.87597E-1
-2.39227E-1,-7.76794E-1
-3.05175E-1,-7.23144E-1
-3.23394E-1,-6.96380E-1
-3.78906E-1,-6.94152E-1
-4.36035E-1,-6.57470E-1
-4.81506E-1,-6.35864E-1
-5.43670E-1,-5.87463E-1
-5.58654E-1,-5.34851E-1
-5.97839E-1,-5.26519E-1
-6.64276E-1,-4.78881E-1
-6.99005E-1,-4.21630E-1
-7.47131E-1,-3.69049E-1
-7.65625E-1,-2.87506E-1
-7.76336E-1,-2.44628E-1
-8.17138E-1,-1.76330E-1
-8.11981E-1,-0.98754E-1
-8.25531E-1,-0.45929E-1
-8.27545E-1,0.47699E-1
-7.85949E-1,0.96344E-1
-7.90496E-1,1.34094E-1
-7.80731E-1,1.95648E-1
-7.80059E-1,2.38159E-1
-7.89093E-1,3.23944E-1
-7.38128E-1,4.04907E-1
-7.04193E-1,4.46319E-1
-6.69921E-1,5.07202E-1
-6.30554E-1,5.46966E-1
-6.03729E-1,6.16638E-1
-5.16052E-1,6.77948E-1
-4.60754E-1,6.79504E-1
-4.26513E-1,7.20764E-1
-3.68438E-1,7.45269E-1
-3.37616E-1,7.80578E-1
-2.62695E-1,8.40637E-1
-1.76269E-1,8.47778E-1
-1.21612E-1,8.69079E-1
-0.31646E-1,8.84399E-1
0.30761E-1,8.71795E-1
1.04736E-1,8.89465E-1
1.99981E-1,8.61694E-1
2.54638E-1,8.29345E-1
3.22723E-1,8.03100E-1
3.63159E-1,7.63427E-1
4.07775E-1,7.60070E-1
4.89379E-1,7.33886E-1
5.43273E-1,6.85241E-1
6.02417E-1,6.47125E-1
6.49261E-1,5.87707E-1
6.85577E-1,5.48584E-1
7.46337E-1,5.00366E-1
7.85888E-1,4.26666E-1
8.15918E-1,3.66821E-1
8.50647E-1,2.99194E-1
8.70880E-1,2.30011E-1
8.93402E-1,1.64032E-1
9.09820E-1,0.85052E-1
9.07989E-1,0.11261E-1
9.10095E-1,-0.58166E-1
9.07653E-1,-1.34185E-1
8.91113E-1,-2.08221E-1
8.72222E-1,-2.76672E-1
8.47534E-1,-3.46771E-1
8.18878E-1,-4.02496E-1
8.06152E-1,-4.62829E-1
7.79052E-1,-5.59356E-1
7.1521E-1,-6.31256E-1
6.56189E-1,-6.92352E-1
5.79742E-1,-7.40081E-1
5.28778E-1,-7.6474E-1
4.81689E-1,-8.27179E-1
3.85711E-1,-8.72924E-1
3.06823E-1,-8.90258E-1
END
BEGIN
-8.22509E-1,0.07171E-1
-8.53027E-1,0.79162E-1
-7.89001E-1,2.09381E-1
-7.40692E-1,1.93512E-1
-8.18115E-1,2.67364E-1
-7.59185E-1,4.02221E-1
-7.28881E-1,4.54681E-1
-6.64611E-1,5.77392E-1
-5.60760E-1,5.77545E-1
-5.94390E-1,6.07452E-1
-5.29968E-1,7.44689E-1
-4.24713E-1,7.82440E-1
-3.27667E-1,8.46527E-1
-1.94213E-1,8.20373E-1
-1.86767E-1,8.02337E-1
-1.10015E-1,8.88183E-1
0.09368E-1,8.74420E-1
0.92315E-1,8.88031E-1
2.36175E-1,8.23974E-1
2.34527E-1,7.31658E-1
2.56103E-1,7.73407E-1
3.66088E-1,7.51525E-1
4.12353E-1,7.22503E-1
5.24353E-1,6.90460E-1
5.54138E-1,5.77819E-1
5.48828E-1,5.77423E-1
6.44744E-1,5.55572E-1
6.92260E-1,4.86846E-1
7.77038E-1,4.32556E-1
8.07403E-1,2.8125E-1
7.51709E-1,2.38189E-1
8.01055E-1,2.23693E-1
8.35052E-1,1.52740E-1
9.00146E-1,0.90972E-1
9.12750E-1,-0.93200E-1
7.88696E-1,-1.54693E-1
7.98309E-1,-1.43219E-1
8.26293E-1,-2.20123E-1
8.45214E-1,-2.91076E-1
8.40667E-1,-4.65667E-1
6.64276E-1,-5.45562E-1
6.16943E-1,-4.93682E-1
6.26464E-1,-5.39276E-1
6.09924E-1,-5.85784E-1
6.15295E-1,-7.11120E-1
4.45617E-1,-8.31115E-1
3.41491E-1,-7.65197E-1
3.37066E-1,-7.86010E-1
2.78503E-1,-8.20251E-1
2.57415E-1,-8.85223E-1
0.87768E-1,-9.97009E-1
-0.80719E-1,-8.96087E-1
-0.87005E-1,-8.41735E-1
-1.41723E-1,-8.42620E-1
-1.61499E-1,-8.40881E-1
-2.63549E-1,-9.22943E-1
-4.55688E-1,-8.31726E-1
-4.62219E-1,-7.15057E-1
-4.93225E-1,-6.95373E-1
-5.17364E-1,-6.55822E-1
-5.71533E-1,-6.98120E-1
-7.47650E-1,-6.27075E-1
-7.60437E-1,-4.59899E-1
-7.44567E-1,-4.11804E-1
-7.54577E-1,-3.51715E-1
-7.55981E-1,-3.56964E-1
-8.93219E-1,-3.32092E-1
-9.35791E-1,-1.38397E-1
-8.68988E-1,-0.68237E-1
-8.71002E-1,-0.17211E-1
-8.54034E-1,0.23132E-1
-9.26147E-1,0.54290E-1
-9.65972E-1,2.41943E-1
-8.52966E-1,3.47412E-1
-8.10302E-1,3.83789E-1
-7.60559E-1,4.39056E-1
-7.49816E-1,4.59838E-1
-7.59216E-1,5.72876E-1
-6.49719E-1,6.80267E-1
-5.62286E-1,6.99432E-1
-4.91485E-1,7.22808E-1
-4.61547E-1,7.21405E-1
-4.51385E-1,7.99896E-1
-3.29345E-1,8.79150E-1
-2.37060E-1,8.66424E-1
-1.57653E-1,8.83850E-1
-0.78704E-1,8.48266E-1
-0.72174E-1,8.52691E-1
0.00030E-1,9.20929E-1
1.18164E-1,9.13391E-1
1.94641E-1,8.94805E-1
2.79632E-1,8.50524E-1
3.02246E-1,8.15307E-1
3.64440E-1,8.44177E-1
4.85321E-1,8.22174E-1
5.72814E-1,7.61077E-1
6.51092E-1,6.71447E-1
6.48956E-1,5.88836E-1
6.76086E-1,5.91339E-1
7.79052E-1,5.43396E-1
8.35876E-1,4.42138E-1
8.77533E-1,3.47168E-1
8.65844E-1,2.38403E-1
8.51959E-1,2.20916E-1
9.19189E-1,1.67144E-1
9.33746E-1,0.56762E-1
9.41467E-1,-0.26367E-1
9.2099E-1,-1.54968E-1
8.46069E-1,-2.04193E-1
8.61846E-1,-2.27752E-1
8.68988E-1,-3.28949E-1
8.32183E-1,-4.19921E-1
7.69287E-1,-5.24475E-1
6.49414E-1,-5.59173E-1
6.24694E-1,-5.46966E-1
6.16882E-1,-6.15661E-1
5.60028E-1,-6.87896E-1
4.85290E-1,-7.58148E-1
3.55590E-1,-7.77069E-1
3.03100E-1,-7.27752E-1
2.96508E-1,-7.47619E-1
2.44537E-1,-7.96356E-1
1.67846E-1,-8.42132E-1
0.40741E-1,-8.50463E-1
-0.32226E-1,-7.75299E-1
-0.37872E-1,-7.56988E-1
-0.78796E-1,-7.71789E-1
-1.38488E-1,-7.86560E-1
-2.42614E-1,-7.80181E-1
-3.14666E-1,-6.88842E-1
-3.04412E-1,-6.41449E-1
-3.21075E-1,-6.50329E-1
-3.68499E-1,-6.54785E-1
-4.42993E-1,-6.49261E-1
-5.18402E-1,-5.83831E-1
-5.29663E-1,-5.18249E-1
-5.47729E-1,-4.95941E-1
-5.82733E-1,-4.68994E-1
-6.30096E-1,-4.49249E-1
-7.02941E-1,-3.90014E-1
-7.10968E-1,-2.97973E-1
-7.03369E-1,-2.58056E-1
-7.15179E-1,-2.22839E-1
-7.38922E-1,-1.94030E-1
-7.92572E-1,-1.39617E-1
-8.06610E-1,-0.46356E-1
-7.93945E-1,0.06042E-1
-7.97424E-1,0.53924E-1
-8.01055E-1,0.98510E-1
-8.33282E-1,1.60064E-1
-8.30902E-1,2.79907E-1
-7.63855E-1,3.52996E-1
-7.36877E-1,3.87359E-1
-7.18444E-1,4.33380E-1
-7.15393E-1,4.88769E-1
-6.89941E-1,5.88439E-1
-6.00982E-1,6.65405E-1
-5.34545E-1,6.96258E-1
-4.79095E-1,7.34222E-1
-4.34204E-1,7.72064E-1
-3.78845E-1,8.37371E-1
-2.73834E-1,8.76525E-1
-1.90765E-1,8.71307E-1
-1.24847E-1,8.71704E-1
-0.70953E-1,8.71490E-1
-0.13885E-1,9.00451E-1
0.83282E-1,9.15588E-1
1.71295E-1,8.90594E-1
2.41882E-1,8.62548E-1
2.93823E-1,8.24523E-1
3.40667E-1,8.17627E-1
4.27520E-1,8.06304E-1
5.10009E-1,7.51342E-1
5.64788E-1,6.91131E-1
6.02844E-1,6.34094E-1
6.33636E-1,6.01440E-1
6.94824E-1,5.67138E-1
7.55218E-1,5.00671E-1
7.88330E-1,4.25018E-1
8.11676E-1,3.56872E-1
8.29742E-1,2.99926E-1
8.60443E-1,2.40142E-1
8.85437E-1,1.69891E-1
8.97918E-1,0.92437E-1
9.01092E-1,0.20233E-1
9.00421E-1,-0.51239E-1
8.89373E-1,-1.27441E-1
8.70758E-1,-1.92962E-1
8.56933E-1,-2.60223E-1
8.35235E-1,-3.24585E-1
8.23303E-1,-3.86413E-1
7.97271E-1,-4.71893E-1
7.34039E-1,-5.39856E-1
6.85638E-1,-5.83404E-1
6.37817E-1,-6.33178E-1
6.05987E-1,-6.75689E-1
5.66223E-1,-7.61016E-1
4.58923E-1,-8.18847E-1
3.78173E-1,-8.18267E-1
3.18878E-1,-8.28155E-1
2.71026E-1,-8.32061E-1
END
BEGIN
-5.16784E-1,-1.63665E-1
-5.30426E-1,-1.05651E-1
-5.39001E-1,-0.43884E-1
-5.40374E-1,0.08697E-1
-5.37017E-1,0.75378E-1
-5.15533E-1,1.35833E-1
-4.95437E-1,1.94854E-1
-4.70626E-1,2.44491E-1
-4.46319E-1,3.00888E-1
-4.07089E-1,3.48602E-1
-3.68713E-1,3.84002E-1
-3.22174E-1,4.17099E-1
-2.78533E-1,4.44320E-1
-2.24395E-1,4.83001E-1
-1.66122E-1,4.97253E-1
-1.13067E-1,5.11077E-1
-0.55450E-1,5.15869E-1
-0.03173E-1,5.16540E-1
0.51422E-1,5.20935E-1
1.12060E-1,4.99191E-1
1.58798E-1,4.78683E-1
2.04895E-1,4.51889E-1
2.46658E-1,4.24301E-1
2.93212E-1,3.87115E-1
3.30627E-1,3.43109E-1
3.64440E-1,3.06579E-1
3.93997E-1,2.55935E-1
4.17694E-1,2.10693E-1
4.39147E-1,1.49642E-1
4.50698E-1,1.02584E-1
4.66003E-1,0.47042E-1
4.6521E-1,-0.11764E-1
4.58099E-1,-0.52413E-1
4.4841E-1,-0.98022E-1
4.36355E-1,-1.32309E-1
4.15786E-1,-1.88736E-1
3.81835E-1,-2.25601E-1
3.60351E-1,-2.55447E-1
3.42407E-1,-2.97943E-1
2.97836E-1,-3.34426E-1
2.58087E-1,-3.61145E-1
2.14675E-1,-3.80966E-1
1.64062E-1,-4.00360E-1
1.19171E-1,-4.15359E-1
0.64498E-1,-4.21814E-1
0.37094E-1,-4.21081E-1
-0.04409E-1,-4.24346E-1
-0.47836E-1,-4.19555E-1
-0.90957E-1,-4.10675E-1
-1.43768E-1,-4.09774E-1
-1.96380E-1,-3.75869E-1
-2.28027E-1,-3.59390E-1
-2.65548E-1,-3.41659E-1
-3.01605E-1,-3.14697E-1
-3.32260E-1,-2.84103E-1
-3.59237E-1,-2.45117E-1
-3.79791E-1,-2.15927E-1
-4.01657E-1,-1.75643E-1
-4.18426E-1,-1.31454E-1
-4.24926E-1,-0.82321E-1
-4.38995E-1,-0.40512E-1
-4.36080E-1,0.15289E-1
-4.26528E-1,0.57968E-1
-4.26040E-1,1.01226E-1
-4.15527E-1,1.55715E-1
-3.97995E-1,1.97494E-1
-3.77304E-1,2.38784E-1
-3.63708E-1,2.7034E-1
-3.32824E-1,3.03955E-1
-2.92633E-1,3.32092E-1
-2.45468E-1,3.48800E-1
-2.06420E-1,3.79684E-1
-1.51245E-1,4.00772E-1
-1.04568E-1,4.06280E-1
-0.64392E-1,4.18548E-1
-0.12619E-1,4.23431E-1
0.4216E-1,4.20761E-1
0.91751E-1,4.05517E-1
1.32202E-1,4.03366E-1
1.74331E-1,3.95004E-1
2.20886E-1,3.75213E-1
2.52212E-1,3.35769E-1
2.77282E-1,3.03802E-1
3.10958E-1,2.71118E-1
3.36517E-1,2.31918E-1
3.65631E-1,1.93969E-1
3.87344E-1,1.48345E-1
4.01123E-1,1.08840E-1
4.03427E-1,0.65551E-1
4.10018E-1,0.30487E-1
4.08447E-1,-0.11673E-1
4.03137E-1,-0.54657E-1
3.85940E-1,-0.94497E-1
3.73352E-1,-1.31408E-1
3.60199E-1,-1.67312E-1
3.38073E-1,-2.06695E-1
3.11569E-1,-2.37945E-1
2.83828E-1,-2.74490E-1
2.47604E-1,-3.13644E-1
2.14675E-1,-3.30825E-1
1.96014E-1,-3.57147E-1
1.73553E-1,-3.76052E-1
1.50802E-1,-3.97216E-1
1.14334E-1,-4.02328E-1
0.87616E-1,-4.00344E-1
0.60470E-1,-4.13848E-1
0.21972E-1,-4.22363E-1
-0.14877E-1,-4.25964E-1
-0.54382E-1,-4.23034E-1
-0.86181E-1,-4.15985E-1
-1.17569E-1,-4.11392E-1
-1.56097E-1,-4.02694E-1
-1.87622E-1,-3.88900E-1
-2.22076E-1,-3.84628E-1
-2.55325E-1,-3.69018E-1
-2.80197E-1,-3.55423E-1
-3.05816E-1,-3.42071E-1
-3.31512E-1,-3.20037E-1
-3.57330E-1,-2.93289E-1
-3.77944E-1,-2.59811E-1
-4.04251E-1,-2.31903E-1
-4.30450E-1,-2.00454E-1
-4.54147E-1,-1.69387E-1
-4.70962E-1,-1.40564E-1
-4.88281E-1,-1.08474E-1
-5.03723E-1,-0.71991E-1
-5.13336E-1,-0.28778E-1
-5.18096E-1,0.08239E-1
-5.25665E-1,0.42602E-1
-5.28808E-1,0.88958E-1
-5.16479E-1,1.25915E-1
-5.06958E-1,1.72363E-1
-4.85916E-1,2.16171E-1
-4.68765E-1,2.55950E-1
-4.52179E-1,2.95394E-1
-4.29412E-1,3.30276E-1
-4.13147E-1,3.62243E-1
-3.84826E-1,3.94989E-1
-3.56140E-1,4.13665E-1
-3.32519E-1,4.36340E-1
-2.98919E-1,4.59091E-1
-2.66540E-1,4.70748E-1
-2.33276E-1,4.87350E-1
-1.97403E-1,4.94567E-1
-1.66992E-1,5.07812E-1
-1.28418E-1,5.20507E-1
-0.87951E-1,5.28106E-1
-0.43426E-1,5.42602E-1
0.13122E-1,5.48004E-1
0.61615E-1,5.46173E-1
1.03637E-1,5.42266E-1
1.44653E-1,5.42114E-1
1.82189E-1,5.31433E-1
2.25830E-1,5.13946E-1
2.65136E-1,4.85611E-1
3.05999E-1,4.54238E-1
3.45367E-1,4.25415E-1
3.87252E-1,3.90274E-1
4.22409E-1,3.52798E-1
4.51965E-1,3.04397E-1
4.71694E-1,2.56027E-1
4.88143E-1,2.11700E-1
5.12481E-1,1.68426E-1
5.25512E-1,1.29028E-1
5.38513E-1,0.88562E-1
5.33966E-1,0.46417E-1
5.24078E-1,0.07019E-1
5.15655E-1,-0.36499E-1
4.99145E-1,-0.84945E-1
4.81613E-1,-1.27548E-1
4.59762E-1,-1.76696E-1
4.28390E-1,-2.19650E-1
3.96316E-1,-2.52594E-1
3.68225E-1,-2.86666E-1
3.43154E-1,-3.16772E-1
3.10028E-1,-3.55438E-1
2.63778E-1,-3.76297E-1
2.25677E-1,-3.87268E-1
1.91711E-1,-4.00756E-1
1.56219E-1,-4.10583E-1
1.16851E-1,-4.24301E-1
0.60638E-1,-4.24545E-1
0.15869E-1,-4.12307E-1
-0.29251E-1,-4.07302E-1
-0.71197E-1,-3.98452E-1
-1.09191E-1,-3.97964E-1
-1.59317E-1,-3.8974E-1
-1.91223E-1,-3.64318E-1
-2.16079E-1,-3.47198E-1
-2.42813E-1,-3.20251E-1
-2.58865E-1,-2.97302E-1
-2.87780E-1,-2.79220E-1
-3.17611E-1,-2.38662E-1
-3.27636E-1,-1.99279E-1
-3.36319E-1,-1.63009E-1
-3.37448E-1,-1.29089E-1
-3.50814E-1,-0.94528E-1
-3.63891E-1,-0.49331E-1
-3.61480E-1,-0.03219E-1
-3.57406E-1,0.22567E-1
-3.50311E-1,0.46005E-1
END
