CITIFILE A.01.01
#NA VERSION HP8510C.08.10
NAME DATA
#NA REGISTER 4
VAR FREQ MAG 201
DATA S[1,1] RI
DATA S[2,1] RI
DATA S[1,2] RI
DATA S[2,2] RI
SEG_LIST_BEGIN
SEG 8000000000 12000000000 201
SEG_LIST_END
COMMENT       YEAR MONTH DAY HOUR MINUTE SECONDS
CONSTANT TIME 2013   12   09  21    33    01.0
BEGIN
-4.85336E-1,-2.82730E-1
-5.10192E-1,-2.32452E-1
-5.34057E-1,-1.71844E-1
-5.46417E-1,-1.18530E-1
-5.61187E-1,-0.57373E-1
-5.61096E-1,0.01159E-1
-5.57189E-1,0.58197E-1
-5.49133E-1,1.07879E-1
-5.40741E-1,1.71020E-1
-5.18737E-1,2.26348E-1
-4.95910E-1,2.75939E-1
-4.61059E-1,3.24005E-1
-4.29672E-1,3.63525E-1
-3.90243E-1,4.18243E-1
-3.41186E-1,4.51522E-1
-2.97744E-1,4.84207E-1
-2.40936E-1,5.10223E-1
-1.92810E-1,5.24566E-1
-1.42120E-1,5.49682E-1
-0.75775E-1,5.53100E-1
-0.21972E-1,5.57006E-1
0.36346E-1,5.52887E-1
0.83648E-1,5.40771E-1
1.34491E-1,5.27557E-1
1.81457E-1,5.02990E-1
2.23617E-1,4.89654E-1
2.72674E-1,4.63821E-1
3.12591E-1,4.35699E-1
3.53439E-1,3.99032E-1
3.83239E-1,3.69873E-1
4.22485E-1,3.31848E-1
4.53399E-1,2.80166E-1
4.75143E-1,2.34268E-1
4.92935E-1,1.81152E-1
5.05065E-1,1.40472E-1
5.16357E-1,0.77087E-1
5.07934E-1,0.27038E-1
5.04303E-1,-0.15350E-1
5.07324E-1,-0.66925E-1
4.8172E-1,-1.21994E-1
4.63897E-1,-1.61102E-1
4.45602E-1,-1.95129E-1
4.22790E-1,-2.35809E-1
4.02481E-1,-2.74169E-1
3.63159E-1,-3.19061E-1
3.34411E-1,-3.39706E-1
2.96340E-1,-3.66653E-1
2.60955E-1,-3.88122E-1
2.27661E-1,-4.04129E-1
1.92123E-1,-4.35409E-1
1.38504E-1,-4.35806E-1
1.12274E-1,-4.43832E-1
0.74676E-1,-4.56863E-1
0.32348E-1,-4.59732E-1
-0.09155E-1,-4.60174E-1
-0.54901E-1,-4.53384E-1
-0.85647E-1,-4.52423E-1
-1.29348E-1,-4.42947E-1
-1.65557E-1,-4.25201E-1
-1.93588E-1,-4.04068E-1
-2.29934E-1,-3.95141E-1
-2.62466E-1,-3.68270E-1
-2.90527E-1,-3.50936E-1
-3.19534E-1,-3.32931E-1
-3.47168E-1,-3.05145E-1
-3.68164E-1,-2.75909E-1
-3.92929E-1,-2.40646E-1
-4.20150E-1,-2.17941E-1
-4.40033E-1,-1.76681E-1
-4.48516E-1,-1.41052E-1
-4.49874E-1,-1.09863E-1
-4.67224E-1,-0.75683E-1
-4.75311E-1,-0.31570E-1
-4.74288E-1,0.07705E-1
-4.75418E-1,0.36819E-1
-4.75769E-1,0.72036E-1
-4.70993E-1,1.12594E-1
-4.59426E-1,1.51855E-1
-4.59549E-1,1.97403E-1
-4.43862E-1,2.41378E-1
-4.23873E-1,2.83416E-1
-3.88534E-1,3.14300E-1
-3.62915E-1,3.43795E-1
-3.30444E-1,3.89679E-1
-2.89428E-1,4.17892E-1
-2.56485E-1,4.41787E-1
-2.13409E-1,4.60052E-1
-1.75216E-1,4.71923E-1
-1.25793E-1,4.89547E-1
-0.71411E-1,5.06408E-1
-0.20141E-1,5.13885E-1
0.31402E-1,5.15136E-1
0.76355E-1,4.95254E-1
1.24008E-1,4.83398E-1
1.78115E-1,4.64309E-1
2.30407E-1,4.36126E-1
2.66632E-1,4.09027E-1
2.99423E-1,3.83026E-1
3.37387E-1,3.47808E-1
3.68881E-1,3.01116E-1
4.02801E-1,2.55737E-1
4.31579E-1,2.07580E-1
4.59762E-1,1.55502E-1
4.65499E-1,0.94177E-1
4.60983E-1,0.34851E-1
4.55337E-1,-0.28381E-1
4.39590E-1,-0.89721E-1
4.17984E-1,-1.40548E-1
3.89190E-1,-1.78817E-1
3.60290E-1,-2.14904E-1
3.21365E-1,-2.50351E-1
2.82669E-1,-2.81723E-1
2.49939E-1,-3.03878E-1
2.26989E-1,-3.29345E-1
1.92947E-1,-3.49319E-1
1.52511E-1,-3.64135E-1
1.06155E-1,-3.76922E-1
0.61401E-1,-3.90258E-1
0.25756E-1,-4.01031E-1
-0.02136E-1,-4.07531E-1
-0.38574E-1,-4.18335E-1
-0.90789E-1,-4.12124E-1
-1.44958E-1,-3.98223E-1
-1.88171E-1,-3.84292E-1
-2.2435E-1,-3.80554E-1
-2.62588E-1,-3.70636E-1
-3.03131E-1,-3.42163E-1
-3.38775E-1,-3.00308E-1
-3.70361E-1,-2.65701E-1
-4.05578E-1,-2.40768E-1
-4.28802E-1,-2.18017E-1
-4.54208E-1,-1.86828E-1
-4.67193E-1,-1.39877E-1
-4.79431E-1,-0.89782E-1
-4.97940E-1,-0.48217E-1
-5.17669E-1,-0.09429E-1
-5.29785E-1,0.27923E-1
-5.26184E-1,0.75744E-1
-5.10742E-1,1.24847E-1
-5.01739E-1,1.75231E-1
-4.96658E-1,2.25814E-1
-4.86404E-1,2.63977E-1
-4.67773E-1,2.95822E-1
-4.39071E-1,3.28887E-1
-4.05136E-1,3.73046E-1
-3.73107E-1,4.16214E-1
-3.50494E-1,4.52255E-1
-3.27072E-1,4.79797E-1
-2.91503E-1,5.02105E-1
-2.41088E-1,5.22796E-1
-1.89086E-1,5.39764E-1
-1.45355E-1,5.71929E-1
-1.02844E-1,5.92956E-1
-0.65368E-1,5.97778E-1
-0.17150E-1,5.95672E-1
0.42694E-1,5.83618E-1
0.95977E-1,5.83099E-1
1.57592E-1,5.83801E-1
2.01171E-1,5.69549E-1
2.34344E-1,5.53039E-1
2.78656E-1,5.20233E-1
3.22036E-1,4.88540E-1
3.83743E-1,4.63134E-1
4.36615E-1,4.23599E-1
4.66796E-1,3.84613E-1
4.90661E-1,3.37432E-1
5.12695E-1,2.73559E-1
5.37262E-1,2.08099E-1
5.57922E-1,1.36230E-1
5.52887E-1,0.80932E-1
5.44189E-1,0.38543E-1
5.24383E-1,-0.14495E-1
5.03051E-1,-0.62377E-1
4.93804E-1,-1.22802E-1
4.76608E-1,-1.76544E-1
4.55581E-1,-2.16964E-1
4.23141E-1,-2.49832E-1
3.76007E-1,-2.79327E-1
3.31100E-1,-3.19107E-1
2.82104E-1,-3.58673E-1
2.40921E-1,-3.82659E-1
2.0224E-1,-3.88855E-1
1.62521E-1,-3.84399E-1
1.18133E-1,-3.81683E-1
0.69763E-1,-3.88839E-1
0.22689E-1,-4.00360E-1
-0.15243E-1,-4.02267E-1
-0.44555E-1,-3.88885E-1
-0.78140E-1,-3.66836E-1
-1.21978E-1,-3.41400E-1
-1.67816E-1,-3.20480E-1
-2.04910E-1,-3.00857E-1
-2.20642E-1,-2.75436E-1
-2.19368E-1,-2.48580E-1
-2.25250E-1,-2.15538E-1
-2.43980E-1,-1.84036E-1
-2.70263E-1,-1.55288E-1
-2.79861E-1,-1.44714E-1
-2.77145E-1,-1.38900E-1
-2.74200E-1,-1.25930E-1
-2.78717E-1,-0.91629E-1
END
BEGIN
-8.80188E-1,0.54657E-1
-7.96508E-1,1.3974E-1
-8.15582E-1,1.74255E-1
-7.99224E-1,3.14575E-1
-7.35748E-1,3.79425E-1
-6.92962E-1,4.85870E-1
-5.60333E-1,5.23742E-1
-5.34240E-1,4.89074E-1
-5.39245E-1,5.55389E-1
-4.84222E-1,6.02813E-1
-4.56970E-1,6.72851E-1
-3.33526E-1,7.21923E-1
-2.99621E-1,6.79840E-1
-3.07708E-1,7.66235E-1
-1.81701E-1,8.29467E-1
-1.14990E-1,8.40789E-1
0.15686E-1,8.76464E-1
1.00402E-1,7.93914E-1
0.95031E-1,8.07983E-1
2.05200E-1,8.51043E-1
2.8479E-1,8.25195E-1
4.04449E-1,8.42132E-1
5.30609E-1,7.29064E-1
5.38818E-1,6.69616E-1
6.41174E-1,6.44683E-1
6.95190E-1,5.29144E-1
7.43072E-1,4.85351E-1
8.13110E-1,3.38806E-1
7.33581E-1,2.36053E-1
7.28393E-1,2.38647E-1
7.48138E-1,1.78894E-1
7.53662E-1,1.62353E-1
8.26965E-1,0.91400E-1
7.84698E-1,-0.14129E-1
7.81066E-1,-0.05401E-1
8.56353E-1,-0.72692E-1
8.72802E-1,-1.70043E-1
9.16320E-1,-3.08319E-1
7.93670E-1,-4.86022E-1
6.84845E-1,-4.69574E-1
6.96136E-1,-5.22949E-1
6.15753E-1,-5.99426E-1
5.86639E-1,-6.31805E-1
5.01190E-1,-7.36969E-1
3.86596E-1,-7.05383E-1
4.01306E-1,-7.17956E-1
3.25805E-1,-8.04199E-1
2.59491E-1,-8.09417E-1
1.88171E-1,-9.01092E-1
-0.01098E-1,-8.80432E-1
-0.36193E-1,-7.94403E-1
-0.78796E-1,-8.01116E-1
-1.30462E-1,-7.61840E-1
-1.47033E-1,-7.84545E-1
-2.60833E-1,-7.90405E-1
-3.04657E-1,-7.26287E-1
-3.39111E-1,-7.34893E-1
-4.11987E-1,-7.07672E-1
-4.52362E-1,-7.16064E-1
-6.06872E-1,-7.06939E-1
-6.82128E-1,-5.47485E-1
-6.73492E-1,-4.88891E-1
-7.11731E-1,-4.14611E-1
-6.78863E-1,-3.67828E-1
-7.39868E-1,-3.86688E-1
-8.15551E-1,-2.75207E-1
-7.87078E-1,-2.13073E-1
-8.36822E-1,-1.84997E-1
-8.61602E-1,-0.99456E-1
-9.11529E-1,-0.49346E-1
-9.61395E-1,1.17126E-1
-8.65631E-1,2.38647E-1
-8.36395E-1,2.89306E-1
-7.66906E-1,3.81835E-1
-7.04803E-1,3.81652E-1
-7.10998E-1,4.31304E-1
-6.49688E-1,4.87060E-1
-6.40167E-1,5.03479E-1
-6.16699E-1,5.87646E-1
-5.56152E-1,6.13098E-1
-5.69335E-1,6.71020E-1
-4.95849E-1,7.86071E-1
-4.03930E-1,8.28704E-1
-3.00842E-1,8.94622E-1
-1.67724E-1,8.61236E-1
-1.55365E-1,8.42163E-1
-0.74035E-1,9.03686E-1
0.28350E-1,8.62823E-1
0.60791E-1,8.68469E-1
1.61956E-1,8.66668E-1
1.93664E-1,8.31054E-1
2.61810E-1,8.84979E-1
4.13574E-1,8.48602E-1
4.74212E-1,7.68524E-1
5.55633E-1,7.21130E-1
5.95855E-1,6.17889E-1
6.06567E-1,5.86914E-1
6.69067E-1,5.28045E-1
6.60369E-1,4.58770E-1
6.93786E-1,4.54711E-1
7.51556E-1,3.86749E-1
7.60131E-1,3.39233E-1
8.25408E-1,3.01910E-1
8.61389E-1,2.05749E-1
8.84491E-1,1.46209E-1
9.37774E-1,0.29052E-1
8.86169E-1,-0.99762E-1
8.49304E-1,-1.47033E-1
8.31481E-1,-2.26715E-1
7.84576E-1,-2.78930E-1
7.70141E-1,-3.38562E-1
7.07397E-1,-4.06524E-1
6.67480E-1,-4.13116E-1
6.69555E-1,-4.60937E-1
6.33239E-1,-5.24627E-1
6.07452E-1,-5.79650E-1
5.47699E-1,-6.60034E-1
4.65393E-1,-6.89544E-1
4.14978E-1,-7.24151E-1
3.27697E-1,-7.56012E-1
2.69928E-1,-7.45544E-1
2.26898E-1,-7.73376E-1
1.48498E-1,-7.78228E-1
1.04858E-1,-7.70721E-1
0.47149E-1,-7.82867E-1
-0.05065E-1,-7.67791E-1
-0.38177E-1,-7.82684E-1
-1.08520E-1,-8.04168E-1
-1.83441E-1,-7.97790E-1
-2.66082E-1,-7.86193E-1
-3.37432E-1,-7.28942E-1
-3.62091E-1,-7.01110E-1
-4.28497E-1,-6.91345E-1
-4.87915E-1,-6.41052E-1
-5.32257E-1,-6.09252E-1
-5.88531E-1,-5.51086E-1
-5.94512E-1,-4.97222E-1
-6.34429E-1,-4.89288E-1
-6.99859E-1,-4.35272E-1
-7.31689E-1,-3.76434E-1
-7.80914E-1,-3.17810E-1
-7.92633E-1,-2.30255E-1
-8.01330E-1,-1.84448E-1
-8.35907E-1,-1.04003E-1
-8.17474E-1,-0.24231E-1
-8.23425E-1,0.30517E-1
-8.08319E-1,1.25213E-1
-7.59307E-1,1.5979E-1
-7.63916E-1,1.95312E-1
-7.50549E-1,2.53082E-1
-7.48809E-1,2.96569E-1
-7.48046E-1,3.86108E-1
-6.85089E-1,4.57183E-1
-6.51275E-1,4.91272E-1
-6.12945E-1,5.46661E-1
-5.74371E-1,5.82519E-1
-5.40741E-1,6.50726E-1
-4.48181E-1,6.97845E-1
-4.00695E-1,6.94152E-1
-3.65081E-1,7.34191E-1
-3.08929E-1,7.54455E-1
-2.75787E-1,7.91656E-1
-1.94183E-1,8.44421E-1
-1.11236E-1,8.42071E-1
-0.54412E-1,8.60839E-1
0.33508E-1,8.66424E-1
0.92132E-1,8.51654E-1
1.68914E-1,8.63494E-1
2.57537E-1,8.27423E-1
3.07037E-1,7.94616E-1
3.69201E-1,7.65075E-1
4.05853E-1,7.28302E-1
4.55200E-1,7.23083E-1
5.33081E-1,6.90704E-1
5.84716E-1,6.39312E-1
6.40197E-1,5.97778E-1
6.83685E-1,5.37078E-1
7.19055E-1,4.95636E-1
7.77130E-1,4.43420E-1
8.12866E-1,3.66638E-1
8.39447E-1,3.05175E-1
8.71276E-1,2.34924E-1
8.86932E-1,1.60308E-1
9.03350E-1,0.92346E-1
9.12384E-1,0.09552E-1
9.05670E-1,-0.63201E-1
9.03045E-1,-1.32293E-1
8.94622E-1,-2.12402E-1
8.69628E-1,-2.85858E-1
8.45550E-1,-3.50311E-1
8.16589E-1,-4.20288E-1
7.82653E-1,-4.75524E-1
7.67608E-1,-5.40924E-1
7.19635E-1,-6.38916E-1
6.46453E-1,-6.99310E-1
5.80047E-1,-7.54333E-1
4.98779E-1,-7.90771E-1
4.46899E-1,-8.11584E-1
3.85650E-1,-8.72192E-1
2.86254E-1,-8.98956E-1
2.09899E-1,-9.06616E-1
END
BEGIN
-7.96203E-1,0.53100E-1
-8.25408E-1,1.24633E-1
-7.52410E-1,2.52746E-1
-7.03399E-1,2.29675E-1
-7.81219E-1,3.03344E-1
-7.14904E-1,4.36920E-1
-6.83288E-1,4.84527E-1
-6.12823E-1,6.06628E-1
-5.05157E-1,5.98205E-1
-5.41198E-1,6.25122E-1
-4.70855E-1,7.62115E-1
-3.61877E-1,7.91870E-1
-2.61261E-1,8.50311E-1
-1.26831E-1,8.11554E-1
-1.25213E-1,7.88391E-1
-0.47302E-1,8.72283E-1
0.72479E-1,8.49975E-1
1.53991E-1,8.58703E-1
2.97058E-1,7.83294E-1
2.84332E-1,6.83349E-1
3.01635E-1,7.26837E-1
4.10064E-1,6.99188E-1
4.50622E-1,6.66687E-1
5.61431E-1,6.28601E-1
5.79772E-1,5.08331E-1
5.66284E-1,5.11077E-1
6.59088E-1,4.88159E-1
6.98608E-1,4.16778E-1
7.79663E-1,3.61816E-1
7.9776E-1,2.05169E-1
7.31597E-1,1.70471E-1
7.79296E-1,1.60247E-1
8.08075E-1,0.91552E-1
8.71093E-1,0.31524E-1
8.74816E-1,-1.56524E-1
7.39349E-1,-2.07031E-1
7.50427E-1,-1.86523E-1
7.76306E-1,-2.60589E-1
7.93487E-1,-3.26904E-1
7.86499E-1,-5.00610E-1
6.04003E-1,-5.72082E-1
5.61401E-1,-5.11932E-1
5.73761E-1,-5.58471E-1
5.56793E-1,-6.06475E-1
5.56152E-1,-7.38708E-1
3.63433E-1,-8.48663E-1
2.64312E-1,-7.59124E-1
2.67852E-1,-7.74871E-1
2.12158E-1,-8.03833E-1
1.94519E-1,-8.69201E-1
0.16357E-1,-9.77081E-1
-1.49261E-1,-8.57727E-1
-1.43768E-1,-7.99804E-1
-1.93969E-1,-7.98828E-1
-2.06207E-1,-7.96447E-1
-3.12225E-1,-8.80554E-1
-5.04303E-1,-7.74353E-1
-4.98687E-1,-6.54083E-1
-5.24017E-1,-6.34185E-1
-5.40771E-1,-5.94329E-1
-5.94757E-1,-6.41632E-1
-7.77832E-1,-5.61004E-1
-7.73529E-1,-3.81164E-1
-7.46368E-1,-3.37707E-1
-7.48565E-1,-2.80670E-1
-7.46704E-1,-2.93701E-1
-8.89953E-1,-2.65869E-1
-9.21539E-1,-0.61615E-1
-8.42346E-1,0.00701E-1
-8.40332E-1,0.48889E-1
-8.17199E-1,0.81817E-1
-8.94744E-1,1.11114E-1
-9.27581E-1,3.11950E-1
-7.95410E-1,4.10247E-1
-7.48077E-1,4.36004E-1
-6.94122E-1,4.83093E-1
-6.85821E-1,4.94628E-1
-6.94152E-1,6.12213E-1
-5.68603E-1,7.13043E-1
-4.78027E-1,7.18627E-1
-4.07531E-1,7.30346E-1
-3.84948E-1,7.19482E-1
-3.7854E-1,8.00567E-1
-2.45056E-1,8.74237E-1
-1.54296E-1,8.46496E-1
-0.76843E-1,8.55712E-1
-0.05218E-1,8.06640E-1
-0.12023E-1,8.11615E-1
0.64025E-1,8.84002E-1
1.83258E-1,8.66272E-1
2.54791E-1,8.39508E-1
3.32763E-1,7.85705E-1
3.42529E-1,7.50061E-1
4.04357E-1,7.82714E-1
5.26123E-1,7.53112E-1
6.09466E-1,6.83532E-1
6.76513E-1,5.83770E-1
6.5625E-1,5.03326E-1
6.80786E-1,5.15289E-1
7.84088E-1,4.62188E-1
8.30596E-1,3.53210E-1
8.60290E-1,2.56103E-1
8.31451E-1,1.52648E-1
8.14514E-1,1.45690E-1
8.78601E-1,0.89477E-1
8.80981E-1,-0.18798E-1
8.78173E-1,-0.9552E-1
8.41674E-1,-2.14721E-1
7.64007E-1,-2.44110E-1
7.80975E-1,-2.62237E-1
7.81036E-1,-3.52661E-1
7.42767E-1,-4.28161E-1
6.82159E-1,-5.15045E-1
5.77789E-1,-5.34668E-1
5.63201E-1,-5.22552E-1
5.60821E-1,-5.84686E-1
5.13641E-1,-6.52984E-1
4.48883E-1,-7.23266E-1
3.25897E-1,-7.46978E-1
2.73162E-1,-6.99707E-1
2.69470E-1,-7.16217E-1
2.25097E-1,-7.63427E-1
1.57257E-1,-8.10852E-1
0.35736E-1,-8.27728E-1
-0.38147E-1,-7.57965E-1
-0.41168E-1,-7.41973E-1
-0.79834E-1,-7.6297E-1
-1.39343E-1,-7.87811E-1
-2.54028E-1,-7.94952E-1
-3.47503E-1,-6.96807E-1
-3.35296E-1,-6.38061E-1
-3.51196E-1,-6.47308E-1
-4.05975E-1,-6.52465E-1
-4.92095E-1,-6.40838E-1
-5.68512E-1,-5.52703E-1
-5.63659E-1,-4.80102E-1
-5.76660E-1,-4.60693E-1
-6.10199E-1,-4.34021E-1
-6.58355E-1,-4.13116E-1
-7.30346E-1,-3.46954E-1
-7.33276E-1,-2.53692E-1
-7.24151E-1,-2.13592E-1
-7.34985E-1,-1.73614E-1
-7.56683E-1,-1.41052E-1
-8.07495E-1,-0.78491E-1
-8.10943E-1,0.19805E-1
-7.90924E-1,0.70922E-1
-7.87902E-1,1.19140E-1
-7.85949E-1,1.61193E-1
-8.13201E-1,2.24914E-1
-8.00567E-1,3.43780E-1
-7.26287E-1,4.10583E-1
-6.96991E-1,4.41955E-1
-6.73980E-1,4.84741E-1
-6.67694E-1,5.37994E-1
-6.35559E-1,6.34948E-1
-5.40283E-1,7.03796E-1
-4.71435E-1,7.28393E-1
-4.13085E-1,7.62786E-1
-3.65081E-1,7.94952E-1
-3.07067E-1,8.54095E-1
-2.00103E-1,8.84765E-1
-1.18774E-1,8.72650E-1
-0.53863E-1,8.68072E-1
0.00366E-1,8.63555E-1
0.58685E-1,8.87023E-1
1.55700E-1,8.94561E-1
2.38861E-1,8.62548E-1
3.07067E-1,8.30078E-1
3.57666E-1,7.89428E-1
4.04052E-1,7.75695E-1
4.86572E-1,7.56713E-1
5.61798E-1,6.96044E-1
6.10199E-1,6.33728E-1
6.44805E-1,5.75012E-1
6.72973E-1,5.38482E-1
7.28027E-1,4.99633E-1
7.81127E-1,4.30969E-1
8.09387E-1,3.54614E-1
8.28064E-1,2.86956E-1
8.43383E-1,2.25677E-1
8.65448E-1,1.62902E-1
8.84460E-1,0.93231E-1
8.90502E-1,0.16937E-1
8.87878E-1,-0.54351E-1
8.82995E-1,-1.26922E-1
8.62487E-1,-2.01904E-1
8.39263E-1,-2.62298E-1
8.21014E-1,-3.27972E-1
7.94281E-1,-3.88153E-1
7.78839E-1,-4.49554E-1
7.43927E-1,-5.34912E-1
6.74438E-1,-5.94299E-1
6.24694E-1,-6.33544E-1
5.72021E-1,-6.78100E-1
5.37750E-1,-7.18048E-1
4.88830E-1,-7.98492E-1
3.77197E-1,-8.43719E-1
3.00018E-1,-8.36181E-1
2.40844E-1,-8.42834E-1
1.91986E-1,-8.43994E-1
END
BEGIN
-5.71594E-1,-1.02844E-1
-5.79132E-1,-0.39581E-1
-5.80047E-1,0.27862E-1
-5.75775E-1,0.85754E-1
-5.61401E-1,1.58416E-1
-5.30487E-1,2.20489E-1
-5.01251E-1,2.81066E-1
-4.68887E-1,3.31787E-1
-4.33944E-1,3.88687E-1
-3.84384E-1,4.34677E-1
-3.35403E-1,4.69894E-1
-2.80349E-1,4.99389E-1
-2.28790E-1,5.22888E-1
-1.60980E-1,5.54504E-1
-0.97381E-1,5.60150E-1
-0.36926E-1,5.66619E-1
0.26519E-1,5.61584E-1
0.83160E-1,5.54229E-1
1.44775E-1,5.48706E-1
2.03735E-1,5.14984E-1
2.51739E-1,4.84283E-1
2.98065E-1,4.47738E-1
3.40011E-1,4.11087E-1
3.84857E-1,3.62304E-1
4.17816E-1,3.09051E-1
4.49966E-1,2.62847E-1
4.73236E-1,2.02438E-1
4.91714E-1,1.47796E-1
5.02929E-1,0.78369E-1
5.07965E-1,0.24688E-1
5.12542E-1,-0.37719E-1
5.00152E-1,-0.98693E-1
4.85183E-1,-1.41754E-1
4.65591E-1,-1.89834E-1
4.46792E-1,-2.26806E-1
4.12353E-1,-2.82669E-1
3.70727E-1,-3.15109E-1
3.41751E-1,-3.45306E-1
3.10211E-1,-3.88336E-1
2.54943E-1,-4.14123E-1
2.11029E-1,-4.32800E-1
1.65573E-1,-4.47616E-1
1.13052E-1,-4.61212E-1
0.67215E-1,-4.76074E-1
0.04226E-1,-4.83047E-1
-0.36712E-1,-4.80621E-1
-0.87539E-1,-4.71588E-1
-1.35986E-1,-4.57366E-1
-1.82144E-1,-4.39559E-1
-2.41073E-1,-4.25628E-1
-2.88528E-1,-3.79150E-1
-3.20831E-1,-3.55667E-1
-3.59146E-1,-3.28674E-1
-3.93035E-1,-2.91793E-1
-4.20867E-1,-2.53189E-1
-4.42901E-1,-2.05001E-1
-4.60174E-1,-1.68441E-1
-4.77127E-1,-1.19232E-1
-4.87304E-1,-0.67199E-1
-4.86434E-1,-0.13885E-1
-4.94781E-1,0.36804E-1
-4.80407E-1,0.95428E-1
-4.66247E-1,1.40487E-1
-4.58419E-1,1.90643E-1
-4.37057E-1,2.47558E-1
-4.10980E-1,2.90634E-1
-3.80325E-1,3.32382E-1
-3.57330E-1,3.66333E-1
-3.16391E-1,3.98391E-1
-2.66052E-1,4.24057E-1
-2.12875E-1,4.36691E-1
-1.60797E-1,4.67025E-1
-0.95581E-1,4.79049E-1
-0.45105E-1,4.78500E-1
0.05188E-1,4.86694E-1
0.63934E-1,4.84558E-1
1.25076E-1,4.73327E-1
1.76940E-1,4.48059E-1
2.21969E-1,4.37088E-1
2.68676E-1,4.19006E-1
3.17688E-1,3.87069E-1
3.47045E-1,3.38058E-1
3.71841E-1,2.98431E-1
4.04174E-1,2.55706E-1
4.26574E-1,2.08282E-1
4.52392E-1,1.59744E-1
4.68566E-1,1.05270E-1
4.79827E-1,0.58364E-1
4.75112E-1,0.08468E-1
4.76776E-1,-0.33004E-1
4.68429E-1,-0.80612E-1
4.55093E-1,-1.28570E-1
4.30725E-1,-1.70394E-1
4.11575E-1,-2.12966E-1
3.90228E-1,-2.53219E-1
3.58459E-1,-2.94921E-1
3.24493E-1,-3.26400E-1
2.87536E-1,-3.62350E-1
2.42263E-1,-4.00772E-1
2.03109E-1,-4.15649E-1
1.77078E-1,-4.42749E-1
1.46713E-1,-4.60327E-1
1.14898E-1,-4.79919E-1
0.72235E-1,-4.80926E-1
0.39794E-1,-4.77829E-1
0.03265E-1,-4.89425E-1
-0.44845E-1,-4.91897E-1
-0.88913E-1,-4.88021E-1
-1.34567E-1,-4.76730E-1
-1.73416E-1,-4.62646E-1
-2.12204E-1,-4.49035E-1
-2.54715E-1,-4.28558E-1
-2.88116E-1,-4.03854E-1
-3.23593E-1,-3.86077E-1
-3.54507E-1,-3.57864E-1
-3.76525E-1,-3.33236E-1
-3.98468E-1,-3.09036E-1
-4.18899E-1,-2.76596E-1
-4.38278E-1,-2.40463E-1
-4.50973E-1,-2.00347E-1
-4.69421E-1,-1.64215E-1
-4.84939E-1,-1.25610E-1
-4.96917E-1,-0.90576E-1
-5.01800E-1,-0.60699E-1
-5.09521E-1,-0.30975E-1
-5.17303E-1,0.02136E-1
-5.19470E-1,0.42297E-1
-5.18890E-1,0.76446E-1
-5.21423E-1,1.08764E-1
-5.18493E-1,1.50695E-1
-5.04547E-1,1.80816E-1
-4.94461E-1,2.22702E-1
-4.73892E-1,2.62588E-1
-4.57748E-1,3.01574E-1
-4.40444E-1,3.42529E-1
-4.17984E-1,3.77502E-1
-4.00589E-1,4.13238E-1
-3.69552E-1,4.46548E-1
-3.39660E-1,4.66033E-1
-3.11462E-1,4.91043E-1
-2.74231E-1,5.15319E-1
-2.37579E-1,5.30365E-1
-1.96807E-1,5.49499E-1
-1.53228E-1,5.57708E-1
-1.10504E-1,5.71106E-1
-0.60363E-1,5.77850E-1
-0.11657E-1,5.79040E-1
0.42816E-1,5.85144E-1
1.05194E-1,5.78002E-1
1.57806E-1,5.63934E-1
2.01721E-1,5.49804E-1
2.43896E-1,5.38543E-1
2.82104E-1,5.18585E-1
3.25302E-1,4.89563E-1
3.61114E-1,4.51049E-1
3.96926E-1,4.08371E-1
4.31716E-1,3.69140E-1
4.67071E-1,3.25119E-1
4.96688E-1,2.78427E-1
5.17700E-1,2.23175E-1
5.28442E-1,1.68518E-1
5.35491E-1,1.21154E-1
5.50048E-1,0.73303E-1
5.53375E-1,0.29663E-1
5.57342E-1,-0.14373E-1
5.42816E-1,-0.58410E-1
5.23864E-1,-0.98388E-1
5.04180E-1,-1.40533E-1
4.76181E-1,-1.86660E-1
4.48883E-1,-2.26837E-1
4.14688E-1,-2.73437E-1
3.72390E-1,-3.10714E-1
3.33007E-1,-3.36563E-1
2.98492E-1,-3.62548E-1
2.66204E-1,-3.86642E-1
2.23861E-1,-4.16915E-1
1.72592E-1,-4.25994E-1
1.32476E-1,-4.28741E-1
0.96679E-1,-4.34219E-1
0.58898E-1,-4.36386E-1
0.1474E-1,-4.41192E-1
-0.42739E-1,-4.27139E-1
-0.84945E-1,-4.05715E-1
-1.28418E-1,-3.91479E-1
-1.67602E-1,-3.74359E-1
-2.04895E-1,-3.65966E-1
-2.51495E-1,-3.44329E-1
-2.74948E-1,-3.11157E-1
-2.95852E-1,-2.87353E-1
-3.14285E-1,-2.54104E-1
-3.25592E-1,-2.27508E-1
-3.49975E-1,-1.99096E-1
-3.68301E-1,-1.49780E-1
-3.67691E-1,-1.08200E-1
-3.67507E-1,-0.70022E-1
-3.62396E-1,-0.35842E-1
-3.67141E-1,0.03356E-1
-3.66882E-1,0.50354E-1
-3.51593E-1,0.90469E-1
-3.42086E-1,1.14852E-1
-3.28506E-1,1.36520E-1
END
