CITIFILE A.01.01
#NA VERSION HP8510C.08.10
NAME DATA
#NA REGISTER 4
VAR FREQ MAG 201
DATA S[1,1] RI
DATA S[2,1] RI
DATA S[1,2] RI
DATA S[2,2] RI
SEG_LIST_BEGIN
SEG 8000000000 12000000000 201
SEG_LIST_END
COMMENT       YEAR MONTH DAY HOUR MINUTE SECONDS
CONSTANT TIME 2013   12   09  21    44    30.0
BEGIN
-4.61944E-1,-2.89779E-1
-4.87045E-1,-2.41516E-1
-5.12695E-1,-1.83654E-1
-5.25238E-1,-1.31408E-1
-5.41564E-1,-0.72784E-1
-5.43731E-1,-0.15472E-1
-5.41534E-1,0.39581E-1
-5.33660E-1,0.88378E-1
-5.27801E-1,1.48315E-1
-5.07904E-1,2.03643E-1
-4.87487E-1,2.51358E-1
-4.55032E-1,2.98950E-1
-4.25582E-1,3.36502E-1
-3.91189E-1,3.91296E-1
-3.44650E-1,4.24469E-1
-3.03100E-1,4.58755E-1
-2.49984E-1,4.84939E-1
-2.04345E-1,5.00244E-1
-1.57257E-1,5.26733E-1
-0.92498E-1,5.32012E-1
-0.41412E-1,5.38360E-1
0.15594E-1,5.35980E-1
0.61370E-1,5.25146E-1
1.11175E-1,5.14251E-1
1.57165E-1,4.92324E-1
1.97738E-1,4.80896E-1
2.46032E-1,4.56497E-1
2.85034E-1,4.31579E-1
3.26644E-1,3.97903E-1
3.54736E-1,3.71398E-1
3.94744E-1,3.36502E-1
4.27291E-1,2.86514E-1
4.49203E-1,2.43423E-1
4.69268E-1,1.91925E-1
4.81216E-1,1.53121E-1
4.95361E-1,0.92361E-1
4.87060E-1,0.43182E-1
4.83200E-1,0.01922E-1
4.85961E-1,-0.44509E-1
4.66186E-1,-0.95367E-1
4.52789E-1,-1.34903E-1
4.36462E-1,-1.69128E-1
4.17480E-1,-2.0961E-1
3.97995E-1,-2.46322E-1
3.61984E-1,-2.92968E-1
3.34869E-1,-3.13324E-1
2.99484E-1,-3.41064E-1
2.66632E-1,-3.62884E-1
2.34878E-1,-3.79089E-1
2.02423E-1,-4.10354E-1
1.49368E-1,-4.13665E-1
1.24984E-1,-4.21783E-1
0.90362E-1,-4.36431E-1
0.50415E-1,-4.40673E-1
0.10376E-1,-4.42718E-1
-0.34576E-1,-4.38095E-1
-0.63980E-1,-4.38095E-1
-1.06216E-1,-4.31167E-1
-1.41342E-1,-4.14581E-1
-1.68533E-1,-3.95446E-1
-2.02941E-1,-3.89648E-1
-2.38296E-1,-3.64837E-1
-2.64816E-1,-3.47961E-1
-2.92099E-1,-3.33541E-1
-3.19320E-1,-3.08319E-1
-3.3992E-1,-2.81234E-1
-3.65005E-1,-2.48138E-1
-3.91723E-1,-2.28637E-1
-4.13864E-1,-1.90567E-1
-4.22927E-1,-1.57318E-1
-4.24957E-1,-1.27441E-1
-4.431E-1,-0.97030E-1
-4.53842E-1,-0.55221E-1
-4.55734E-1,-0.17227E-1
-4.58862E-1,0.09765E-1
-4.61532E-1,0.41900E-1
-4.59518E-1,0.80917E-1
-4.50790E-1,1.19049E-1
-4.53735E-1,1.62612E-1
-4.41909E-1,2.06039E-1
-4.26712E-1,2.46521E-1
-3.94043E-1,2.78747E-1
-3.72283E-1,3.07571E-1
-3.44680E-1,3.53744E-1
-3.06671E-1,3.84552E-1
-2.78381E-1,4.09576E-1
-2.388E-1,4.30481E-1
-2.03399E-1,4.43313E-1
-1.57470E-1,4.62829E-1
-1.06140E-1,4.83902E-1
-0.56823E-1,4.95544E-1
-0.08880E-1,5.00549E-1
0.36270E-1,4.84497E-1
0.81741E-1,4.76577E-1
1.35070E-1,4.62371E-1
1.87530E-1,4.39895E-1
2.25677E-1,4.17053E-1
2.58636E-1,3.94683E-1
2.96936E-1,3.66088E-1
3.30291E-1,3.24340E-1
3.67569E-1,2.83264E-1
4.00878E-1,2.39975E-1
4.33258E-1,1.92932E-1
4.44793E-1,1.34216E-1
4.46579E-1,0.78048E-1
4.48120E-1,0.15487E-1
4.40551E-1,-0.46493E-1
4.26803E-1,-1.00387E-1
4.04312E-1,-1.43310E-1
3.80828E-1,-1.84982E-1
3.45748E-1,-2.28683E-1
3.06594E-1,-2.70034E-1
2.69043E-1,-3.01086E-1
2.39852E-1,-3.31619E-1
1.97158E-1,-3.53271E-1
1.47171E-1,-3.64593E-1
0.92956E-1,-3.69522E-1
0.46066E-1,-3.73214E-1
0.12847E-1,-3.73046E-1
-0.07431E-1,-3.70300E-1
-0.31417E-1,-3.73535E-1
-0.69320E-1,-3.66363E-1
-1.10733E-1,-3.59390E-1
-1.45599E-1,-3.55667E-1
-1.76574E-1,-3.63662E-1
-2.14431E-1,-3.64975E-1
-2.57629E-1,-3.45993E-1
-2.98492E-1,-3.09463E-1
-3.34396E-1,-2.77038E-1
-3.72741E-1,-2.55798E-1
-3.99017E-1,-2.35580E-1
-4.25109E-1,-2.07260E-1
-4.42138E-1,-1.62170E-1
-4.55383E-1,-1.13021E-1
-4.76730E-1,-0.72784E-1
-4.98794E-1,-0.36773E-1
-5.15411E-1,-0.01586E-1
-5.14556E-1,0.45166E-1
-5.00762E-1,0.94207E-1
-4.93621E-1,1.43783E-1
-4.93316E-1,1.95068E-1
-4.85427E-1,2.32467E-1
-4.71145E-1,2.65152E-1
-4.45007E-1,2.97439E-1
-4.13574E-1,3.41598E-1
-3.84933E-1,3.86505E-1
-3.64654E-1,4.23873E-1
-3.44162E-1,4.52606E-1
-3.13919E-1,4.74334E-1
-2.63778E-1,4.98092E-1
-2.11883E-1,5.16693E-1
-1.70379E-1,5.51422E-1
-1.30432E-1,5.74951E-1
-0.95855E-1,5.82214E-1
-0.49316E-1,5.82977E-1
0.09521E-1,5.74188E-1
0.62713E-1,5.75500E-1
1.24664E-1,5.81237E-1
1.69006E-1,5.69732E-1
2.01568E-1,5.55694E-1
2.47558E-1,5.26550E-1
2.90756E-1,4.96124E-1
3.52996E-1,4.73953E-1
4.07989E-1,4.38980E-1
4.40429E-1,4.03213E-1
4.65942E-1,3.59283E-1
4.89791E-1,2.96997E-1
5.17791E-1,2.34863E-1
5.43273E-1,1.64367E-1
5.42327E-1,1.08886E-1
5.35675E-1,0.66558E-1
5.18890E-1,0.14068E-1
5.00152E-1,-0.35217E-1
4.94018E-1,-0.95382E-1
4.80712E-1,-1.50268E-1
4.62509E-1,-1.91787E-1
4.32174E-1,-2.25097E-1
3.86032E-1,-2.57309E-1
3.43200E-1,-2.98889E-1
2.96966E-1,-3.40698E-1
2.56652E-1,-3.67691E-1
2.19924E-1,-3.76022E-1
1.80252E-1,-3.72802E-1
1.35299E-1,-3.71505E-1
0.86288E-1,-3.80584E-1
0.39901E-1,-3.95156E-1
0.02349E-1,-3.99795E-1
-0.27114E-1,-3.88885E-1
-0.60577E-1,-3.67507E-1
-1.04690E-1,-3.42514E-1
-1.52496E-1,-3.24218E-1
-1.92215E-1,-3.06503E-1
-2.08648E-1,-2.82806E-1
-2.08831E-1,-2.56500E-1
-2.16003E-1,-2.22236E-1
-2.35595E-1,-1.91650E-1
-2.64999E-1,-1.62262E-1
-2.75085E-1,-1.51229E-1
-2.72750E-1,-1.46225E-1
-2.67791E-1,-1.32766E-1
-2.72613E-1,-0.98236E-1
END
BEGIN
-8.94043E-1,0.21637E-1
-8.14819E-1,1.12487E-1
-8.32702E-1,1.47827E-1
-8.22967E-1,2.87841E-1
-7.61749E-1,3.57574E-1
-7.23968E-1,4.65301E-1
-5.92468E-1,5.12542E-1
-5.61370E-1,4.80560E-1
-5.66925E-1,5.45684E-1
-5.1297E-1,5.96008E-1
-4.87640E-1,6.66229E-1
-3.66272E-1,7.22320E-1
-3.26660E-1,6.81854E-1
-3.37371E-1,7.64312E-1
-2.14935E-1,8.33831E-1
-1.47460E-1,8.47351E-1
-0.19104E-1,8.89129E-1
0.72052E-1,8.11645E-1
0.68206E-1,8.21472E-1
1.74987E-1,8.68072E-1
2.56774E-1,8.45367E-1
3.73962E-1,8.66882E-1
5.05889E-1,7.61657E-1
5.19897E-1,7.00408E-1
6.21978E-1,6.79534E-1
6.83441E-1,5.67779E-1
7.32910E-1,5.23376E-1
8.125E-1,3.82171E-1
7.40478E-1,2.71026E-1
7.33429E-1,2.70233E-1
7.55920E-1,2.10296E-1
7.60406E-1,1.90307E-1
8.35479E-1,1.24664E-1
7.99408E-1,0.14801E-1
7.92633E-1,0.19409E-1
8.67950E-1,-0.42327E-1
8.87451E-1,-1.37847E-1
9.35821E-1,-2.70660E-1
8.29803E-1,-4.53186E-1
7.19970E-1,-4.50042E-1
7.28179E-1,-5.03234E-1
6.50390E-1,-5.84228E-1
6.20849E-1,-6.18255E-1
5.41564E-1,-7.25860E-1
4.22454E-1,-7.03613E-1
4.34112E-1,-7.13684E-1
3.63342E-1,-8.01818E-1
2.95196E-1,-8.10455E-1
2.30926E-1,-9.03930E-1
0.40863E-1,-8.96728E-1
-0.03997E-1,-8.12408E-1
-0.47851E-1,-8.19549E-1
-1.03698E-1,-7.82074E-1
-1.20666E-1,-8.02612E-1
-2.33398E-1,-8.14392E-1
-2.83447E-1,-7.50518E-1
-3.17596E-1,-7.58850E-1
-3.91906E-1,-7.33764E-1
-4.32067E-1,-7.40875E-1
-5.84655E-1,-7.38861E-1
-6.68762E-1,-5.84472E-1
-6.63055E-1,-5.24200E-1
-7.06237E-1,-4.51202E-1
-6.76635E-1,-4.00360E-1
-7.34893E-1,-4.19921E-1
-8.15582E-1,-3.11492E-1
-7.90893E-1,-2.47406E-1
-8.40118E-1,-2.17987E-1
-8.68316E-1,-1.33514E-1
-9.17755E-1,-0.85540E-1
-9.75372E-1,0.76660E-1
-8.8797E-1,2.02148E-1
-8.60717E-1,2.57659E-1
-7.95074E-1,3.53546E-1
-7.32727E-1,3.58367E-1
-7.38220E-1,4.08691E-1
-6.79992E-1,4.67773E-1
-6.68609E-1,4.84771E-1
-6.48590E-1,5.69641E-1
-5.88439E-1,5.98602E-1
-6.01867E-1,6.55456E-1
-5.34393E-1,7.71728E-1
-4.44732E-1,8.19519E-1
-3.44299E-1,8.90136E-1
-2.09838E-1,8.64929E-1
-1.95098E-1,8.46801E-1
-1.16516E-1,9.11193E-1
-0.12176E-1,8.76525E-1
0.21392E-1,8.82568E-1
1.24115E-1,8.85955E-1
1.58386E-1,8.51257E-1
2.24060E-1,9.06829E-1
3.76861E-1,8.79425E-1
4.43176E-1,8.02581E-1
5.26153E-1,7.59155E-1
5.74035E-1,6.58905E-1
5.87982E-1,6.26312E-1
6.54449E-1,5.70922E-1
6.50512E-1,5.01709E-1
6.85272E-1,4.97589E-1
7.47497E-1,4.31610E-1
7.60253E-1,3.82843E-1
8.27972E-1,3.48602E-1
8.70727E-1,2.51647E-1
8.97644E-1,1.91955E-1
9.58984E-1,0.76843E-1
9.16320E-1,-0.57800E-1
8.83941E-1,-1.12304E-1
8.69873E-1,-1.97723E-1
8.23822E-1,-2.58911E-1
8.10028E-1,-3.24890E-1
7.44384E-1,-4.02679E-1
6.96746E-1,-4.13452E-1
6.91162E-1,-4.61944E-1
6.50695E-1,-5.23132E-1
6.20575E-1,-5.73944E-1
5.61615E-1,-6.48101E-1
4.79644E-1,-6.73675E-1
4.35760E-1,-7.02667E-1
3.59924E-1,-7.35565E-1
3.07373E-1,-7.28942E-1
2.70996E-1,-7.63549E-1
1.93664E-1,-7.78961E-1
1.46911E-1,-7.78350E-1
0.85907E-1,-7.94281E-1
0.29388E-1,-7.82592E-1
-0.03662E-1,-7.98522E-1
-0.77301E-1,-8.22204E-1
-1.52618E-1,-8.18237E-1
-2.37426E-1,-8.08624E-1
-3.11645E-1,-7.53479E-1
-3.37493E-1,-7.25860E-1
-4.05853E-1,-7.19177E-1
-4.67559E-1,-6.70898E-1
-5.13732E-1,-6.40167E-1
-5.74157E-1,-5.83465E-1
-5.82061E-1,-5.28961E-1
-6.21887E-1,-5.22644E-1
-6.89910E-1,-4.71008E-1
-7.24731E-1,-4.12384E-1
-7.76702E-1,-3.5495E-1
-7.92724E-1,-2.67120E-1
-8.03558E-1,-2.20397E-1
-8.42895E-1,-1.42517E-1
-8.27423E-1,-0.59600E-1
-8.35937E-1,-0.05493E-1
-8.26171E-1,0.91613E-1
-7.77893E-1,1.30859E-1
-7.82226E-1,1.65557E-1
-7.71148E-1,2.26379E-1
-7.70782E-1,2.68402E-1
-7.74047E-1,3.58429E-1
-7.14172E-1,4.33898E-1
-6.80877E-1,4.69970E-1
-6.44195E-1,5.29174E-1
-6.05896E-1,5.66406E-1
-5.76141E-1,6.36077E-1
-4.84283E-1,6.88293E-1
-4.34478E-1,6.8573E-1
-3.99963E-1,7.27752E-1
-3.44757E-1,7.50091E-1
-3.12957E-1,7.87384E-1
-2.33459E-1,8.44940E-1
-1.49139E-1,8.46618E-1
-0.92895E-1,8.67858E-1
-0.03326E-1,8.78997E-1
0.56396E-1,8.65509E-1
1.32141E-1,8.80371E-1
2.24487E-1,8.48938E-1
2.75543E-1,8.17291E-1
3.40667E-1,7.89550E-1
3.80157E-1,7.51373E-1
4.27642E-1,7.48504E-1
5.09094E-1,7.20733E-1
5.62255E-1,6.70867E-1
6.19598E-1,6.31103E-1
6.66839E-1,5.71319E-1
7.02911E-1,5.31616E-1
7.64190E-1,4.81750E-1
8.03161E-1,4.05304E-1
8.31909E-1,3.44390E-1
8.66699E-1,2.74963E-1
8.85284E-1,2.02728E-1
9.05334E-1,1.35437E-1
9.18365E-1,0.54168E-1
9.15191E-1,-0.21087E-1
9.15954E-1,-0.90148E-1
9.11956E-1,-1.70501E-1
8.89709E-1,-2.44964E-1
8.70361E-1,-3.11950E-1
8.43139E-1,-3.85131E-1
8.11676E-1,-4.41650E-1
7.98309E-1,-5.06317E-1
7.57812E-1,-6.06475E-1
6.88842E-1,-6.71203E-1
6.25152E-1,-7.30224E-1
5.44525E-1,-7.72460E-1
4.93530E-1,-7.95929E-1
4.37316E-1,-8.59710E-1
3.37432E-1,-8.93585E-1
2.60742E-1,-9.06921E-1
END
BEGIN
-8.11096E-1,0.25787E-1
-8.40942E-1,0.97259E-1
-7.74993E-1,2.29675E-1
-7.22076E-1,2.11486E-1
-8.00140E-1,2.80883E-1
-7.40905E-1,4.16442E-1
-7.08923E-1,4.66003E-1
-6.45172E-1,5.91339E-1
-5.35430E-1,5.89721E-1
-5.69000E-1,6.14227E-1
-5.05798E-1,7.52441E-1
-3.98345E-1,7.87902E-1
-3.01025E-1,8.50799E-1
-1.62017E-1,8.21441E-1
-1.55975E-1,7.97210E-1
-0.81665E-1,8.82965E-1
0.39062E-1,8.66943E-1
1.21337E-1,8.78601E-1
2.69500E-1,8.11431E-1
2.65686E-1,7.10235E-1
2.81524E-1,7.49511E-1
3.91479E-1,7.26623E-1
4.34051E-1,6.93573E-1
5.45684E-1,6.61193E-1
5.73181E-1,5.40985E-1
5.59783E-1,5.38909E-1
6.51275E-1,5.18737E-1
6.94488E-1,4.48486E-1
7.76672E-1,3.96209E-1
8.04321E-1,2.41668E-1
7.40539E-1,1.99279E-1
7.85919E-1,1.89422E-1
8.17840E-1,1.21215E-1
8.80310E-1,0.64178E-1
8.94409E-1,-1.21612E-1
7.62725E-1,-1.83288E-1
7.68585E-1,-1.65405E-1
7.95410E-1,-2.37274E-1
8.14178E-1,-3.01605E-1
8.18481E-1,-4.72839E-1
6.40045E-1,-5.60272E-1
5.88867E-1,-5.03784E-1
6.00769E-1,-5.47027E-1
5.83740E-1,-5.94879E-1
5.88287E-1,-7.23510E-1
4.04998E-1,-8.44390E-1
2.98095E-1,-7.62420E-1
2.99499E-1,-7.76336E-1
2.43957E-1,-8.06671E-1
2.28515E-1,-8.70056E-1
0.59845E-1,-9.87396E-1
-1.14318E-1,-8.79852E-1
-1.15417E-1,-8.19763E-1
-1.66870E-1,-8.18817E-1
-1.81243E-1,-8.14788E-1
-2.80914E-1,-9.01916E-1
-4.77783E-1,-8.09021E-1
-4.82330E-1,-6.86065E-1
-5.08972E-1,-6.65008E-1
-5.28717E-1,-6.22192E-1
-5.7724E-1,-6.68914E-1
-7.61261E-1,-6.00921E-1
-7.70294E-1,-4.22302E-1
-7.46887E-1,-3.73046E-1
-7.51525E-1,-3.13385E-1
-7.47039E-1,-3.22967E-1
-8.86566E-1,-3.03772E-1
-9.32067E-1,-1.03241E-1
-8.56964E-1,-0.3302E-1
-8.55255E-1,0.17364E-1
-8.32183E-1,0.54168E-1
-9.05548E-1,0.77911E-1
-9.50927E-1,2.71606E-1
-8.26751E-1,3.81622E-1
-7.78076E-1,4.11743E-1
-7.24090E-1,4.63409E-1
-7.12829E-1,4.74823E-1
-7.26898E-1,5.87585E-1
-6.10870E-1,6.97723E-1
-5.18188E-1,7.11273E-1
-4.45282E-1,7.27783E-1
-4.17388E-1,7.17041E-1
-4.14245E-1,7.94677E-1
-2.87933E-1,8.75610E-1
-1.92138E-1,8.55407E-1
-1.14471E-1,8.67736E-1
-0.35705E-1,8.22479E-1
-0.39764E-1,8.22021E-1
0.28045E-1,8.94226E-1
1.47491E-1,8.84307E-1
2.21435E-1,8.61694E-1
3.04657E-1,8.13201E-1
3.19580E-1,7.73712E-1
3.75946E-1,8.05297E-1
4.95483E-1,7.84576E-1
5.84167E-1,7.21374E-1
6.59576E-1,6.27990E-1
6.47338E-1,5.41412E-1
6.67694E-1,5.50048E-1
7.70202E-1,5.06134E-1
8.25897E-1,4.02771E-1
8.64349E-1,3.07800E-1
8.45855E-1,1.98059E-1
8.26355E-1,1.85638E-1
8.92517E-1,1.35040E-1
9.04327E-1,0.25482E-1
9.07592E-1,-0.55023E-1
8.83331E-1,-1.81121E-1
8.02185E-1,-2.24945E-1
8.16589E-1,-2.43560E-1
8.20434E-1,-3.38439E-1
7.81219E-1,-4.23309E-1
7.16278E-1,-5.19470E-1
5.99334E-1,-5.42816E-1
5.78735E-1,-5.25604E-1
5.72418E-1,-5.82885E-1
5.22918E-1,-6.44683E-1
4.60662E-1,-7.05658E-1
3.50372E-1,-7.25952E-1
3.04138E-1,-6.85638E-1
3.02703E-1,-7.03216E-1
2.63793E-1,-7.53753E-1
2.02056E-1,-8.07678E-1
0.84564E-1,-8.39050E-1
-0.03021E-1,-7.7948E-1
-0.13153E-1,-7.59216E-1
-0.51666E-1,-7.78778E-1
-1.09619E-1,-8.03436E-1
-2.23144E-1,-8.19274E-1
-3.27911E-1,-7.26257E-1
-3.19885E-1,-6.61102E-1
-3.33129E-1,-6.68273E-1
-3.85589E-1,-6.74957E-1
-4.71466E-1,-6.68731E-1
-5.56121E-1,-5.84960E-1
-5.55969E-1,-5.09094E-1
-5.68634E-1,-4.87640E-1
-6.02203E-1,-4.61822E-1
-6.50054E-1,-4.43176E-1
-7.25921E-1,-3.81774E-1
-7.35351E-1,-2.85156E-1
-7.26898E-1,-2.42279E-1
-7.38403E-1,-2.01873E-1
-7.59277E-1,-1.69677E-1
-8.12591E-1,-1.11419E-1
-8.21777E-1,-0.11779E-1
-8.02459E-1,0.41687E-1
-8.00231E-1,0.90881E-1
-7.98095E-1,1.32598E-1
-8.27972E-1,1.92749E-1
-8.24188E-1,3.12164E-1
-7.53051E-1,3.86138E-1
-7.22717E-1,4.19311E-1
-7.00103E-1,4.64080E-1
-6.95373E-1,5.15411E-1
-6.68457E-1,6.13739E-1
-5.76416E-1,6.89056E-1
-5.07659E-1,7.17559E-1
-4.49859E-1,7.54760E-1
-4.01947E-1,7.87414E-1
-3.47137E-1,8.49456E-1
-2.42034E-1,8.86779E-1
-1.58325E-1,8.78479E-1
-0.91461E-1,8.76556E-1
-0.35308E-1,8.74328E-1
0.21575E-1,8.99017E-1
1.18377E-1,9.11712E-1
2.04864E-1,8.84063E-1
2.75177E-1,8.53424E-1
3.28796E-1,8.12866E-1
3.76007E-1,8.00964E-1
4.59594E-1,7.85736E-1
5.39337E-1,7.28363E-1
5.91400E-1,6.66961E-1
6.29272E-1,6.08734E-1
6.58508E-1,5.72479E-1
7.15148E-1,5.35278E-1
7.71789E-1,4.67834E-1
8.03222E-1,3.90869E-1
8.24188E-1,3.23913E-1
8.40972E-1,2.63275E-1
8.66699E-1,2.01721E-1
8.88671E-1,1.32171E-1
8.96942E-1,0.54382E-1
8.97705E-1,-0.16296E-1
8.94561E-1,-0.88317E-1
8.79394E-1,-1.64459E-1
8.58673E-1,-2.27569E-1
8.42865E-1,-2.93579E-1
8.18481E-1,-3.56903E-1
8.04840E-1,-4.17633E-1
7.74749E-1,-5.03326E-1
7.09014E-1,-5.68359E-1
6.60217E-1,-6.11328E-1
6.09039E-1,-6.58447E-1
5.75317E-1,-6.98028E-1
5.32867E-1,-7.81341E-1
4.23614E-1,-8.34106E-1
3.43963E-1,-8.31420E-1
2.84240E-1,-8.40942E-1
2.34802E-1,-8.44451E-1
END
BEGIN
-5.52215E-1,-1.17401E-1
-5.61401E-1,-0.55999E-1
-5.63964E-1,0.09521E-1
-5.60546E-1,0.64605E-1
-5.50018E-1,1.35437E-1
-5.21850E-1,1.96167E-1
-4.95834E-1,2.55340E-1
-4.64859E-1,3.05023E-1
-4.33303E-1,3.61160E-1
-3.87222E-1,4.07608E-1
-3.41705E-1,4.42245E-1
-2.88192E-1,4.72259E-1
-2.39105E-1,4.96307E-1
-1.76147E-1,5.29968E-1
-1.13616E-1,5.37689E-1
-0.55206E-1,5.46264E-1
0.05828E-1,5.43945E-1
0.60791E-1,5.38330E-1
1.19445E-1,5.35736E-1
1.79107E-1,5.04821E-1
2.26059E-1,4.77111E-1
2.71438E-1,4.43115E-1
3.12393E-1,4.09439E-1
3.57742E-1,3.64395E-1
3.91555E-1,3.13888E-1
4.23751E-1,2.70309E-1
4.48623E-1,2.13501E-1
4.68170E-1,1.62139E-1
4.82177E-1,0.9552E-1
4.88952E-1,0.44342E-1
4.96322E-1,-0.15365E-1
4.86953E-1,-0.75347E-1
4.73449E-1,-1.17492E-1
4.56359E-1,-1.64321E-1
4.39468E-1,-2.00241E-1
4.08325E-1,-2.56637E-1
3.68057E-1,-2.90359E-1
3.40896E-1,-3.19854E-1
3.12545E-1,-3.61587E-1
2.62039E-1,-3.89572E-1
2.19406E-1,-4.11117E-1
1.74270E-1,-4.26071E-1
1.24191E-1,-4.40414E-1
0.80444E-1,-4.55169E-1
0.20263E-1,-4.65454E-1
-0.18493E-1,-4.63745E-1
-0.67688E-1,-4.56970E-1
-1.14502E-1,-4.44244E-1
-1.59759E-1,-4.27856E-1
-2.16903E-1,-4.17953E-1
-2.66128E-1,-3.74694E-1
-2.9776E-1,-3.53012E-1
-3.34823E-1,-3.28277E-1
-3.69216E-1,-2.94281E-1
-3.96896E-1,-2.57812E-1
-4.20501E-1,-2.11914E-1
-4.38308E-1,-1.77124E-1
-4.56161E-1,-1.29745E-1
-4.67529E-1,-0.79437E-1
-4.68215E-1,-0.26107E-1
-4.76669E-1,0.22705E-1
-4.62463E-1,0.77545E-1
-4.52499E-1,1.20498E-1
-4.47143E-1,1.69296E-1
-4.28543E-1,2.26242E-1
-4.04052E-1,2.68524E-1
-3.75549E-1,3.09921E-1
-3.55072E-1,3.42529E-1
-3.16162E-1,3.75351E-1
-2.68402E-1,4.01458E-1
-2.15881E-1,4.14871E-1
-1.67144E-1,4.45053E-1
-1.04812E-1,4.59320E-1
-0.54977E-1,4.59701E-1
-0.08407E-1,4.68643E-1
0.48126E-1,4.67926E-1
1.07406E-1,4.58633E-1
1.58859E-1,4.35272E-1
2.01858E-1,4.26635E-1
2.46688E-1,4.10919E-1
2.95043E-1,3.81561E-1
3.24783E-1,3.33206E-1
3.49609E-1,2.94494E-1
3.82095E-1,2.53936E-1
4.05426E-1,2.07946E-1
4.31716E-1,1.62674E-1
4.49539E-1,1.10702E-1
4.60311E-1,0.65490E-1
4.55978E-1,0.17288E-1
4.58190E-1,-0.21453E-1
4.50973E-1,-0.67840E-1
4.39575E-1,-1.14654E-1
4.16549E-1,-1.55639E-1
3.98254E-1,-1.96350E-1
3.78646E-1,-2.34603E-1
3.49624E-1,-2.75756E-1
3.17459E-1,-3.06701E-1
2.82440E-1,-3.43231E-1
2.38906E-1,-3.80630E-1
2.00943E-1,-3.94653E-1
1.78253E-1,-4.19952E-1
1.50512E-1,-4.36584E-1
1.2146E-1,-4.56268E-1
0.80413E-1,-4.57687E-1
0.49621E-1,-4.53750E-1
0.17150E-1,-4.65774E-1
-0.27496E-1,-4.69879E-1
-0.68756E-1,-4.68780E-1
-1.12625E-1,-4.60968E-1
-1.48361E-1,-4.49951E-1
-1.83837E-1,-4.40612E-1
-2.25906E-1,-4.26178E-1
-2.59445E-1,-4.06662E-1
-2.97149E-1,-3.95095E-1
-3.32351E-1,-3.70910E-1
-3.59054E-1,-3.48358E-1
-3.85772E-1,-3.24386E-1
-4.10263E-1,-2.90618E-1
-4.32022E-1,-2.52929E-1
-4.46823E-1,-2.10098E-1
-4.64736E-1,-1.72592E-1
-4.80163E-1,-1.35528E-1
-4.93362E-1,-1.01013E-1
-4.99786E-1,-0.70404E-1
-5.06866E-1,-0.38513E-1
-5.13549E-1,-0.03662E-1
-5.14556E-1,0.35949E-1
-5.13214E-1,0.68908E-1
-5.15533E-1,0.99853E-1
-5.12847E-1,1.40838E-1
-4.97436E-1,1.71096E-1
-4.87182E-1,2.11563E-1
-4.67636E-1,2.50305E-1
-4.52636E-1,2.87460E-1
-4.37606E-1,3.26736E-1
-4.16320E-1,3.61557E-1
-4.00619E-1,3.95141E-1
-3.71231E-1,4.29260E-1
-3.42422E-1,4.48333E-1
-3.16803E-1,4.73693E-1
-2.80609E-1,4.99084E-1
-2.45086E-1,5.13855E-1
-2.06359E-1,5.33325E-1
-1.62628E-1,5.42419E-1
-1.22436E-1,5.56274E-1
-0.74096E-1,5.64483E-1
-0.26763E-1,5.66864E-1
0.25390E-1,5.74493E-1
0.86914E-1,5.70068E-1
1.37329E-1,5.59143E-1
1.80633E-1,5.45867E-1
2.22076E-1,5.36499E-1
2.59368E-1,5.18981E-1
3.02215E-1,4.92813E-1
3.39614E-1,4.55627E-1
3.76815E-1,4.15527E-1
4.12338E-1,3.78128E-1
4.49050E-1,3.36792E-1
4.78790E-1,2.91748E-1
5.01220E-1,2.38769E-1
5.12542E-1,1.85546E-1
5.20843E-1,1.38977E-1
5.37506E-1,0.92315E-1
5.43060E-1,0.50415E-1
5.49316E-1,0.07507E-1
5.35949E-1,-0.35583E-1
5.18249E-1,-0.75653E-1
5.00061E-1,-1.18194E-1
4.75219E-1,-1.65191E-1
4.51004E-1,-2.05352E-1
4.20654E-1,-2.53097E-1
3.81347E-1,-2.91214E-1
3.43383E-1,-3.17520E-1
3.10501E-1,-3.44894E-1
2.80777E-1,-3.70666E-1
2.41180E-1,-4.04342E-1
1.89193E-1,-4.16046E-1
1.49353E-1,-4.18975E-1
1.13678E-1,-4.25415E-1
0.76568E-1,-4.2836E-1
0.33416E-1,-4.35836E-1
-0.25405E-1,-4.24942E-1
-0.67779E-1,-4.04678E-1
-1.11022E-1,-3.92028E-1
-1.49780E-1,-3.76220E-1
-1.87088E-1,-3.694E-1
-2.35458E-1,-3.51303E-1
-2.6091E-1,-3.18710E-1
-2.81860E-1,-2.96142E-1
-3.01895E-1,-2.62878E-1
-3.13003E-1,-2.36755E-1
-3.38989E-1,-2.10815E-1
-3.61206E-1,-1.62109E-1
-3.62472E-1,-1.20178E-1
-3.63876E-1,-0.81863E-1
-3.58703E-1,-0.47744E-1
-3.64608E-1,-0.10162E-1
-3.67599E-1,0.37780E-1
-3.54049E-1,0.80413E-1
-3.44802E-1,1.05011E-1
-3.30993E-1,1.26083E-1
END
