CITIFILE A.01.01
#NA VERSION HP8510C.08.10
NAME DATA
#NA REGISTER 4
VAR FREQ MAG 201
DATA S[1,1] RI
DATA S[2,1] RI
DATA S[1,2] RI
DATA S[2,2] RI
SEG_LIST_BEGIN
SEG 8000000000 12000000000 201
SEG_LIST_END
COMMENT       YEAR MONTH DAY HOUR MINUTE SECONDS
CONSTANT TIME 2013   12   09  21    38    28.0
BEGIN
-4.49585E-1,-2.96630E-1
-4.75112E-1,-2.49130E-1
-5.00640E-1,-1.91589E-1
-5.13916E-1,-1.40777E-1
-5.30212E-1,-0.84747E-1
-5.33416E-1,-0.28808E-1
-5.32806E-1,0.25360E-1
-5.27313E-1,0.72296E-1
-5.23651E-1,1.32385E-1
-5.05371E-1,1.86828E-1
-4.86572E-1,2.34222E-1
-4.55703E-1,2.82180E-1
-4.27734E-1,3.20007E-1
-3.95278E-1,3.75045E-1
-3.50235E-1,4.09118E-1
-3.11172E-1,4.43054E-1
-2.58422E-1,4.70459E-1
-2.13958E-1,4.85488E-1
-1.68731E-1,5.13275E-1
-1.04797E-1,5.19928E-1
-0.55450E-1,5.27771E-1
0.00885E-1,5.27038E-1
0.45806E-1,5.17883E-1
0.94726E-1,5.08636E-1
1.40747E-1,4.88067E-1
1.80740E-1,4.78042E-1
2.27661E-1,4.56405E-1
2.67257E-1,4.33319E-1
3.08654E-1,4.01260E-1
3.37204E-1,3.76037E-1
3.77594E-1,3.43902E-1
4.11712E-1,2.9599E-1
4.34219E-1,2.54653E-1
4.55154E-1,2.05108E-1
4.68139E-1,1.66717E-1
4.84207E-1,1.07971E-1
4.78942E-1,0.60516E-1
4.77020E-1,0.20996E-1
4.84985E-1,-0.25466E-1
4.66644E-1,-0.80627E-1
4.52331E-1,-1.20819E-1
4.36752E-1,-1.55105E-1
4.17633E-1,-1.95465E-1
4.00283E-1,-2.32238E-1
3.66455E-1,-2.78839E-1
3.37799E-1,-2.99713E-1
3.03588E-1,-3.27117E-1
2.71377E-1,-3.48709E-1
2.41226E-1,-3.64654E-1
2.11654E-1,-3.95965E-1
1.59729E-1,-4.01168E-1
1.36932E-1,-4.09088E-1
1.03439E-1,-4.24484E-1
0.6427E-1,-4.30725E-1
0.25787E-1,-4.34494E-1
-0.18722E-1,-4.31442E-1
-0.47348E-1,-4.32098E-1
-0.89248E-1,-4.27322E-1
-1.24069E-1,-4.12521E-1
-1.52008E-1,-3.94287E-1
-1.85424E-1,-3.89846E-1
-2.18933E-1,-3.67111E-1
-2.46582E-1,-3.52233E-1
-2.74597E-1,-3.38562E-1
-3.02581E-1,-3.14956E-1
-3.24508E-1,-2.89627E-1
-3.49823E-1,-2.58499E-1
-3.76647E-1,-2.39913E-1
-3.99002E-1,-2.03308E-1
-4.10141E-1,-1.71142E-1
-4.13772E-1,-1.42456E-1
-4.32189E-1,-1.13616E-1
-4.44381E-1,-0.73684E-1
-4.47265E-1,-0.36193E-1
-4.50515E-1,-0.10269E-1
-4.55932E-1,0.20263E-1
-4.56222E-1,0.57663E-1
-4.49966E-1,0.94986E-1
-4.55734E-1,1.36688E-1
-4.46701E-1,1.80145E-1
-4.35501E-1,2.20993E-1
-4.05517E-1,2.54928E-1
-3.86352E-1,2.84179E-1
-3.62411E-1,3.31451E-1
-3.26232E-1,3.64425E-1
-2.99285E-1,3.90701E-1
-2.62130E-1,4.14276E-1
-2.27386E-1,4.29550E-1
-1.85073E-1,4.52407E-1
-1.35818E-1,4.75723E-1
-0.87188E-1,4.89776E-1
-0.39627E-1,4.99084E-1
0.07339E-1,4.85977E-1
0.51269E-1,4.81124E-1
1.03241E-1,4.71710E-1
1.56799E-1,4.53277E-1
1.96044E-1,4.32876E-1
2.30514E-1,4.13177E-1
2.70446E-1,3.88519E-1
3.07083E-1,3.50875E-1
3.46923E-1,3.13919E-1
3.82675E-1,2.72476E-1
4.18853E-1,2.29400E-1
4.36218E-1,1.71981E-1
4.42977E-1,1.16928E-1
4.49035E-1,0.57556E-1
4.47998E-1,-0.03631E-1
4.40277E-1,-0.59021E-1
4.23294E-1,-1.04187E-1
4.06524E-1,-1.47949E-1
3.78662E-1,-1.95114E-1
3.46908E-1,-2.40585E-1
3.13964E-1,-2.78778E-1
2.89657E-1,-3.16818E-1
2.49954E-1,-3.49945E-1
2.00561E-1,-3.73474E-1
1.44546E-1,-3.91311E-1
0.89569E-1,-4.06036E-1
0.45959E-1,-4.13787E-1
0.12130E-1,-4.15954E-1
-0.26809E-1,-4.21279E-1
-0.77911E-1,-4.10339E-1
-1.29287E-1,-3.94012E-1
-1.69281E-1,-3.80172E-1
-2.03414E-1,-3.77349E-1
-2.40676E-1,-3.68148E-1
-2.79815E-1,-3.41247E-1
-3.14621E-1,-3.01956E-1
-3.46725E-1,-2.68264E-1
-3.83010E-1,-2.44201E-1
-4.08065E-1,-2.18689E-1
-4.30236E-1,-1.81976E-1
-4.35546E-1,-1.32675E-1
-4.3573E-1,-0.87570E-1
-4.46014E-1,-0.57144E-1
-4.64584E-1,-0.33294E-1
-4.82421E-1,-0.07522E-1
-4.86419E-1,0.32699E-1
-4.78912E-1,0.76248E-1
-4.76318E-1,1.22482E-1
-4.79034E-1,1.70959E-1
-4.75174E-1,2.08602E-1
-4.63439E-1,2.41027E-1
-4.39468E-1,2.74002E-1
-4.12811E-1,3.16925E-1
-3.86657E-1,3.60595E-1
-3.68499E-1,3.98437E-1
-3.50296E-1,4.28756E-1
-3.21731E-1,4.50897E-1
-2.75451E-1,4.77157E-1
-2.27203E-1,4.96780E-1
-1.88873E-1,5.32074E-1
-1.50360E-1,5.57739E-1
-1.15570E-1,5.67840E-1
-0.70404E-1,5.70434E-1
-0.12481E-1,5.64361E-1
0.38360E-1,5.69091E-1
0.98205E-1,5.76812E-1
1.43310E-1,5.68481E-1
1.76635E-1,5.57434E-1
2.22595E-1,5.30426E-1
2.65014E-1,5.03906E-1
3.27179E-1,4.85488E-1
3.83819E-1,4.52545E-1
4.18273E-1,4.18304E-1
4.46716E-1,3.77182E-1
4.73220E-1,3.18588E-1
5.03814E-1,2.57537E-1
5.32409E-1,1.88476E-1
5.34240E-1,1.32965E-1
5.2948E-1,0.91247E-1
5.16174E-1,0.38177E-1
5.00427E-1,-0.10528E-1
4.96490E-1,-0.69793E-1
4.86099E-1,-1.25793E-1
4.69635E-1,-1.68304E-1
4.42321E-1,-2.04040E-1
3.99200E-1,-2.37838E-1
3.59314E-1,-2.80761E-1
3.13980E-1,-3.25088E-1
2.74032E-1,-3.53515E-1
2.37121E-1,-3.64227E-1
1.97952E-1,-3.63586E-1
1.54556E-1,-3.63922E-1
1.06292E-1,-3.75534E-1
0.60287E-1,-3.90564E-1
0.21881E-1,-3.96987E-1
-0.07843E-1,-3.88046E-1
-0.42999E-1,-3.69613E-1
-0.87280E-1,-3.47168E-1
-1.34765E-1,-3.30566E-1
-1.74942E-1,-3.13995E-1
-1.93618E-1,-2.90634E-1
-1.95602E-1,-2.65121E-1
-2.04803E-1,-2.32978E-1
-2.25379E-1,-2.03453E-1
-2.55630E-1,-1.75552E-1
-2.66433E-1,-1.63345E-1
-2.66387E-1,-1.57440E-1
-2.61795E-1,-1.43875E-1
-2.68158E-1,-1.10961E-1
END
BEGIN
-8.97033E-1,0.12085E-1
-8.18115E-1,1.03332E-1
-8.36914E-1,1.37451E-1
-8.28582E-1,2.76733E-1
-7.70416E-1,3.46557E-1
-7.33886E-1,4.56665E-1
-6.04370E-1,5.06103E-1
-5.72357E-1,4.76013E-1
-5.78582E-1,5.41198E-1
-5.24566E-1,5.93078E-1
-4.98596E-1,6.64093E-1
-3.78509E-1,7.21191E-1
-3.37860E-1,6.82952E-1
-3.48144E-1,7.64617E-1
-2.27722E-1,8.34655E-1
-1.58386E-1,8.50006E-1
-0.31127E-1,8.92517E-1
0.60607E-1,8.17260E-1
0.58258E-1,8.27850E-1
1.65161E-1,8.74725E-1
2.47497E-1,8.53057E-1
3.63616E-1,8.75152E-1
4.96978E-1,7.72491E-1
5.12756E-1,7.11731E-1
6.14654E-1,6.92047E-1
6.78253E-1,5.80871E-1
7.28637E-1,5.37506E-1
8.09753E-1,3.97552E-1
7.41272E-1,2.85034E-1
7.35443E-1,2.83630E-1
7.59368E-1,2.23541E-1
7.63977E-1,2.03613E-1
8.39477E-1,1.36779E-1
8.05999E-1,0.26763E-1
7.99285E-1,0.30578E-1
8.75E-1,-0.32775E-1
8.96179E-1,-1.28570E-1
9.45861E-1,-2.62146E-1
8.41278E-1,-4.47326E-1
7.28393E-1,-4.45953E-1
7.37243E-1,-4.98016E-1
6.60003E-1,-5.79315E-1
6.30340E-1,-6.13281E-1
5.51239E-1,-7.21710E-1
4.33441E-1,-7.00500E-1
4.45190E-1,-7.10968E-1
3.75518E-1,-7.99896E-1
3.08502E-1,-8.09356E-1
2.43621E-1,-9.03259E-1
0.55389E-1,-8.98803E-1
0.08483E-1,-8.16894E-1
-0.35797E-1,-8.25653E-1
-0.93170E-1,-7.89245E-1
-1.10961E-1,-8.09814E-1
-2.23602E-1,-8.21838E-1
-2.75451E-1,-7.59216E-1
-3.10424E-1,-7.67456E-1
-3.84948E-1,-7.43682E-1
-4.26178E-1,-7.50396E-1
-5.77575E-1,-7.48718E-1
-6.63940E-1,-5.97442E-1
-6.61468E-1,-5.35614E-1
-7.04834E-1,-4.61944E-1
-6.77215E-1,-4.10095E-1
-7.34802E-1,-4.29138E-1
-8.15673E-1,-3.22296E-1
-7.91778E-1,-2.56591E-1
-8.41430E-1,-2.28302E-1
-8.69964E-1,-1.43524E-1
-9.19952E-1,-0.94299E-1
-9.77935E-1,0.67077E-1
-8.90777E-1,1.93237E-1
-8.64349E-1,2.47680E-1
-8.00689E-1,3.44116E-1
-7.37762E-1,3.50189E-1
-7.43286E-1,3.99719E-1
-6.85943E-1,4.59259E-1
-6.74224E-1,4.75952E-1
-6.55212E-1,5.60363E-1
-5.96099E-1,5.90148E-1
-6.10046E-1,6.45324E-1
-5.44586E-1,7.62420E-1
-4.56176E-1,8.10546E-1
-3.57971E-1,8.82171E-1
-2.24639E-1,8.59466E-1
-2.09869E-1,8.42041E-1
-1.32171E-1,9.07257E-1
-0.27832E-1,8.74969E-1
0.04577E-1,8.81622E-1
1.06781E-1,8.87329E-1
1.42211E-1,8.54339E-1
2.06237E-1,9.12048E-1
3.59649E-1,8.86535E-1
4.26635E-1,8.11798E-1
5.10284E-1,7.70660E-1
5.58593E-1,6.72882E-1
5.73791E-1,6.41265E-1
6.41815E-1,5.87188E-1
6.39556E-1,5.19287E-1
6.75079E-1,5.17272E-1
7.40142E-1,4.52789E-1
7.55340E-1,4.05090E-1
8.25378E-1,3.71704E-1
8.71582E-1,2.76123E-1
9.01123E-1,2.17346E-1
9.65423E-1,1.03790E-1
9.28680E-1,-0.33142E-1
8.99017E-1,-0.88897E-1
8.89343E-1,-1.75537E-1
8.46771E-1,-2.41760E-1
8.36395E-1,-3.09692E-1
7.75024E-1,-3.92364E-1
7.28393E-1,-4.09088E-1
7.23938E-1,-4.63439E-1
6.82586E-1,-5.32318E-1
6.49963E-1,-5.90423E-1
5.86914E-1,-6.73553E-1
4.96398E-1,-7.04620E-1
4.41803E-1,-7.36541E-1
3.53698E-1,-7.69592E-1
2.91809E-1,-7.56195E-1
2.47802E-1,-7.82440E-1
1.66534E-1,-7.88391E-1
1.19689E-1,-7.76763E-1
0.62164E-1,-7.84362E-1
0.11657E-1,-7.65533E-1
-0.15899E-1,-7.77893E-1
-0.82672E-1,-7.99560E-1
-1.54846E-1,-7.95379E-1
-2.33978E-1,-7.84668E-1
-3.02063E-1,-7.27447E-1
-3.22052E-1,-6.99768E-1
-3.77716E-1,-6.95098E-1
-4.31793E-1,-6.58416E-1
-4.77874E-1,-6.38427E-1
-5.39489E-1,-5.91644E-1
-5.55511E-1,-5.42938E-1
-5.99029E-1,-5.37323E-1
-6.70288E-1,-4.87945E-1
-7.08770E-1,-4.31213E-1
-7.61810E-1,-3.74542E-1
-7.82012E-1,-2.87933E-1
-7.94708E-1,-2.40112E-1
-8.34747E-1,-1.63635E-1
-8.23577E-1,-0.81726E-1
-8.33526E-1,-0.26306E-1
-8.26232E-1,0.68481E-1
-7.82012E-1,1.10626E-1
-7.86468E-1,1.46972E-1
-7.77221E-1,2.06329E-1
-7.77648E-1,2.50762E-1
-7.83721E-1,3.38989E-1
-7.25463E-1,4.17511E-1
-6.92840E-1,4.54803E-1
-6.57196E-1,5.13793E-1
-6.20697E-1,5.52093E-1
-5.91247E-1,6.23260E-1
-5.01800E-1,6.77764E-1
-4.50805E-1,6.77764E-1
-4.17480E-1,7.19299E-1
-3.62548E-1,7.44079E-1
-3.30810E-1,7.82012E-1
-2.53784E-1,8.41064E-1
-1.68182E-1,8.45764E-1
-1.11908E-1,8.67492E-1
-0.23345E-1,8.80493E-1
0.37231E-1,8.69171E-1
1.13372E-1,8.85742E-1
2.06543E-1,8.56079E-1
2.59063E-1,8.25408E-1
3.24432E-1,7.98919E-1
3.63494E-1,7.62817E-1
4.12200E-1,7.60559E-1
4.94079E-1,7.33886E-1
5.49774E-1,6.84509E-1
6.07147E-1,6.47216E-1
6.56189E-1,5.87432E-1
6.92993E-1,5.48400E-1
7.55218E-1,4.99847E-1
7.96752E-1,4.24346E-1
8.26721E-1,3.62976E-1
8.62243E-1,2.94891E-1
8.81988E-1,2.23083E-1
9.03533E-1,1.57348E-1
9.19525E-1,0.75408E-1
9.17999E-1,0.01098E-1
9.21173E-1,-0.69671E-1
9.18487E-1,-1.49261E-1
9.00024E-1,-2.24945E-1
8.80706E-1,-2.92877E-1
8.55926E-1,-3.67370E-1
8.25347E-1,-4.24804E-1
8.13720E-1,-4.89929E-1
7.75238E-1,-5.90759E-1
7.06787E-1,-6.58264E-1
6.44866E-1,-7.1875E-1
5.65765E-1,-7.63732E-1
5.14007E-1,-7.88574E-1
4.59838E-1,-8.54156E-1
3.59985E-1,-8.90625E-1
2.82592E-1,-9.04754E-1
END
BEGIN
-8.16162E-1,0.16754E-1
-8.46160E-1,0.85540E-1
-7.82897E-1,2.19451E-1
-7.28637E-1,2.03002E-1
-8.06884E-1,2.68432E-1
-7.52014E-1,4.06524E-1
-7.20031E-1,4.57885E-1
-6.59759E-1,5.84350E-1
-5.48522E-1,5.87097E-1
-5.79528E-1,6.09314E-1
-5.20538E-1,7.47619E-1
-4.12689E-1,7.85888E-1
-3.16772E-1,8.51593E-1
-1.76269E-1,8.26110E-1
-1.6745E-1,8.00140E-1
-0.96588E-1,8.85437E-1
0.25787E-1,8.73077E-1
1.06903E-1,8.85589E-1
2.57293E-1,8.24340E-1
2.59460E-1,7.21008E-1
2.73437E-1,7.57751E-1
3.83483E-1,7.3703E-1
4.27917E-1,7.04254E-1
5.38970E-1,6.74377E-1
5.71502E-1,5.53802E-1
5.57251E-1,5.48614E-1
6.47308E-1,5.29907E-1
6.92596E-1,4.59533E-1
7.74169E-1,4.09606E-1
8.07006E-1,2.56164E-1
7.43713E-1,2.09350E-1
7.87139E-1,2.00134E-1
8.18939E-1,1.32507E-1
8.81103E-1,0.77545E-1
9.0271E-1,-1.05499E-1
7.72705E-1,-1.74438E-1
7.74993E-1,-1.57348E-1
8.03375E-1,-2.28424E-1
8.21411E-1,-2.92999E-1
8.28582E-1,-4.63378E-1
6.51886E-1,-5.55328E-1
5.96557E-1,-4.99603E-1
6.08367E-1,-5.41442E-1
5.91247E-1,-5.88317E-1
5.99700E-1,-7.12921E-1
4.21630E-1,-8.39111E-1
3.10821E-1,-7.61261E-1
3.12255E-1,-7.73529E-1
2.57141E-1,-8.05847E-1
2.42645E-1,-8.67126E-1
0.81237E-1,-9.87884E-1
-0.98297E-1,-8.88793E-1
-1.03759E-1,-8.26416E-1
-1.55334E-1,-8.26293E-1
-1.70105E-1,-8.20190E-1
-2.64587E-1,-9.08111E-1
-4.65362E-1,-8.24432E-1
-4.75006E-1,-6.99585E-1
-5.02258E-1,-6.76971E-1
-5.23193E-1,-6.33758E-1
-5.67779E-1,-6.79962E-1
-7.54303E-1,-6.18957E-1
-7.71118E-1,-4.37622E-1
-7.47558E-1,-3.86108E-1
-7.53356E-1,-3.25073E-1
-7.45361E-1,-3.31939E-1
-8.82568E-1,-3.18145E-1
-9.35546E-1,-1.20666E-1
-8.61846E-1,-0.44036E-1
-8.59649E-1,0.06713E-1
-8.35510E-1,0.45684E-1
-9.05059E-1,0.66680E-1
-9.57061E-1,2.54272E-1
-8.36853E-1,3.70605E-1
-7.86773E-1,4.02893E-1
-7.32360E-1,4.55444E-1
-7.17010E-1,4.66125E-1
-7.35107E-1,5.73883E-1
-6.25122E-1,6.88354E-1
-5.31555E-1,7.04650E-1
-4.56817E-1,7.24121E-1
-4.25109E-1,7.11547E-1
-4.25689E-1,7.84057E-1
-3.06243E-1,8.69842E-1
-2.07885E-1,8.53210E-1
-1.30188E-1,8.67919E-1
-0.47515E-1,8.24859E-1
-0.50659E-1,8.18206E-1
0.09124E-1,8.90930E-1
1.29028E-1,8.86901E-1
2.03613E-1,8.65417E-1
2.89154E-1,8.20251E-1
3.06488E-1,7.77771E-1
3.56323E-1,8.08746E-1
4.74365E-1,7.95440E-1
5.64331E-1,7.36694E-1
6.45202E-1,6.47552E-1
6.3797E-1,5.56366E-1
6.51794E-1,5.63690E-1
7.54119E-1,5.26611E-1
8.14819E-1,4.28466E-1
8.57971E-1,3.36425E-1
8.47808E-1,2.24151E-1
8.24646E-1,2.07946E-1
8.90655E-1,1.64398E-1
9.11041E-1,0.56060E-1
9.18335E-1,-0.23193E-1
9.04724E-1,-1.52954E-1
8.23425E-1,-2.05993E-1
8.35723E-1,-2.22595E-1
8.48815E-1,-3.16436E-1
8.16192E-1,-4.06494E-1
7.59399E-1,-5.13122E-1
6.34857E-1,-5.53527E-1
6.05896E-1,-5.34881E-1
6.03576E-1,-5.97412E-1
5.51910E-1,-6.68884E-1
4.81536E-1,-7.41607E-1
3.49700E-1,-7.65747E-1
2.92114E-1,-7.11883E-1
2.90374E-1,-7.24426E-1
2.45727E-1,-7.71759E-1
1.77185E-1,-8.18786E-1
0.54473E-1,-8.36059E-1
-0.24169E-1,-7.63824E-1
-0.25939E-1,-7.41088E-1
-0.59631E-1,-7.58850E-1
-1.14776E-1,-7.81707E-1
-2.21557E-1,-7.92633E-1
-3.16284E-1,-7.02209E-1
-3.05419E-1,-6.40197E-1
-3.14788E-1,-6.46789E-1
-3.58367E-1,-6.5448E-1
-4.34173E-1,-6.54541E-1
-5.13610E-1,-5.89752E-1
-5.25512E-1,-5.22979E-1
-5.42968E-1,-5.02685E-1
-5.80474E-1,-4.77813E-1
-6.29058E-1,-4.60998E-1
-7.06817E-1,-4.04510E-1
-7.23510E-1,-3.10089E-1
-7.18536E-1,-2.63946E-1
-7.30712E-1,-2.22473E-1
-7.52410E-1,-1.90185E-1
-8.06243E-1,-1.34643E-1
-8.20343E-1,-0.37475E-1
-8.03497E-1,0.19439E-1
-8.02398E-1,0.68725E-1
-8.01269E-1,1.11633E-1
-8.31176E-1,1.70257E-1
-8.31665E-1,2.87109E-1
-7.65899E-1,3.65570E-1
-7.35656E-1,4.01367E-1
-7.12829E-1,4.45617E-1
-7.08221E-1,4.97375E-1
-6.84417E-1,5.94818E-1
-5.97900E-1,6.73736E-1
-5.28808E-1,7.06207E-1
-4.70672E-1,7.45147E-1
-4.22851E-1,7.7948E-1
-3.69201E-1,8.41735E-1
-2.66662E-1,8.82049E-1
-1.82495E-1,8.78112E-1
-1.14746E-1,8.78631E-1
-0.57495E-1,8.77014E-1
-0.00183E-1,9.02740E-1
0.95916E-1,9.17694E-1
1.83685E-1,8.91906E-1
2.55798E-1,8.63678E-1
3.10791E-1,8.24768E-1
3.58093E-1,8.12408E-1
4.42565E-1,7.98950E-1
5.23315E-1,7.43225E-1
5.77209E-1,6.82891E-1
6.17675E-1,6.24908E-1
6.46942E-1,5.88897E-1
7.04620E-1,5.52337E-1
7.62115E-1,4.85870E-1
7.95562E-1,4.10156E-1
8.18054E-1,3.43383E-1
8.36242E-1,2.83172E-1
8.62579E-1,2.23083E-1
8.86291E-1,1.53533E-1
8.96362E-1,0.77270E-1
8.97796E-1,0.06286E-1
8.97430E-1,-0.64453E-1
8.84948E-1,-1.40502E-1
8.67218E-1,-2.04803E-1
8.52417E-1,-2.72552E-1
8.29620E-1,-3.35662E-1
8.16864E-1,-3.96575E-1
7.90802E-1,-4.82513E-1
7.26409E-1,-5.50506E-1
6.78039E-1,-5.94848E-1
6.28082E-1,-6.44378E-1
5.95153E-1,-6.84936E-1
5.55145E-1,-7.67150E-1
4.49157E-1,-8.25744E-1
3.68896E-1,-8.26293E-1
3.08013E-1,-8.36822E-1
2.58148E-1,-8.40972E-1
END
BEGIN
-5.45623E-1,-1.11938E-1
-5.53558E-1,-0.51086E-1
-5.54901E-1,0.13793E-1
-5.50109E-1,0.67565E-1
-5.38574E-1,1.35437E-1
-5.10803E-1,1.94335E-1
-4.84939E-1,2.52533E-1
-4.55841E-1,3.00827E-1
-4.25323E-1,3.56369E-1
-3.79943E-1,4.02008E-1
-3.35098E-1,4.35745E-1
-2.82318E-1,4.65194E-1
-2.33978E-1,4.88861E-1
-1.71508E-1,5.22460E-1
-1.10382E-1,5.29724E-1
-0.52398E-1,5.36987E-1
0.07324E-1,5.34606E-1
0.61828E-1,5.28533E-1
1.19293E-1,5.25909E-1
1.77627E-1,4.95590E-1
2.23373E-1,4.67987E-1
2.67944E-1,4.34265E-1
3.08609E-1,3.99948E-1
3.52615E-1,3.56079E-1
3.85711E-1,3.05923E-1
4.16748E-1,2.63900E-1
4.40750E-1,2.07305E-1
4.60006E-1,1.56997E-1
4.73815E-1,0.90866E-1
4.79843E-1,0.40695E-1
4.8703E-1,-0.18158E-1
4.77691E-1,-0.76843E-1
4.64202E-1,-1.18087E-1
4.47387E-1,-1.63665E-1
4.30007E-1,-1.98867E-1
3.99932E-1,-2.53616E-1
3.60641E-1,-2.86178E-1
3.34259E-1,-3.14498E-1
3.08197E-1,-3.55575E-1
2.57171E-1,-3.85101E-1
2.13928E-1,-4.06265E-1
1.69540E-1,-4.21127E-1
1.19216E-1,-4.35714E-1
0.75927E-1,-4.49890E-1
0.15502E-1,-4.59365E-1
-0.23361E-1,-4.56161E-1
-0.72097E-1,-4.48654E-1
-1.16973E-1,-4.34845E-1
-1.60720E-1,-4.18533E-1
-2.15866E-1,-4.09027E-1
-2.64770E-1,-3.66226E-1
-2.95715E-1,-3.44223E-1
-3.32122E-1,-3.20480E-1
-3.65539E-1,-2.87170E-1
-3.92913E-1,-2.51495E-1
-4.15817E-1,-2.05963E-1
-4.32861E-1,-1.71188E-1
-4.50195E-1,-1.24832E-1
-4.61608E-1,-0.75164E-1
-4.61929E-1,-0.23178E-1
-4.70993E-1,0.23956E-1
-4.58374E-1,0.81253E-1
-4.45419E-1,1.24984E-1
-4.39361E-1,1.71737E-1
-4.20730E-1,2.28210E-1
-3.96698E-1,2.69485E-1
-3.68652E-1,3.09875E-1
-3.47335E-1,3.41278E-1
-3.08898E-1,3.73138E-1
-2.61535E-1,3.98651E-1
-2.09579E-1,4.11422E-1
-1.61819E-1,4.41497E-1
-0.99594E-1,4.54788E-1
-0.50445E-1,4.54544E-1
-0.04516E-1,4.63363E-1
0.51910E-1,4.62326E-1
1.10366E-1,4.53552E-1
1.61987E-1,4.31030E-1
2.04559E-1,4.21646E-1
2.49450E-1,4.06173E-1
2.97409E-1,3.76602E-1
3.27514E-1,3.29177E-1
3.52035E-1,2.89993E-1
3.83728E-1,2.48565E-1
4.06829E-1,2.02179E-1
4.32144E-1,1.56723E-1
4.49340E-1,1.03576E-1
4.59701E-1,0.58334E-1
4.55093E-1,0.09964E-1
4.55947E-1,-0.28961E-1
4.47784E-1,-0.74874E-1
4.35394E-1,-1.20971E-1
4.11773E-1,-1.62323E-1
3.93127E-1,-2.02301E-1
3.72283E-1,-2.39364E-1
3.42208E-1,-2.79968E-1
3.09127E-1,-3.09921E-1
2.74017E-1,-3.45367E-1
2.30133E-1,-3.82629E-1
1.91482E-1,-3.96331E-1
1.68808E-1,-4.19845E-1
1.41555E-1,-4.35455E-1
1.13494E-1,-4.53445E-1
0.71777E-1,-4.54193E-1
0.41412E-1,-4.48196E-1
0.09704E-1,-4.58343E-1
-0.33569E-1,-4.62295E-1
-0.73135E-1,-4.60311E-1
-1.15402E-1,-4.51538E-1
-1.49536E-1,-4.39041E-1
-1.83151E-1,-4.29184E-1
-2.22442E-1,-4.15100E-1
-2.54379E-1,-3.96560E-1
-2.90039E-1,-3.85604E-1
-3.21472E-1,-3.64028E-1
-3.46054E-1,-3.44528E-1
-3.71521E-1,-3.25073E-1
-3.96743E-1,-2.96005E-1
-4.20776E-1,-2.63168E-1
-4.38324E-1,-2.24456E-1
-4.61914E-1,-1.9104E-1
-4.84252E-1,-1.53961E-1
-5.03723E-1,-1.17431E-1
-5.15380E-1,-0.82519E-1
-5.26825E-1,-0.45623E-1
-5.34668E-1,-0.06164E-1
-5.36224E-1,0.39276E-1
-5.34149E-1,0.77117E-1
-5.34515E-1,1.13098E-1
-5.29327E-1,1.58050E-1
-5.11535E-1,1.92657E-1
-4.95880E-1,2.38143E-1
-4.68002E-1,2.80212E-1
-4.43634E-1,3.16619E-1
-4.21463E-1,3.50509E-1
-3.9711E-1,3.78753E-1
-3.80859E-1,4.07241E-1
-3.51898E-1,4.37027E-1
-3.23867E-1,4.53704E-1
-2.97637E-1,4.76333E-1
-2.62908E-1,4.99038E-1
-2.28454E-1,5.12146E-1
-1.90063E-1,5.30304E-1
-1.47522E-1,5.37506E-1
-1.08734E-1,5.49255E-1
-0.61279E-1,5.55419E-1
-0.15045E-1,5.55999E-1
0.34698E-1,5.62072E-1
0.94604E-1,5.57800E-1
1.44287E-1,5.47882E-1
1.86462E-1,5.33905E-1
2.25280E-1,5.24169E-1
2.61047E-1,5.06347E-1
3.02948E-1,4.79766E-1
3.39065E-1,4.43786E-1
3.75289E-1,4.03747E-1
4.08615E-1,3.67721E-1
4.44381E-1,3.27529E-1
4.73251E-1,2.83065E-1
4.95361E-1,2.30636E-1
5.07812E-1,1.77459E-1
5.14892E-1,1.30981E-1
5.30883E-1,0.87310E-1
5.36224E-1,0.45318E-1
5.42388E-1,0.03173E-1
5.28991E-1,-0.38909E-1
5.11474E-1,-0.78826E-1
4.93560E-1,-1.20452E-1
4.69070E-1,-1.66275E-1
4.43786E-1,-2.06405E-1
4.13803E-1,-2.52929E-1
3.73931E-1,-2.91671E-1
3.36242E-1,-3.17779E-1
3.03741E-1,-3.44574E-1
2.73925E-1,-3.69567E-1
2.35504E-1,-4.0242E-1
1.83639E-1,-4.14352E-1
1.42898E-1,-4.17572E-1
1.07605E-1,-4.22790E-1
0.70632E-1,-4.25476E-1
0.27893E-1,-4.32113E-1
-0.29861E-1,-4.21020E-1
-0.72982E-1,-3.99200E-1
-1.15509E-1,-3.85711E-1
-1.53808E-1,-3.70086E-1
-1.89300E-1,-3.63693E-1
-2.36007E-1,-3.46191E-1
-2.61489E-1,-3.14544E-1
-2.82806E-1,-2.91259E-1
-3.02688E-1,-2.58972E-1
-3.14209E-1,-2.32894E-1
-3.39584E-1,-2.07428E-1
-3.61816E-1,-1.59805E-1
-3.62823E-1,-1.17004E-1
-3.64212E-1,-0.78445E-1
-3.59985E-1,-0.43792E-1
-3.66043E-1,-0.05050E-1
-3.68713E-1,0.42205E-1
-3.55468E-1,0.84823E-1
-3.44726E-1,1.10199E-1
-3.31115E-1,1.31317E-1
END
