CITIFILE A.01.01
#NA VERSION HP8510C.08.10
NAME DATA
#NA REGISTER 4
VAR FREQ MAG 201
DATA S[1,1] RI
DATA S[2,1] RI
DATA S[1,2] RI
DATA S[2,2] RI
SEG_LIST_BEGIN
SEG 8000000000 12000000000 201
SEG_LIST_END
COMMENT       YEAR MONTH DAY HOUR MINUTE SECONDS
CONSTANT TIME 2013   12   09  21    41    03.0
BEGIN
-4.37759E-1,-2.59399E-1
-4.59625E-1,-2.14004E-1
-4.82193E-1,-1.58523E-1
-4.91973E-1,-1.09603E-1
-5.06408E-1,-0.55267E-1
-5.06805E-1,-0.00915E-1
-5.03479E-1,0.49896E-1
-4.95376E-1,0.94650E-1
-4.89440E-1,1.51489E-1
-4.70230E-1,2.02819E-1
-4.49859E-1,2.47436E-1
-4.17678E-1,2.92144E-1
-3.89297E-1,3.26507E-1
-3.55407E-1,3.78494E-1
-3.10302E-1,4.10430E-1
-2.70645E-1,4.41833E-1
-2.16995E-1,4.67575E-1
-1.68930E-1,4.79736E-1
-1.19964E-1,5.02197E-1
-0.56701E-1,5.02533E-1
-0.07873E-1,5.02075E-1
0.44693E-1,4.96276E-1
0.87081E-1,4.82025E-1
1.31591E-1,4.66583E-1
1.72332E-1,4.43191E-1
2.07580E-1,4.28268E-1
2.48855E-1,4.05151E-1
2.83325E-1,3.79470E-1
3.17993E-1,3.45489E-1
3.40286E-1,3.19732E-1
3.73886E-1,2.88467E-1
4.02374E-1,2.42675E-1
4.20547E-1,2.02438E-1
4.36843E-1,1.54007E-1
4.44931E-1,1.18484E-1
4.56863E-1,0.62225E-1
4.47067E-1,0.17181E-1
4.41726E-1,-0.19836E-1
4.44473E-1,-0.62851E-1
4.22134E-1,-1.12991E-1
4.05853E-1,-1.49185E-1
3.86627E-1,-1.78787E-1
3.65463E-1,-2.14477E-1
3.46633E-1,-2.45315E-1
3.11416E-1,-2.86239E-1
2.84072E-1,-3.02047E-1
2.49404E-1,-3.25531E-1
2.17819E-1,-3.41888E-1
1.87545E-1,-3.54187E-1
1.58538E-1,-3.78524E-1
1.08795E-1,-3.78784E-1
0.87661E-1,-3.81805E-1
0.56976E-1,-3.91632E-1
0.21560E-1,-3.94470E-1
-0.13565E-1,-3.94500E-1
-0.53680E-1,-3.87924E-1
-0.78964E-1,-3.85864E-1
-1.16607E-1,-3.77899E-1
-1.47552E-1,-3.61190E-1
-1.71676E-1,-3.38851E-1
-1.98547E-1,-3.31710E-1
-2.26394E-1,-3.09417E-1
-2.48489E-1,-2.93075E-1
-2.70309E-1,-2.79525E-1
-2.93579E-1,-2.56759E-1
-3.09310E-1,-2.32452E-1
-3.30429E-1,-2.04101E-1
-3.52706E-1,-1.87103E-1
-3.71246E-1,-1.52435E-1
-3.77487E-1,-1.22085E-1
-3.75412E-1,-0.96054E-1
-3.89053E-1,-0.72357E-1
-3.97384E-1,-0.36377E-1
-3.97369E-1,-0.04699E-1
-3.99215E-1,0.17257E-1
-4.00360E-1,0.43655E-1
-3.99459E-1,0.75210E-1
-3.92181E-1,1.07894E-1
-3.96560E-1,1.44165E-1
-3.87359E-1,1.82891E-1
-3.74115E-1,2.18490E-1
-3.45535E-1,2.45849E-1
-3.25943E-1,2.71270E-1
-3.03985E-1,3.10134E-1
-2.70889E-1,3.38668E-1
-2.46048E-1,3.59695E-1
-2.12509E-1,3.78128E-1
-1.819E-1,3.90136E-1
-1.42059E-1,4.08142E-1
-0.97595E-1,4.28237E-1
-0.54122E-1,4.39819E-1
-0.10894E-1,4.45098E-1
0.29754E-1,4.31320E-1
0.70068E-1,4.24041E-1
1.16485E-1,4.11575E-1
1.63452E-1,3.92349E-1
1.96304E-1,3.71444E-1
2.24273E-1,3.51562E-1
2.56256E-1,3.28582E-1
2.85491E-1,2.94067E-1
3.21594E-1,2.62023E-1
3.54766E-1,2.22366E-1
3.85345E-1,1.82159E-1
3.98468E-1,1.28738E-1
4.01184E-1,0.78216E-1
4.04678E-1,0.23391E-1
4.00817E-1,-0.33599E-1
3.90502E-1,-0.83374E-1
3.72222E-1,-1.22909E-1
3.54110E-1,-1.60644E-1
3.25744E-1,-2.02377E-1
2.94113E-1,-2.42095E-1
2.62359E-1,-2.73635E-1
2.41272E-1,-3.06274E-1
2.04879E-1,-3.35098E-1
1.58889E-1,-3.56445E-1
1.04919E-1,-3.72146E-1
0.52932E-1,-3.83865E-1
0.12405E-1,-3.89633E-1
-0.17440E-1,-3.89770E-1
-0.51483E-1,-3.95111E-1
-1.00402E-1,-3.84323E-1
-1.49124E-1,-3.69827E-1
-1.86737E-1,-3.57101E-1
-2.21038E-1,-3.57055E-1
-2.59460E-1,-3.4935E-1
-3.01864E-1,-3.21624E-1
-3.39187E-1,-2.78366E-1
-3.70391E-1,-2.41302E-1
-4.04388E-1,-2.14462E-1
-4.24774E-1,-1.90139E-1
-4.47372E-1,-1.58142E-1
-4.58877E-1,-1.10504E-1
-4.67834E-1,-0.60302E-1
-4.84329E-1,-0.17318E-1
-5.0E-1,0.20629E-1
-5.10376E-1,0.57342E-1
-5.04821E-1,1.05926E-1
-4.84466E-1,1.54281E-1
-4.72854E-1,2.03643E-1
-4.63790E-1,2.53814E-1
-4.49295E-1,2.90176E-1
-4.26178E-1,3.21533E-1
-3.89953E-1,3.52005E-1
-3.49502E-1,3.89419E-1
-3.11431E-1,4.25384E-1
-2.8302E-1,4.49295E-1
-2.61444E-1,4.66415E-1
-2.28378E-1,4.75982E-1
-1.83517E-1,4.86267E-1
-1.38153E-1,4.95895E-1
-1.02905E-1,5.19531E-1
-0.72296E-1,5.36254E-1
-0.42663E-1,5.42114E-1
-0.0354E-1,5.38635E-1
0.47943E-1,5.28686E-1
0.95947E-1,5.29296E-1
1.48376E-1,5.34271E-1
1.89514E-1,5.26458E-1
2.19512E-1,5.11840E-1
2.60864E-1,4.83017E-1
3.00857E-1,4.54910E-1
3.57589E-1,4.33166E-1
4.10491E-1,4.01290E-1
4.41619E-1,3.64913E-1
4.65347E-1,3.22555E-1
4.88479E-1,2.63290E-1
5.46203E-1,1.98608E-1
5.38543E-1,1.32995E-1
5.38208E-1,0.76965E-1
5.29632E-1,0.34240E-1
5.12939E-1,-0.18829E-1
4.90097E-1,-0.69671E-1
4.80865E-1,-1.27349E-1
4.66613E-1,-1.80755E-1
4.47418E-1,-2.21832E-1
4.16915E-1,-2.56118E-1
3.67904E-1,-2.89962E-1
3.21807E-1,-3.28247E-1
2.74185E-1,-3.694E-1
2.31781E-1,-3.96560E-1
1.91116E-1,-4.05380E-1
1.46148E-1,-4.02084E-1
0.98220E-1,-3.95187E-1
0.47912E-1,-4.00466E-1
0.00412E-1,-4.11071E-1
-0.39077E-1,-4.13284E-1
-0.70495E-1,-4.00070E-1
-1.06445E-1,-3.75991E-1
-1.52008E-1,-3.48770E-1
-2.00729E-1,-3.26629E-1
-2.40890E-1,-3.05282E-1
-2.61871E-1,-2.77465E-1
-2.64572E-1,-2.43148E-1
-2.70324E-1,-2.02194E-1
-2.87353E-1,-1.64962E-1
-3.13293E-1,-1.31408E-1
-3.20938E-1,-1.16058E-1
-3.15307E-1,-1.03515E-1
-3.07449E-1,-0.87112E-1
-3.09173E-1,-0.49255E-1
END
BEGIN
-9.18548E-1,-0.34149E-1
-8.48388E-1,0.71807E-1
-8.61236E-1,1.07849E-1
-8.64593E-1,2.46917E-1
-8.07189E-1,3.25561E-1
-7.77343E-1,4.36798E-1
-6.47827E-1,5.04150E-1
-6.02996E-1,4.78057E-1
-6.07421E-1,5.38970E-1
-5.52398E-1,5.92346E-1
-5.27404E-1,6.59515E-1
-4.10919E-1,7.26440E-1
-3.57727E-1,6.90307E-1
-3.68072E-1,7.58941E-1
-2.55828E-1,8.32733E-1
-1.86096E-1,8.45733E-1
-0.69030E-1,8.90747E-1
0.27404E-1,8.27545E-1
0.30242E-1,8.26721E-1
1.18530E-1,8.76190E-1
2.00561E-1,8.62579E-1
3.01544E-1,8.94775E-1
4.47845E-1,8.21014E-1
4.78576E-1,7.53570E-1
5.74340E-1,7.42889E-1
6.56127E-1,6.41204E-1
7.07824E-1,5.97015E-1
8.09631E-1,4.74456E-1
7.64526E-1,3.38745E-1
7.51098E-1,3.237E-1
7.76672E-1,2.60894E-1
7.74963E-1,2.31933E-1
8.47320E-1,1.76178E-1
8.27301E-1,0.59051E-1
8.08929E-1,0.53405E-1
8.76617E-1,0.04486E-1
9.01275E-1,-0.84472E-1
9.59625E-1,-1.98120E-1
8.95538E-1,-3.92242E-1
7.74841E-1,-4.19860E-1
7.77954E-1,-4.65637E-1
7.09991E-1,-5.55664E-1
6.75720E-1,-5.89782E-1
6.14654E-1,-7.0224E-1
4.86694E-1,-7.04650E-1
4.86358E-1,-7.05505E-1
4.27887E-1,-7.94830E-1
3.56018E-1,-8.09936E-1
3.06457E-1,-8.99475E-1
1.22558E-1,-9.28375E-1
0.51696E-1,-8.50647E-1
0.05279E-1,-8.56018E-1
-0.62439E-1,-8.22143E-1
-0.81024E-1,-8.33007E-1
-1.86920E-1,-8.54461E-1
-2.50152E-1,-7.94647E-1
-2.83874E-1,-7.95776E-1
-3.59100E-1,-7.76092E-1
-3.95874E-1,-7.76519E-1
-5.33447E-1,-7.93884E-1
-6.43737E-1,-6.61163E-1
-6.51763E-1,-5.89721E-1
-7.04101E-1,-5.18585E-1
-6.84173E-1,-4.52362E-1
-7.28179E-1,-4.68566E-1
-8.17047E-1,-3.76190E-1
-8.01391E-1,-2.98980E-1
-8.44177E-1,-2.71789E-1
-8.78295E-1,-1.91314E-1
-9.22454E-1,-1.47369E-1
-9.96856E-1,-0.06958E-1
-9.36767E-1,1.34704E-1
-9.10583E-1,1.97845E-1
-8.61053E-1,3.05084E-1
-7.91931E-1,3.30474E-1
-7.92633E-1,3.79058E-1
-7.38555E-1,4.48211E-1
-7.18597E-1,4.68963E-1
-7.02087E-1,5.50201E-1
-6.39648E-1,5.88501E-1
-6.46911E-1,6.37451E-1
-5.94482E-1,7.51251E-1
-5.07904E-1,8.07952E-1
-4.19128E-1,8.83819E-1
-2.83203E-1,8.82629E-1
-2.52655E-1,8.63983E-1
-1.81640E-1,9.28161E-1
-0.71563E-1,9.08172E-1
-0.31616E-1,9.12506E-1
0.69030E-1,9.22637E-1
1.14807E-1,8.89617E-1
1.74621E-1,9.38964E-1
3.22326E-1,9.27887E-1
3.99566E-1,8.59497E-1
4.86267E-1,8.22387E-1
5.49133E-1,7.29370E-1
5.70434E-1,6.90307E-1
6.41876E-1,6.37634E-1
6.49566E-1,5.62652E-1
6.83319E-1,5.50354E-1
7.42492E-1,4.89135E-1
7.60742E-1,4.40673E-1
8.26568E-1,4.09179E-1
8.77777E-1,3.17108E-1
9.0802E-1,2.57232E-1
9.75189E-1,1.54174E-1
9.55566E-1,0.17272E-1
9.29107E-1,-0.47393E-1
9.24499E-1,-1.35162E-1
8.87847E-1,-2.07092E-1
8.77929E-1,-2.78198E-1
8.24768E-1,-3.68652E-1
7.72552E-1,-3.96331E-1
7.65197E-1,-4.48486E-1
7.27264E-1,-5.20385E-1
6.95434E-1,-5.79101E-1
6.3974E-1,-6.64764E-1
5.51513E-1,-7.07794E-1
4.95330E-1,-7.44384E-1
4.09149E-1,-7.88055E-1
3.36364E-1,-7.83935E-1
2.90344E-1,-8.11157E-1
2.03247E-1,-8.24951E-1
1.47918E-1,-8.16436E-1
0.84899E-1,-8.24737E-1
0.23468E-1,-8.05786E-1
-0.08300E-1,-8.12591E-1
-0.75286E-1,-8.32763E-1
-1.48040E-1,-8.28125E-1
-2.28851E-1,-8.20861E-1
-3.07037E-1,-7.67822E-1
-3.34930E-1,-7.34252E-1
-3.98071E-1,-7.26104E-1
-4.59289E-1,-6.78405E-1
-5.03295E-1,-6.46148E-1
-5.63018E-1,-5.92071E-1
-5.71502E-1,-5.34606E-1
-6.05651E-1,-5.26641E-1
-6.69860E-1,-4.79095E-1
-7.03216E-1,-4.23706E-1
-7.52502E-1,-3.70361E-1
-7.70263E-1,-2.85827E-1
-7.78045E-1,-2.39807E-1
-8.14178E-1,-1.69403E-1
-8.01361E-1,-0.90698E-1
-8.08776E-1,-0.44128E-1
-8.06610E-1,0.42633E-1
-7.66082E-1,0.83618E-1
-7.71972E-1,1.14776E-1
-7.67181E-1,1.71234E-1
-7.70752E-1,2.09686E-1
-7.84912E-1,2.91961E-1
-7.40325E-1,3.72985E-1
-7.12402E-1,4.14764E-1
-6.82189E-1,4.78057E-1
-6.45904E-1,5.20935E-1
-6.21826E-1,5.91705E-1
-5.39428E-1,6.57257E-1
-4.83703E-1,6.62200E-1
-4.49646E-1,7.04772E-1
-3.92883E-1,7.32116E-1
-3.61480E-1,7.68981E-1
-2.89550E-1,8.30688E-1
-2.03552E-1,8.41278E-1
-1.48620E-1,8.64013E-1
-0.60882E-1,8.82385E-1
0.03173E-1,8.72772E-1
0.80230E-1,8.91937E-1
1.72424E-1,8.68774E-1
2.28912E-1,8.39355E-1
2.97515E-1,8.14117E-1
3.40087E-1,7.74871E-1
3.85070E-1,7.71911E-1
4.66918E-1,7.49176E-1
5.23712E-1,7.01782E-1
5.81695E-1,6.65008E-1
6.30340E-1,6.07391E-1
6.67175E-1,5.68756E-1
7.29827E-1,5.23925E-1
7.72430E-1,4.50775E-1
8.02917E-1,3.92669E-1
8.39904E-1,3.26049E-1
8.60931E-1,2.58422E-1
8.87359E-1,1.93847E-1
9.05578E-1,1.14105E-1
9.06860E-1,0.41259E-1
9.11041E-1,-0.28076E-1
9.10644E-1,-1.04644E-1
8.96301E-1,-1.79321E-1
8.79852E-1,-2.47009E-1
8.57635E-1,-3.18359E-1
8.29711E-1,-3.76495E-1
8.19641E-1,-4.34387E-1
7.96875E-1,-5.30365E-1
7.36267E-1,-6.05712E-1
6.79504E-1,-6.69250E-1
6.05011E-1,-7.19665E-1
5.52154E-1,-7.46337E-1
5.08850E-1,-8.10119E-1
4.15588E-1,-8.60076E-1
3.36975E-1,-8.79089E-1
END
BEGIN
-8.33099E-1,-0.12573E-1
-8.65142E-1,0.59783E-1
-8.05328E-1,1.93054E-1
-7.55828E-1,1.81823E-1
-8.31939E-1,2.52563E-1
-7.78137E-1,3.89709E-1
-7.47619E-1,4.43603E-1
-6.87103E-1,5.69030E-1
-5.80322E-1,5.75622E-1
-6.09680E-1,6.03363E-1
-5.47637E-1,7.39959E-1
-4.43328E-1,7.79815E-1
-3.46893E-1,8.45397E-1
-2.10845E-1,8.21929E-1
-1.99371E-1,8.01544E-1
-1.27166E-1,8.83239E-1
-0.10437E-1,8.70636E-1
0.67108E-1,8.82629E-1
2.05596E-1,8.26538E-1
2.05047E-1,7.40264E-1
2.25067E-1,7.85644E-1
3.36853E-1,7.70599E-1
3.87023E-1,7.45544E-1
5.02197E-1,7.17895E-1
5.39367E-1,6.07849E-1
5.37780E-1,6.04583E-1
6.34368E-1,5.85144E-1
6.85699E-1,5.15564E-1
7.71850E-1,4.63531E-1
8.08197E-1,3.12927E-1
7.56042E-1,2.65716E-1
8.05206E-1,2.51159E-1
8.41552E-1,1.80145E-1
9.06341E-1,1.19293E-1
9.25872E-1,-0.61950E-1
8.07098E-1,-1.31286E-1
8.14880E-1,-1.21856E-1
8.43444E-1,-1.97326E-1
8.638E-1,-2.68066E-1
8.66912E-1,-4.40399E-1
6.97021E-1,-5.3125E-1
6.46728E-1,-4.85137E-1
6.57104E-1,-5.33752E-1
6.38946E-1,-5.86181E-1
6.40960E-1,-7.14386E-1
4.65667E-1,-8.36303E-1
3.59375E-1,-7.67120E-1
3.55896E-1,-7.85308E-1
2.99102E-1,-8.20556E-1
2.7948E-1,-8.84552E-1
1.15570E-1,-9.99755E-1
-0.55236E-1,-9.06524E-1
-0.65460E-1,-8.52600E-1
-1.20971E-1,-8.54431E-1
-1.41723E-1,-8.51593E-1
-2.40448E-1,-9.35180E-1
-4.32891E-1,-8.51928E-1
-4.46777E-1,-7.36572E-1
-4.79003E-1,-7.15850E-1
-5.04577E-1,-6.76055E-1
-5.56915E-1,-7.18292E-1
-7.36908E-1,-6.54296E-1
-7.55432E-1,-4.85748E-1
-7.40387E-1,-4.35791E-1
-7.52990E-1,-3.75732E-1
-7.53570E-1,-3.78356E-1
-8.88397E-1,-3.57421E-1
-9.37957E-1,-1.68548E-1
-8.75E-1,-0.94604E-1
-8.77990E-1,-0.42511E-1
-8.61084E-1,-0.00366E-1
-9.31793E-1,0.29083E-1
-9.78454E-1,2.11029E-1
-8.72131E-1,3.23059E-1
-8.30047E-1,3.63189E-1
-7.81341E-1,4.21722E-1
-7.68585E-1,4.43054E-1
-7.80487E-1,5.53405E-1
-6.77185E-1,6.65161E-1
-5.89569E-1,6.90094E-1
-5.18341E-1,7.16186E-1
-4.84771E-1,7.16064E-1
-4.76623E-1,7.91778E-1
-3.59802E-1,8.75518E-1
-2.64526E-1,8.67614E-1
-1.86065E-1,8.86535E-1
-1.03179E-1,8.55407E-1
-0.95245E-1,8.56475E-1
-0.26062E-1,9.25750E-1
0.91278E-1,9.23095E-1
1.69982E-1,9.05700E-1
2.57293E-1,8.64990E-1
2.82806E-1,8.28643E-1
3.42681E-1,8.55926E-1
4.61090E-1,8.38195E-1
5.52215E-1,7.81005E-1
6.32995E-1,6.95404E-1
6.37023E-1,6.10992E-1
6.62048E-1,6.09771E-1
7.59796E-1,5.65155E-1
8.16284E-1,4.69482E-1
8.63555E-1,3.82080E-1
8.60504E-1,2.73620E-1
8.46740E-1,2.52227E-1
9.14001E-1,2.02606E-1
9.35180E-1,0.94970E-1
9.45373E-1,0.13305E-1
9.34265E-1,-1.14318E-1
8.62884E-1,-1.71112E-1
8.76831E-1,-1.94854E-1
8.89129E-1,-2.93273E-1
8.58093E-1,-3.85925E-1
8.03833E-1,-4.93164E-1
6.86279E-1,-5.39856E-1
6.56524E-1,-5.30120E-1
6.51641E-1,-5.96649E-1
5.99853E-1,-6.72515E-1
5.29937E-1,-7.48077E-1
4.00360E-1,-7.79663E-1
3.39630E-1,-7.33429E-1
3.33282E-1,-7.50793E-1
2.85522E-1,-8.03405E-1
2.12890E-1,-8.55224E-1
0.82672E-1,-8.77624E-1
-0.03601E-1,-8.05908E-1
-0.11261E-1,-7.83752E-1
-0.51269E-1,-8.02368E-1
-1.12365E-1,-8.24859E-1
-2.26989E-1,-8.32244E-1
-3.23944E-1,-7.34497E-1
-3.13690E-1,-6.73339E-1
-3.29528E-1,-6.81610E-1
-3.83941E-1,-6.86492E-1
-4.70367E-1,-6.75140E-1
-5.47241E-1,-5.89172E-1
-5.44769E-1,-5.1651E-1
-5.57464E-1,-4.96734E-1
-5.91613E-1,-4.70550E-1
-6.39007E-1,-4.49066E-1
-7.08831E-1,-3.85467E-1
-7.12585E-1,-2.95318E-1
-7.04193E-1,-2.56286E-1
-7.14965E-1,-2.19604E-1
-7.36053E-1,-1.88629E-1
-7.83111E-1,-1.33178E-1
-7.89276E-1,-0.45745E-1
-7.75665E-1,-0.00610E-1
-7.79235E-1,0.42663E-1
-7.84576E-1,0.82092E-1
-8.17596E-1,1.39404E-1
-8.18481E-1,2.51403E-1
-7.59857E-1,3.21319E-1
-7.38616E-1,3.56781E-1
-7.24700E-1,4.03503E-1
-7.24609E-1,4.59106E-1
-7.04071E-1,5.58868E-1
-6.20544E-1,6.38793E-1
-5.56182E-1,6.73248E-1
-5.03112E-1,7.15789E-1
-4.58587E-1,7.54638E-1
-4.07074E-1,8.22296E-1
-3.03802E-1,8.65631E-1
-2.19604E-1,8.64440E-1
-1.5271E-1,8.67523E-1
-0.98602E-1,8.68927E-1
-0.42694E-1,8.99139E-1
0.53527E-1,9.18426E-1
1.44866E-1,8.94012E-1
2.14935E-1,8.70697E-1
2.68554E-1,8.34198E-1
3.15826E-1,8.28582E-1
4.02252E-1,8.20678E-1
4.86328E-1,7.67272E-1
5.43823E-1,7.08679E-1
5.84045E-1,6.52496E-1
6.14990E-1,6.21093E-1
6.76696E-1,5.89386E-1
7.39471E-1,5.24627E-1
7.75451E-1,4.49127E-1
7.99835E-1,3.82171E-1
8.19824E-1,3.25408E-1
8.52478E-1,2.68402E-1
8.81164E-1,1.97631E-1
8.95599E-1,1.20727E-1
9.00390E-1,0.48584E-1
9.01855E-1,-0.22979E-1
8.93341E-1,-0.99426E-1
8.76831E-1,-1.65832E-1
8.64654E-1,-2.33551E-1
8.44757E-1,-2.98370E-1
8.34503E-1,-3.59100E-1
8.11584E-1,-4.44763E-1
7.51678E-1,-5.15472E-1
7.05230E-1,-5.61615E-1
6.5802E-1,-6.12548E-1
6.27227E-1,-6.55059E-1
5.91003E-1,-7.41119E-1
4.85961E-1,-8.03680E-1
4.03991E-1,-8.07006E-1
3.44970E-1,-8.18206E-1
2.95471E-1,-8.23791E-1
END
BEGIN
-4.96933E-1,-1.67968E-1
-5.10742E-1,-1.12213E-1
-5.19439E-1,-0.53253E-1
-5.21484E-1,-0.02349E-1
-5.19195E-1,0.63171E-1
-4.99557E-1,1.21948E-1
-4.81140E-1,1.80069E-1
-4.57031E-1,2.28530E-1
-4.34677E-1,2.83599E-1
-3.97094E-1,3.32153E-1
-3.58367E-1,3.67385E-1
-3.11859E-1,3.99826E-1
-2.68356E-1,4.25033E-1
-2.14111E-1,4.59960E-1
-1.56356E-1,4.69848E-1
-1.04278E-1,4.78256E-1
-0.51483E-1,4.76150E-1
-0.09338E-1,4.70428E-1
0.30380E-1,4.7229E-1
0.77804E-1,4.58999E-1
1.17340E-1,4.47891E-1
1.60476E-1,4.31366E-1
2.01278E-1,4.12536E-1
2.48901E-1,3.83300E-1
2.88452E-1,3.46038E-1
3.23989E-1,3.14102E-1
3.56704E-1,2.67807E-1
3.82904E-1,2.26257E-1
4.09164E-1,1.68075E-1
4.23034E-1,1.22482E-1
4.41986E-1,0.70098E-1
4.45907E-1,0.13458E-1
4.4104E-1,-0.26031E-1
4.34356E-1,-0.71121E-1
4.24194E-1,-1.04126E-1
4.08538E-1,-1.59759E-1
3.77548E-1,-1.95785E-1
3.57421E-1,-2.24777E-1
3.42926E-1,-2.65396E-1
3.02642E-1,-3.02322E-1
2.66830E-1,-3.29284E-1
2.27035E-1,-3.49777E-1
1.83380E-1,-3.70376E-1
1.46301E-1,-3.90045E-1
0.93017E-1,-4.10476E-1
0.58120E-1,-4.14047E-1
0.13488E-1,-4.16900E-1
-0.29663E-1,-4.11392E-1
-0.71624E-1,-4.02618E-1
-1.23336E-1,-4.02313E-1
-1.77093E-1,-3.70285E-1
-2.08633E-1,-3.54919E-1
-2.45513E-1,-3.38684E-1
-2.80914E-1,-3.13720E-1
-3.11096E-1,-2.85965E-1
-3.38790E-1,-2.48123E-1
-3.59146E-1,-2.20596E-1
-3.82400E-1,-1.82296E-1
-3.99505E-1,-1.40365E-1
-4.07043E-1,-0.93444E-1
-4.20654E-1,-0.53665E-1
-4.18106E-1,0.00427E-1
-4.11514E-1,0.41290E-1
-4.13223E-1,0.83557E-1
-4.05670E-1,1.37344E-1
-3.90335E-1,1.78543E-1
-3.71749E-1,2.19116E-1
-3.59695E-1,2.49664E-1
-3.31115E-1,2.8302E-1
-2.93212E-1,3.11355E-1
-2.48062E-1,3.28506E-1
-2.11471E-1,3.58642E-1
-1.58432E-1,3.80310E-1
-1.12625E-1,3.86962E-1
-0.73349E-1,3.99490E-1
-0.24093E-1,4.05838E-1
0.29022E-1,4.05761E-1
0.78292E-1,3.92578E-1
1.17599E-1,3.91342E-1
1.58737E-1,3.84903E-1
2.04101E-1,3.67691E-1
2.35656E-1,3.30230E-1
2.59445E-1,2.99209E-1
2.91900E-1,2.68234E-1
3.17367E-1,2.30896E-1
3.46832E-1,1.95587E-1
3.70575E-1,1.51657E-1
3.85376E-1,1.13937E-1
3.88259E-1,0.71411E-1
3.95141E-1,0.36666E-1
3.95034E-1,-0.04165E-1
3.91464E-1,-0.46447E-1
3.74939E-1,-0.85983E-1
3.63494E-1,-1.21856E-1
3.50463E-1,-1.56707E-1
3.28979E-1,-1.95678E-1
3.02566E-1,-2.26882E-1
2.74581E-1,-2.63244E-1
2.38113E-1,-3.02002E-1
2.02880E-1,-3.17001E-1
1.90399E-1,-3.37249E-1
1.73690E-1,-3.59329E-1
1.5242E-1,-3.82537E-1
1.15005E-1,-3.89663E-1
0.88455E-1,-3.87252E-1
0.62942E-1,-4.00283E-1
0.25619E-1,-4.08737E-1
-0.09506E-1,-4.12231E-1
-0.48278E-1,-4.09668E-1
-0.79193E-1,-4.02267E-1
-1.09497E-1,-3.97918E-1
-1.47201E-1,-3.90579E-1
-1.77841E-1,-3.77441E-1
-2.10632E-1,-3.73825E-1
-2.42797E-1,-3.59344E-1
-2.66861E-1,-3.46511E-1
-2.90969E-1,-3.34457E-1
-3.15414E-1,-3.13354E-1
-3.40240E-1,-2.88147E-1
-3.60519E-1,-2.55279E-1
-3.85452E-1,-2.28958E-1
-4.10888E-1,-1.98883E-1
-4.34433E-1,-1.70394E-1
-4.50164E-1,-1.43341E-1
-4.66827E-1,-1.13372E-1
-4.81201E-1,-0.80139E-1
-4.91897E-1,-0.39825E-1
-4.96963E-1,-0.05340E-1
-5.05523E-1,0.24749E-1
-5.11779E-1,0.65399E-1
-5.02655E-1,0.97717E-1
-4.99420E-1,1.39297E-1
-4.85290E-1,1.81762E-1
-4.75692E-1,2.22839E-1
-4.66232E-1,2.65594E-1
-4.49661E-1,3.04962E-1
-4.37515E-1,3.42498E-1
-4.11743E-1,3.82019E-1
-3.84872E-1,4.05426E-1
-3.62472E-1,4.34326E-1
-3.29330E-1,4.65484E-1
-2.93808E-1,4.84863E-1
-2.55401E-1,5.08697E-1
-2.10601E-1,5.20446E-1
-1.69311E-1,5.34515E-1
-1.20544E-1,5.43548E-1
-0.73455E-1,5.45410E-1
-0.25085E-1,5.52276E-1
0.31829E-1,5.50293E-1
0.78552E-1,5.42236E-1
1.17889E-1,5.32867E-1
1.54815E-1,5.28350E-1
1.87255E-1,5.16235E-1
2.25250E-1,4.98611E-1
2.60269E-1,4.71466E-1
2.96844E-1,4.42428E-1
3.34167E-1,4.16244E-1
3.73489E-1,3.84307E-1
4.08096E-1,3.48831E-1
4.37469E-1,3.04122E-1
4.57962E-1,2.57965E-1
4.75006E-1,2.1521E-1
5.00610E-1,1.73767E-1
5.15075E-1,1.35620E-1
5.29724E-1,0.98083E-1
5.26733E-1,0.57525E-1
5.18737E-1,0.19592E-1
5.11352E-1,-0.22918E-1
4.96734E-1,-0.70175E-1
4.80865E-1,-1.12335E-1
4.60601E-1,-1.61285E-1
4.30892E-1,-2.04666E-1
4.00161E-1,-2.38311E-1
3.73092E-1,-2.72216E-1
3.49044E-1,-3.03390E-1
3.18832E-1,-3.42681E-1
2.73849E-1,-3.65005E-1
2.37503E-1,-3.77609E-1
2.05154E-1,-3.92044E-1
1.69952E-1,-4.02618E-1
1.32339E-1,-4.18090E-1
0.75988E-1,-4.20852E-1
0.30929E-1,-4.10369E-1
-0.13809E-1,-4.07348E-1
-0.56823E-1,-3.99444E-1
-0.94848E-1,-4.00711E-1
-1.45355E-1,-3.95278E-1
-1.78772E-1,-3.71322E-1
-2.05047E-1,-3.55484E-1
-2.32284E-1,-3.30184E-1
-2.48474E-1,-3.08441E-1
-2.7771E-1,-2.91458E-1
-3.09707E-1,-2.53234E-1
-3.21762E-1,-2.13928E-1
-3.32000E-1,-1.77963E-1
-3.33938E-1,-1.43692E-1
-3.48709E-1,-1.09603E-1
-3.6409E-1,-0.64331E-1
-3.63815E-1,-0.17349E-1
-3.61602E-1,0.10192E-1
-3.55331E-1,0.33645E-1
END
