CITIFILE A.01.01
#NA VERSION HP8510C.08.10
NAME DATA
#NA REGISTER 1
VAR FREQ MAG 201
DATA S[1,1] RI
DATA S[2,1] RI
DATA S[1,2] RI
DATA S[2,2] RI
SEG_LIST_BEGIN
SEG 8000000000 12000000000 201
SEG_LIST_END
COMMENT       YEAR MONTH DAY HOUR MINUTE SECONDS
CONSTANT TIME 2013   09   26  18    26    54.0
BEGIN
-8.31298E-2,0.20065E-2
-7.98149E-2,1.56478E-2
-7.49893E-2,3.27301E-2
-6.97593E-2,4.70542E-2
-6.45675E-2,6.01196E-2
-5.2948E-2,6.75392E-2
-4.12330E-2,7.21321E-2
-2.60582E-2,7.47909E-2
-1.69143E-2,7.72590E-2
-0.69656E-2,8.15620E-2
0.31013E-2,8.06541E-2
1.35269E-2,7.94525E-2
2.53601E-2,7.40203E-2
3.50036E-2,6.99691E-2
4.28009E-2,6.62574E-2
4.98542E-2,6.32934E-2
5.59101E-2,5.79261E-2
6.37207E-2,4.86717E-2
6.85463E-2,3.85055E-2
7.49015E-2,2.77938E-2
7.96508E-2,2.17247E-2
8.36792E-2,1.49574E-2
8.62655E-2,0.67863E-2
8.73909E-2,-0.92659E-2
8.10318E-2,-2.81257E-2
7.49206E-2,-3.87153E-2
7.03697E-2,-4.91180E-2
6.29692E-2,-5.42106E-2
5.42640E-2,-6.13040E-2
3.71856E-2,-6.55937E-2
2.27317E-2,-6.79931E-2
1.16195E-2,-6.92787E-2
0.53825E-2,-6.64978E-2
0.57258E-2,-6.39267E-2
0.30422E-2,-6.18362E-2
-0.67234E-2,-6.19125E-2
-1.68266E-2,-5.80329E-2
-2.26039E-2,-5.63182E-2
-2.16426E-2,-5.85479E-2
-2.59857E-2,-6.43615E-2
-3.63483E-2,-6.19220E-2
-4.48970E-2,-5.10826E-2
-5.24444E-2,-4.33712E-2
-5.49716E-2,-3.69510E-2
-5.60569E-2,-3.88355E-2
-6.09359E-2,-3.61194E-2
-6.45370E-2,-2.52990E-2
-6.82869E-2,-1.52092E-2
-7.31086E-2,-0.37918E-2
-7.26509E-2,-0.02098E-2
-7.62291E-2,0.32730E-2
-7.16323E-2,1.42288E-2
-6.26411E-2,2.54135E-2
-5.77755E-2,4.06723E-2
-5.19561E-2,4.88586E-2
-5.11283E-2,4.64744E-2
-5.02395E-2,4.32872E-2
-4.24289E-2,4.47425E-2
-3.39622E-2,5.63716E-2
-2.01988E-2,7.22923E-2
-1.81846E-2,7.54623E-2
-1.81503E-2,7.95517E-2
-0.74386E-2,7.54623E-2
0.77972E-2,6.88400E-2
3.07464E-2,7.40242E-2
4.99877E-2,7.33642E-2
5.37490E-2,7.28340E-2
5.20591E-2,6.98242E-2
5.68695E-2,5.88951E-2
7.25784E-2,5.01136E-2
9.62677E-2,3.93829E-2
1.11457E-1,4.00772E-2
1.25740E-1,0.38040E-1
1.32537E-1,0.20149E-1
1.35818E-1,-0.04730E-1
1.50093E-1,-0.33004E-1
1.63322E-1,-0.60646E-1
1.63444E-1,-0.83366E-1
1.55700E-1,-0.99250E-1
1.35994E-1,-1.20986E-1
1.27464E-1,-1.44516E-1
1.18934E-1,-1.78718E-1
1.10076E-1,-1.93626E-1
1.02562E-1,-2.06161E-1
0.71632E-1,-2.17796E-1
0.43792E-1,-2.28370E-1
0.19516E-1,-2.57797E-1
-0.04089E-1,-2.75604E-1
-0.24887E-1,-2.85553E-1
-0.52764E-1,-2.8302E-1
-0.91659E-1,-2.68051E-1
-1.24252E-1,-2.65747E-1
-1.67099E-1,-2.66952E-1
-1.83776E-1,-2.64373E-1
-1.96456E-1,-2.60025E-1
-2.24090E-1,-2.40745E-1
-2.53341E-1,-2.08663E-1
-2.92053E-1,-1.87515E-1
-3.24447E-1,-1.75216E-1
-3.47152E-1,-1.53595E-1
-3.57971E-1,-1.26907E-1
-3.61511E-1,-0.75439E-1
-3.66119E-1,-0.34606E-1
-3.83972E-1,0.14114E-1
-3.81149E-1,0.41976E-1
-3.80218E-1,0.52627E-1
-3.68072E-1,0.81314E-1
-3.47702E-1,1.18072E-1
-3.34228E-1,1.61193E-1
-3.22280E-1,1.92337E-1
-3.19549E-1,2.08389E-1
-3.10348E-1,2.27905E-1
-2.72064E-1,2.54180E-1
-2.32482E-1,2.71560E-1
-1.97540E-1,3.00094E-1
-1.74102E-1,3.13064E-1
-1.62185E-1,3.17688E-1
-1.36978E-1,3.19229E-1
-0.97351E-1,3.14956E-1
-0.52932E-1,3.13308E-1
-0.26458E-1,3.13812E-1
-0.13687E-1,3.21563E-1
0.00610E-1,3.21121E-1
0.31753E-1,2.99026E-1
0.65490E-1,2.69714E-1
1.00555E-1,2.50900E-1
1.23840E-1,2.45101E-1
1.31523E-1,2.40417E-1
1.26998E-1,2.18177E-1
1.27868E-1,1.82830E-1
1.40106E-1,1.38603E-1
1.54922E-1,1.17042E-1
1.71379E-1,1.15394E-1
1.70280E-1,1.16752E-1
1.48796E-1,1.04080E-1
1.31904E-1,0.71403E-1
1.21124E-1,3.05213E-2
1.29234E-1,0.09666E-1
1.40579E-1,0.06752E-1
1.2883E-1,0.18577E-1
1.03923E-1,2.86293E-2
6.92062E-2,1.58424E-2
5.09891E-2,0.31738E-2
6.31752E-2,-1.04789E-2
7.62443E-2,-0.92620E-2
8.28285E-2,0.85334E-2
7.12089E-2,1.33514E-2
4.66709E-2,0.79135E-2
3.97090E-2,-1.08947E-2
4.04129E-2,-3.12042E-2
4.69932E-2,-2.33039E-2
5.13629E-2,-1.08585E-2
2.91547E-2,0.06218E-2
1.05371E-2,5.45549E-3
1.62553E-3,-9.12761E-3
1.04098E-2,-1.34811E-2
3.12938E-2,-1.37138E-2
2.96831E-2,-0.48914E-2
1.58433E-2,1.32236E-2
-0.05722E-3,1.04718E-2
-1.22485E-2,3.77702E-3
5.04493E-3,-2.89750E-3
1.84183E-2,-0.24480E-2
2.31514E-2,2.52437E-2
2.59017E-2,4.34970E-2
1.40152E-2,4.27799E-2
2.27718E-2,2.97746E-2
4.47692E-2,-0.23555E-2
6.50711E-2,-1.39503E-2
8.28170E-2,-1.18789E-2
6.74400E-2,-1.00593E-2
4.74147E-2,-0.70858E-2
3.76472E-2,-4.06303E-2
2.79007E-2,-7.24754E-2
4.34799E-2,-8.18977E-2
5.03959E-2,-8.12873E-2
4.09603E-2,-5.45997E-2
2.99396E-2,-5.80768E-2
-0.82054E-2,-8.67996E-2
-2.52075E-2,-1.08730E-1
-0.23338E-1,-1.32980E-1
-2.58750E-2,-1.13849E-1
-1.77650E-2,-9.01794E-2
-5.42602E-2,-8.56933E-2
-9.90142E-2,-7.43904E-2
-1.12468E-1,-8.86230E-2
-1.17622E-1,-9.48982E-2
-8.67385E-2,-7.78083E-2
-8.18367E-2,-7.03392E-2
-1.16630E-1,-4.12254E-2
-1.43287E-1,-0.32440E-1
-1.74987E-1,-0.41687E-1
-1.61949E-1,-0.32890E-1
-1.39419E-1,-0.36758E-1
-1.52320E-1,-0.02578E-1
-1.63978E-1,0.45387E-1
-1.92924E-1,0.57022E-1
-1.98570E-1,0.67741E-1
-1.62727E-1,0.45768E-1
-1.46385E-1,0.48324E-1
-1.31759E-1,0.97366E-1
END
BEGIN
-8.21350E-1,-5.61187E-1
-8.76647E-1,-4.84191E-1
-9.14093E-1,-3.90014E-1
-9.48486E-1,-3.07159E-1
-9.75708E-1,-2.15972E-1
-9.91943E-1,-1.28051E-1
-1.01385E0,-0.33325E-1
-1.01226E0,0.79650E-1
-9.91546E-1,1.74896E-1
-9.71069E-1,2.69104E-1
-9.36279E-1,3.54888E-1
-9.09454E-1,4.36889E-1
-8.62731E-1,5.37170E-1
-7.92724E-1,6.09130E-1
-7.37518E-1,6.71081E-1
-6.69586E-1,7.38067E-1
-6.04400E-1,7.89398E-1
-5.35736E-1,8.55529E-1
-4.37835E-1,9.02252E-1
-3.54187E-1,9.26147E-1
-2.68920E-1,9.54772E-1
-1.84173E-1,9.62738E-1
-1.08917E-1,9.82605E-1
-0.07629E-1,9.94903E-1
0.78399E-1,9.79278E-1
1.59668E-1,9.74823E-1
2.49939E-1,9.52056E-1
3.20312E-1,9.30297E-1
4.09362E-1,9.18243E-1
5.03906E-1,8.69537E-1
5.77636E-1,8.18054E-1
6.53839E-1,7.58667E-1
7.12188E-1,6.90246E-1
7.71850E-1,6.29882E-1
8.30139E-1,5.51513E-1
8.67034E-1,4.70306E-1
9.01580E-1,3.91784E-1
9.23400E-1,3.11645E-1
9.45465E-1,2.42919E-1
9.73388E-1,1.55120E-1
9.77050E-1,0.65918E-1
9.81750E-1,-0.14984E-1
9.75311E-1,-1.06018E-1
9.59594E-1,-1.82128E-1
9.52484E-1,-2.66357E-1
9.17236E-1,-3.57299E-1
8.80523E-1,-4.28131E-1
8.40789E-1,-5.06622E-1
7.85095E-1,-5.69274E-1
7.47924E-1,-6.24176E-1
6.98852E-1,-6.99279E-1
6.32843E-1,-7.58728E-1
5.67932E-1,-8.16925E-1
4.84863E-1,-8.67828E-1
4.09759E-1,-8.97064E-1
3.37005E-1,-9.36096E-1
2.47100E-1,-9.61608E-1
1.65374E-1,-9.77417E-1
0.70037E-1,-9.87426E-1
-0.09033E-1,-9.73388E-1
-0.73608E-1,-9.74121E-1
-1.60247E-1,-9.74914E-1
-2.37793E-1,-9.59655E-1
-3.27117E-1,-9.49859E-1
-4.26147E-1,-9.07806E-1
-4.89074E-1,-8.58093E-1
-5.63842E-1,-8.27209E-1
-6.41876E-1,-7.67181E-1
-7.02087E-1,-7.08099E-1
-7.68798E-1,-6.33148E-1
-7.98461E-1,-5.48767E-1
-8.28735E-1,-4.96337E-1
-8.73748E-1,-4.25903E-1
-8.95141E-1,-3.60504E-1
-9.36035E-1,-2.96905E-1
-9.61456E-1,-2.03857E-1
-9.66766E-1,-1.34307E-1
-9.99359E-1,-0.54565E-1
-9.95391E-1,0.47515E-1
-9.89502E-1,1.19415E-1
-9.95086E-1,2.24609E-1
-9.46533E-1,3.27911E-1
-9.06311E-1,4.02099E-1
-8.46649E-1,4.82727E-1
-7.92755E-1,5.12603E-1
-7.81768E-1,5.78186E-1
-7.08129E-1,6.62262E-1
-6.46453E-1,6.84997E-1
-6.09893E-1,7.49267E-1
-5.30517E-1,7.95501E-1
-4.90631E-1,8.34075E-1
-4.05029E-1,9.18579E-1
-2.77069E-1,9.2276E-1
-2.14874E-1,9.13238E-1
-1.30645E-1,9.1745E-1
-0.7724E-1,8.95416E-1
-0.23376E-1,9.16626E-1
0.62866E-1,8.98712E-1
0.90148E-1,8.83148E-1
1.55761E-1,9.14062E-1
2.41058E-1,9.00665E-1
3.05572E-1,9.00085E-1
4.12628E-1,8.91082E-1
4.94537E-1,8.30627E-1
5.68817E-1,7.94738E-1
6.59637E-1,7.06634E-1
6.71844E-1,6.23138E-1
7.09137E-1,5.82611E-1
7.47528E-1,5.15716E-1
7.69073E-1,4.67346E-1
8.05267E-1,4.02832E-1
8.08776E-1,3.44696E-1
8.46496E-1,3.15979E-1
8.97552E-1,2.40600E-1
9.16046E-1,1.60278E-1
9.32128E-1,0.76538E-1
9.14367E-1,-0.07446E-1
9.06951E-1,-0.58624E-1
9.02740E-1,-1.36749E-1
8.77044E-1,-1.94244E-1
8.77288E-1,-2.49939E-1
8.60931E-1,-3.25225E-1
8.39263E-1,-3.77349E-1
8.25225E-1,-4.51141E-1
7.84515E-1,-5.20172E-1
7.59094E-1,-5.83557E-1
7.15393E-1,-6.66839E-1
6.50756E-1,-7.33673E-1
5.83007E-1,-7.87170E-1
5.05767E-1,-8.21533E-1
4.55078E-1,-8.51440E-1
3.85589E-1,-9.08569E-1
2.98004E-1,-9.37347E-1
2.26959E-1,-9.62249E-1
1.38061E-1,-9.80835E-1
0.65795E-1,-9.80346E-1
-0.13427E-1,-1.00128E0
-1.16729E-1,-9.91851E-1
-1.96777E-1,-9.67254E-1
-2.76397E-1,-9.45129E-1
-3.45581E-1,-9.10827E-1
-4.05395E-1,-8.89587E-1
-4.84130E-1,-8.54858E-1
-5.49041E-1,-8.08166E-1
-6.14318E-1,-7.67852E-1
-6.76971E-1,-7.09137E-1
-7.25006E-1,-6.58203E-1
-7.89825E-1,-6.05041E-1
-8.33709E-1,-5.27648E-1
-8.72833E-1,-4.52728E-1
-8.97430E-1,-3.7323E-1
-9.14917E-1,-3.08868E-1
-9.39025E-1,-2.41607E-1
-9.55749E-1,-1.66626E-1
-9.66186E-1,-0.90484E-1
-9.65789E-1,-0.11230E-1
-9.63592E-1,0.60211E-1
-9.60968E-1,1.38153E-1
-9.44274E-1,2.14904E-1
-9.25659E-1,2.84027E-1
-8.99963E-1,3.55346E-1
-8.71093E-1,4.1745E-1
-8.51196E-1,4.94934E-1
-8.03558E-1,5.67230E-1
-7.67211E-1,6.29241E-1
-7.09167E-1,7.02758E-1
-6.48864E-1,7.47467E-1
-5.98419E-1,8.07922E-1
-5.13031E-1,8.57818E-1
-4.41070E-1,8.90716E-1
-3.57238E-1,9.22729E-1
-2.85980E-1,9.25354E-1
-2.35046E-1,9.45678E-1
-1.56097E-1,9.79675E-1
-0.73974E-1,9.88342E-1
0.14312E-1,9.99481E-1
1.04278E-1,9.76348E-1
1.58355E-1,9.63775E-1
2.43438E-1,9.75372E-1
3.35601E-1,9.36309E-1
4.08477E-1,9.04449E-1
4.85748E-1,8.51257E-1
5.22827E-1,8.03649E-1
5.79223E-1,7.80212E-1
6.48895E-1,7.35900E-1
7.02972E-1,6.85546E-1
7.68676E-1,6.25701E-1
8.06213E-1,5.4776E-1
8.44726E-1,4.93438E-1
8.93768E-1,4.22576E-1
9.16900E-1,3.43414E-1
9.41070E-1,2.72979E-1
9.49615E-1,1.89849E-1
9.56054E-1,1.27105E-1
9.67712E-1,0.49713E-1
9.64263E-1,-0.29083E-1
9.62554E-1,-0.99914E-1
9.52880E-1,-1.73858E-1
9.35913E-1,-2.36877E-1
9.26178E-1,-3.13751E-1
8.95752E-1,-3.94958E-1
END
BEGIN
-8.34228E-1,-5.47699E-1
-8.84643E-1,-4.74365E-1
-9.15832E-1,-3.76373E-1
-9.43603E-1,-3.06732E-1
-9.88739E-1,-2.10998E-1
-9.97283E-1,-1.07757E-1
-1.00683E0,-0.16845E-1
-9.97985E-1,0.88592E-1
-9.81292E-1,1.65863E-1
-9.80163E-1,2.59796E-1
-9.43176E-1,3.64807E-1
-9.00116E-1,4.46807E-1
-8.47534E-1,5.32135E-1
-7.89367E-1,5.93170E-1
-7.47985E-1,6.65954E-1
-6.75689E-1,7.43469E-1
-5.99334E-1,7.94982E-1
-5.21301E-1,8.49762E-1
-4.34021E-1,8.76586E-1
-3.76342E-1,9.08081E-1
-2.89886E-1,9.59960E-1
-1.92474E-1,9.76532E-1
-1.06597E-1,9.95208E-1
-0.05981E-1,9.93347E-1
0.64788E-1,9.80865E-1
1.52404E-1,9.93347E-1
2.55920E-1,9.70794E-1
3.40911E-1,9.43603E-1
4.33258E-1,9.00085E-1
4.96765E-1,8.49182E-1
5.68298E-1,8.20526E-1
6.53625E-1,7.64038E-1
7.19512E-1,6.99127E-1
7.84393E-1,6.25E-1
8.22601E-1,5.44647E-1
8.59405E-1,4.87152E-1
9.14093E-1,4.11682E-1
9.48150E-1,3.21533E-1
9.75738E-1,2.30255E-1
9.80926E-1,1.32110E-1
9.76318E-1,0.62622E-1
9.94903E-1,-0.13061E-1
9.95513E-1,-1.08978E-1
9.82910E-1,-2.01385E-1
9.52301E-1,-2.97943E-1
9.09027E-1,-3.69598E-1
8.86413E-1,-4.35516E-1
8.50738E-1,-5.19531E-1
8.02490E-1,-5.94329E-1
7.42095E-1,-6.69433E-1
6.66839E-1,-7.20855E-1
6.13220E-1,-7.62176E-1
5.53558E-1,-8.23516E-1
4.80712E-1,-8.71582E-1
4.00329E-1,-9.17480E-1
3.07678E-1,-9.42352E-1
2.33856E-1,-9.53857E-1
1.58386E-1,-9.76867E-1
0.71807E-1,-9.92187E-1
-0.15197E-1,-1.00195E0
-1.15844E-1,-9.94293E-1
-1.92413E-1,-9.63501E-1
-2.61322E-1,-9.52880E-1
-3.47808E-1,-9.32525E-1
-4.31549E-1,-9.07226E-1
-5.25817E-1,-8.62945E-1
-5.88409E-1,-7.91656E-1
-6.35559E-1,-7.51068E-1
-7.07489E-1,-7.03918E-1
-7.70782E-1,-6.37664E-1
-8.36944E-1,-5.64697E-1
-8.73718E-1,-4.62005E-1
-8.76709E-1,-3.98864E-1
-9.19982E-1,-3.46466E-1
-9.56848E-1,-2.60376E-1
-9.85595E-1,-1.77642E-1
-9.9823E-1,-0.60302E-1
-9.56268E-1,0.17059E-1
-9.65759E-1,0.59661E-1
-9.78088E-1,1.45904E-1
-9.75189E-1,2.33947E-1
-9.48242E-1,3.54980E-1
-8.61389E-1,4.25811E-1
-8.38104E-1,4.52758E-1
-8.18267E-1,5.37475E-1
-7.71240E-1,5.98602E-1
-7.44079E-1,6.93908E-1
-6.21215E-1,7.87567E-1
-5.21545E-1,7.72338E-1
-4.90356E-1,7.98584E-1
-4.25506E-1,8.37097E-1
-3.78906E-1,8.82995E-1
-2.65136E-1,9.45251E-1
-1.49566E-1,9.07409E-1
-1.14502E-1,8.83453E-1
-0.62835E-1,8.88427E-1
-0.24200E-1,9.05548E-1
0.78247E-1,9.61151E-1
2.17041E-1,8.95935E-1
2.34497E-1,8.27789E-1
2.71789E-1,8.27209E-1
3.18115E-1,8.13781E-1
3.85620E-1,8.35235E-1
5.10955E-1,7.83081E-1
5.39001E-1,6.95282E-1
5.72143E-1,6.73156E-1
6.17248E-1,6.21398E-1
6.43859E-1,6.08917E-1
7.48168E-1,5.79589E-1
7.97943E-1,4.60388E-1
7.91595E-1,3.98559E-1
8.11279E-1,3.47991E-1
8.24615E-1,3.13476E-1
8.97125E-1,2.79968E-1
9.53064E-1,1.54876E-1
9.26361E-1,0.63629E-1
9.20898E-1,0.05523E-1
9.08691E-1,-0.49224E-1
9.37011E-1,-0.90148E-1
9.71191E-1,-2.08648E-1
9.22515E-1,-3.26751E-1
8.70788E-1,-3.90167E-1
8.2547E-1,-4.40155E-1
8.06854E-1,-4.72534E-1
8.08349E-1,-5.56671E-1
7.42950E-1,-6.61743E-1
6.59698E-1,-7.14843E-1
5.91064E-1,-7.52258E-1
5.43884E-1,-7.71728E-1
5.22125E-1,-8.27636E-1
4.40002E-1,-9.12200E-1
3.29162E-1,-9.44061E-1
2.38464E-1,-9.48913E-1
1.70806E-1,-9.49401E-1
1.16821E-1,-9.67437E-1
0.33905E-1,-9.98382E-1
-0.65368E-1,-9.93469E-1
-1.53686E-1,-9.73754E-1
-2.30377E-1,-9.42199E-1
-2.92114E-1,-9.23065E-1
-3.64410E-1,-9.14001E-1
-4.48089E-1,-8.81256E-1
-5.19683E-1,-8.37188E-1
-5.89141E-1,-7.82226E-1
-6.42334E-1,-7.27569E-1
-6.98059E-1,-6.77642E-1
-7.54425E-1,-6.21917E-1
-8.01818E-1,-5.57006E-1
-8.41369E-1,-4.87884E-1
-8.65692E-1,-4.17388E-1
-8.98986E-1,-3.51318E-1
-9.23950E-1,-2.78869E-1
-9.44946E-1,-2.06176E-1
-9.58313E-1,-1.33209E-1
-9.61303E-1,-0.56762E-1
-9.65026E-1,0.16204E-1
-9.59655E-1,0.99304E-1
-9.49585E-1,1.74438E-1
-9.34814E-1,2.49267E-1
-9.14062E-1,3.19610E-1
-8.91265E-1,3.88977E-1
-8.56140E-1,4.66003E-1
-8.10852E-1,5.34301E-1
-7.63244E-1,5.98815E-1
-7.17895E-1,6.55792E-1
-6.68029E-1,7.13439E-1
-6.13067E-1,7.66143E-1
-5.45654E-1,8.11859E-1
-4.71893E-1,8.49823E-1
-3.99078E-1,8.72009E-1
-3.44970E-1,9.04693E-1
-2.74475E-1,9.41680E-1
-1.89758E-1,9.62341E-1
-1.11572E-1,9.68139E-1
-0.31463E-1,9.63653E-1
0.27740E-1,9.59747E-1
1.08215E-1,9.72991E-1
1.96044E-1,9.65362E-1
2.72247E-1,9.43573E-1
3.46466E-1,9.12414E-1
4.01458E-1,8.75457E-1
4.70153E-1,8.58093E-1
5.48980E-1,8.18176E-1
6.15020E-1,7.69622E-1
6.76696E-1,7.19146E-1
7.25524E-1,6.57989E-1
7.69226E-1,6.10107E-1
8.27362E-1,5.44128E-1
8.67584E-1,4.70214E-1
9.08325E-1,4.01580E-1
9.37530E-1,3.26538E-1
9.56024E-1,2.57568E-1
9.81445E-1,1.83136E-1
9.87182E-1,0.94146E-1
9.87152E-1,0.17700E-1
9.91455E-1,-0.60821E-1
9.89502E-1,-1.40045E-1
9.81597E-1,-2.15759E-1
9.53369E-1,-3.00109E-1
9.16381E-1,-3.71063E-1
8.79272E-1,-4.42779E-1
END
BEGIN
5.90248E-2,-0.15621E-2
6.14433E-2,-0.88005E-2
5.90152E-2,-2.20489E-2
5.94787E-2,-3.28559E-2
6.19487E-2,-4.82902E-2
5.54542E-2,-5.653E-2
4.91542E-2,-6.08310E-2
3.1147E-2,-6.44416E-2
1.53999E-2,-6.62879E-2
0.04005E-2,-7.55729E-2
-1.67617E-2,-8.12912E-2
-2.88238E-2,-8.29429E-2
-4.23965E-2,-7.76596E-2
-5.21202E-2,-6.77948E-2
-6.50749E-2,-5.96275E-2
-8.02764E-2,-5.05905E-2
-9.29184E-2,-4.15229E-2
-1.03248E-1,-3.23257E-2
-1.06388E-1,-1.88865E-2
-1.09508E-1,-0.77209E-2
-1.13960E-1,0.56572E-2
-1.17069E-1,1.93405E-2
-1.18282E-1,2.96249E-2
-1.17172E-1,3.83377E-2
-1.11221E-1,4.54254E-2
-1.01207E-1,4.94689E-2
-9.24453E-2,5.47561E-2
-8.15048E-2,5.91659E-2
-7.23838E-2,6.33430E-2
-5.65719E-2,6.55326E-2
-4.25109E-2,6.23951E-2
-3.27796E-2,6.34765E-2
-2.29225E-2,6.59751E-2
-1.86538E-2,6.74514E-2
-1.38435E-2,6.85386E-2
-1.18141E-2,6.32362E-2
-1.04465E-2,5.65681E-2
-0.77056E-2,5.40885E-2
-0.83541E-2,5.45024E-2
-1.13906E-2,6.28547E-2
-1.38893E-2,6.38885E-2
-2.33326E-2,5.69725E-2
-3.17230E-2,5.23986E-2
-3.25279E-2,4.75540E-2
-2.98709E-2,5.46016E-2
-2.02941E-2,6.25152E-2
-2.12211E-2,6.89163E-2
-3.03802E-2,8.03756E-2
-3.58848E-2,8.67385E-2
-4.17442E-2,9.43756E-2
-3.00788E-2,1.01955E-1
-2.28271E-2,9.99870E-2
-2.43835E-2,1.09264E-1
-2.04391E-2,1.18606E-1
-1.86653E-2,1.23119E-1
-0.04531E-1,1.28677E-1
1.10359E-2,1.22531E-1
2.01683E-2,1.21784E-1
0.34889E-1,1.27662E-1
0.46691E-1,1.27967E-1
0.62248E-1,1.36184E-1
0.85166E-1,1.27037E-1
9.28802E-2,1.20201E-1
1.03027E-1,1.25335E-1
1.11244E-1,1.21891E-1
1.15081E-1,1.19094E-1
1.29455E-1,0.98632E-1
1.28006E-1,0.71884E-1
1.35192E-1,0.58593E-1
1.49383E-1,0.42404E-1
1.57089E-1,0.30731E-1
1.72493E-1,0.18486E-1
1.73286E-1,-0.09513E-1
1.68243E-1,-0.24467E-1
1.76055E-1,-0.36598E-1
1.83219E-1,-0.50323E-1
1.95243E-1,-0.61676E-1
1.90658E-1,-0.86349E-1
1.74743E-1,-0.87646E-1
1.67587E-1,-0.92712E-1
1.58760E-1,-1.05247E-1
1.46736E-1,-1.28273E-1
1.28021E-1,-1.53404E-1
1.12503E-1,-1.65344E-1
1.06903E-1,-1.77337E-1
0.96641E-1,-1.89781E-1
0.84693E-1,-1.96403E-1
0.72723E-1,-2.06718E-1
0.44029E-1,-2.23327E-1
0.27641E-1,-2.25189E-1
0.13267E-1,-2.35031E-1
-0.02281E-1,-2.33184E-1
-0.21209E-1,-2.33383E-1
-0.46684E-1,-2.34787E-1
-0.74546E-1,-2.32605E-1
-1.03317E-1,-2.40165E-1
-1.30897E-1,-2.36297E-1
-1.44737E-1,-2.36618E-1
-1.67816E-1,-2.48329E-1
-2.03834E-1,-2.34191E-1
-2.16590E-1,-2.22938E-1
-2.31132E-1,-2.07679E-1
-2.28279E-1,-1.96548E-1
-2.48512E-1,-1.88827E-1
-2.71087E-1,-1.55395E-1
-2.80578E-1,-1.32324E-1
-3.02368E-1,-1.12716E-1
-3.13415E-1,-0.86715E-1
-3.19091E-1,-0.64834E-1
-3.31222E-1,-0.36102E-1
-3.38531E-1,0.00457E-1
-3.48678E-1,0.33035E-1
-3.46756E-1,0.65277E-1
-3.38684E-1,0.72311E-1
-3.39981E-1,0.87432E-1
-3.26492E-1,1.20071E-1
-3.08013E-1,1.51596E-1
-2.88131E-1,1.88415E-1
-2.67486E-1,2.13867E-1
-2.51907E-1,2.31765E-1
-2.42095E-1,2.50167E-1
-2.20596E-1,2.72583E-1
-1.93573E-1,2.95623E-1
-1.57714E-1,3.04336E-1
-1.42562E-1,3.02734E-1
-1.33895E-1,3.12606E-1
-1.09359E-1,3.25485E-1
-0.79345E-1,3.29147E-1
-0.41244E-1,3.19946E-1
-0.16662E-1,2.99667E-1
-0.01739E-1,2.87429E-1
0.24551E-1,2.91366E-1
0.58868E-1,2.82424E-1
0.89813E-1,2.68478E-1
1.02279E-1,2.43843E-1
1.00074E-1,2.28569E-1
1.06964E-1,2.19116E-1
1.18927E-1,1.94404E-1
1.27784E-1,1.69090E-1
1.33216E-1,1.35917E-1
1.21849E-1,1.10092E-1
1.08482E-1,9.32006E-2
9.76829E-2,7.20367E-2
8.93821E-2,5.30853E-2
9.15260E-2,2.6371E-2
7.72628E-2,0.34866E-2
6.56433E-2,-0.05340E-2
5.47428E-2,-0.42152E-2
3.98883E-2,-0.06389E-2
3.27110E-2,-0.52242E-2
9.71698E-3,-9.10759E-3
-1.14378E-2,4.04930E-3
-2.57167E-2,1.86643E-2
-4.32243E-2,3.36170E-2
-4.92305E-2,4.15153E-2
-6.15062E-2,3.38192E-2
-7.85751E-2,4.11262E-2
-7.91282E-2,5.78422E-2
-7.75718E-2,7.73849E-2
-6.74552E-2,9.78164E-2
-6.24313E-2,9.88273E-2
-6.82296E-2,1.05892E-1
-5.82237E-2,1.24969E-1
-0.41084E-1,1.42120E-1
-0.19409E-1,1.71409E-1
0.01640E-1,1.82388E-1
-0.05844E-1,1.93946E-1
-0.06446E-1,2.14653E-1
0.03295E-1,2.17422E-1
0.18569E-1,2.19993E-1
0.43914E-1,2.13081E-1
0.52207E-1,2.02400E-1
0.53489E-1,2.07435E-1
0.65124E-1,2.06291E-1
0.77957E-1,2.00790E-1
1.07200E-1,1.82914E-1
1.23718E-1,1.59591E-1
1.32263E-1,1.57539E-1
1.47552E-1,1.63032E-1
1.51809E-1,1.58775E-1
1.59423E-1,1.47842E-1
1.59301E-1,1.24931E-1
1.58111E-1,1.11167E-1
1.64863E-1,1.05773E-1
1.61315E-1,1.03813E-1
1.64413E-1,1.04003E-1
1.58226E-1,0.71006E-1
1.43203E-1,0.44548E-1
1.51184E-1,0.24246E-1
1.60568E-1,0.10047E-1
1.73896E-1,0.21972E-1
1.86782E-1,0.17082E-1
1.70600E-1,0.04798E-1
1.57768E-1,-0.11207E-1
1.53938E-1,-0.29304E-1
1.63421E-1,-0.22674E-1
1.92504E-1,-0.21263E-1
1.79901E-1,-0.33378E-1
1.44935E-1,-0.33920E-1
1.15455E-1,-4.76417E-2
1.03881E-1,-5.76324E-2
END
