CITIFILE A.01.01
#NA VERSION HP8510C.08.10
NAME DATA
#NA REGISTER 4
VAR FREQ MAG 201
DATA S[1,1] RI
DATA S[2,1] RI
DATA S[1,2] RI
DATA S[2,2] RI
SEG_LIST_BEGIN
SEG 8000000000 12000000000 201
SEG_LIST_END
COMMENT       YEAR MONTH DAY HOUR MINUTE SECONDS
CONSTANT TIME 2013   09   26  18    22    15.0
BEGIN
-8.30268E-2,0.25901E-2
-8.04061E-2,1.66702E-2
-7.49054E-2,3.40156E-2
-6.94465E-2,4.77180E-2
-6.40411E-2,6.13212E-2
-5.20973E-2,6.80275E-2
-4.10690E-2,7.29866E-2
-2.52151E-2,7.58018E-2
-1.54457E-2,7.71369E-2
-0.55923E-2,8.12492E-2
0.44593E-2,8.03680E-2
1.42707E-2,7.91320E-2
2.62908E-2,7.40699E-2
3.59840E-2,6.93931E-2
4.40025E-2,6.52923E-2
5.07450E-2,6.22654E-2
5.66730E-2,5.68809E-2
6.44569E-2,4.78515E-2
6.90918E-2,3.76663E-2
7.55500E-2,2.76756E-2
8.0616E-2,2.11181E-2
8.43048E-2,1.39999E-2
8.68949E-2,0.59928E-2
8.75129E-2,-1.02272E-2
8.13140E-2,-2.88009E-2
7.56568E-2,-3.94554E-2
7.06596E-2,-4.94842E-2
6.27861E-2,-5.45806E-2
5.35259E-2,-6.19964E-2
3.68194E-2,-6.64787E-2
2.25448E-2,-6.88514E-2
1.14669E-2,-6.96258E-2
0.55809E-2,-6.62651E-2
0.52719E-2,-6.34307E-2
0.21247E-2,-6.15348E-2
-0.71220E-2,-6.20231E-2
-1.66416E-2,-5.80883E-2
-2.17800E-2,-5.62648E-2
-2.13661E-2,-5.84068E-2
-2.65235E-2,-6.34994E-2
-3.70636E-2,-6.15444E-2
-4.55188E-2,-5.11341E-2
-5.22079E-2,-4.36000E-2
-5.42736E-2,-3.72543E-2
-5.55152E-2,-3.81450E-2
-6.04476E-2,-3.51238E-2
-6.49185E-2,-2.46505E-2
-6.85501E-2,-1.51367E-2
-7.28569E-2,-0.43754E-2
-7.22389E-2,-0.11634E-2
-7.47413E-2,0.46386E-2
-7.10449E-2,1.55525E-2
-6.32934E-2,2.73742E-2
-5.80444E-2,4.09164E-2
-5.19084E-2,4.78954E-2
-5.01403E-2,4.56733E-2
-4.87308E-2,4.39147E-2
-4.17003E-2,4.62474E-2
-3.33557E-2,5.78193E-2
-2.08244E-2,7.19451E-2
-1.83067E-2,7.44781E-2
-1.62429E-2,7.84301E-2
-0.52871E-2,7.58476E-2
0.96206E-2,7.04879E-2
3.08532E-2,7.47413E-2
4.86450E-2,7.30590E-2
5.31921E-2,7.16400E-2
5.34248E-2,6.79130E-2
5.91964E-2,5.84850E-2
7.42607E-2,5.03578E-2
9.56077E-2,4.00543E-2
1.09535E-1,3.96766E-2
1.24969E-1,3.55682E-2
1.33430E-1,0.16021E-1
1.38580E-1,-0.06347E-1
1.50878E-1,-0.33065E-1
1.62254E-1,-0.59837E-1
1.61872E-1,-0.84655E-1
1.53228E-1,-1.02035E-1
1.36611E-1,-1.23664E-1
1.29119E-1,-1.46385E-1
1.19285E-1,-1.78123E-1
1.08589E-1,-1.92993E-1
0.99372E-1,-2.06169E-1
0.70175E-1,-2.19841E-1
0.44334E-1,-2.31544E-1
0.20141E-1,-2.58651E-1
-0.03326E-1,-2.74169E-1
-0.27038E-1,-2.83676E-1
-0.56198E-1,-2.80715E-1
-0.94101E-1,-2.69088E-1
-1.25961E-1,-2.66998E-1
-1.66458E-1,-2.66220E-1
-1.83517E-1,-2.62069E-1
-1.987E-1,-2.56332E-1
-2.27012E-1,-2.37594E-1
-2.57156E-1,-2.08175E-1
-2.93014E-1,-1.87545E-1
-3.23379E-1,-1.75170E-1
-3.46740E-1,-1.50528E-1
-3.58062E-1,-1.20925E-1
-3.63205E-1,-0.72021E-1
-3.68530E-1,-0.32501E-1
-3.84185E-1,0.14083E-1
-3.80218E-1,0.43212E-1
-3.77578E-1,0.57525E-1
-3.65905E-1,0.86410E-1
-3.48800E-1,1.22528E-1
-3.35586E-1,1.63681E-1
-3.22235E-1,1.92291E-1
-3.16803E-1,2.10235E-1
-3.05542E-1,2.31445E-1
-2.68875E-1,2.58667E-1
-2.31842E-1,2.77221E-1
-1.98333E-1,3.02413E-1
-1.74209E-1,3.13354E-1
-1.58401E-1,3.17398E-1
-1.31454E-1,3.20587E-1
-0.92498E-1,3.20083E-1
-0.51345E-1,3.17794E-1
-0.27557E-1,3.15887E-1
-0.13137E-1,3.20495E-1
0.04119E-1,3.18008E-1
0.37750E-1,2.99148E-1
0.71289E-1,2.71652E-1
1.01760E-1,2.55508E-1
1.222E-1,2.46627E-1
1.31164E-1,2.37083E-1
1.30325E-1,2.13508E-1
1.34582E-1,1.80076E-1
1.45584E-1,1.41113E-1
1.57524E-1,1.21772E-1
1.68617E-1,1.17202E-1
1.67045E-1,1.14440E-1
1.50047E-1,0.98602E-1
1.36596E-1,0.67977E-1
1.26663E-1,0.33157E-1
1.31385E-1,0.13549E-1
1.37115E-1,0.08903E-1
1.25343E-1,0.15968E-1
1.03862E-1,2.25601E-2
7.52067E-2,1.22718E-2
5.76725E-2,0.24070E-2
6.42089E-2,-0.71487E-2
7.40432E-2,-0.61073E-2
7.84568E-2,0.47340E-2
7.06329E-2,0.89759E-2
5.26008E-2,0.50468E-2
4.49752E-2,-0.86784E-2
4.17194E-2,-2.34623E-2
4.26082E-2,-2.01206E-2
4.35199E-2,-1.21307E-2
2.76632E-2,-0.35934E-2
1.50804E-2,1.06144E-3
8.26406E-3,-6.84928E-3
1.33509E-2,-8.05425E-3
2.70032E-2,-0.74930E-2
2.56223E-2,-0.24490E-2
1.50160E-2,8.52155E-3
3.60298E-3,7.33590E-3
-4.28533E-3,4.59075E-3
6.62803E-3,2.12931E-3
1.59683E-2,0.40817E-2
1.93233E-2,2.43301E-2
2.20584E-2,3.84616E-2
1.82552E-2,3.77960E-2
2.83050E-2,2.72388E-2
4.81090E-2,0.24070E-2
6.45942E-2,-0.93765E-2
7.66601E-2,-1.14898E-2
6.43730E-2,-1.26228E-2
4.86316E-2,-1.42650E-2
3.99341E-2,-4.17842E-2
3.15818E-2,-6.81762E-2
4.08058E-2,-7.69958E-2
4.52499E-2,-7.76138E-2
3.70369E-2,-5.96046E-2
2.67105E-2,-6.36749E-2
-0.36621E-2,-8.65287E-2
-2.05001E-2,-1.06140E-1
-2.36969E-2,-1.24839E-1
-2.87208E-2,-1.11652E-1
-2.61726E-2,-9.31396E-2
-5.58357E-2,-8.85925E-2
-9.34257E-2,-7.83004E-2
-1.07872E-1,-8.46824E-2
-1.14315E-1,-8.71009E-2
-9.33799E-2,-7.37800E-2
-9.00497E-2,-6.80885E-2
-1.17900E-1,-4.58030E-2
-1.40632E-1,-0.36323E-1
-1.65641E-1,-0.37834E-1
-1.58866E-1,-0.28503E-1
-1.46263E-1,-0.27473E-1
-1.57424E-1,0.00068E-1
-1.67137E-1,0.39093E-1
-1.86866E-1,0.53939E-1
-1.87233E-1,0.67771E-1
-1.6082E-1,0.55908E-1
-1.48269E-1,0.61142E-1
-1.38061E-1,0.99617E-1
END
BEGIN
-8.25561E-1,-5.57678E-1
-8.79943E-1,-4.79095E-1
-9.17022E-1,-3.85376E-1
-9.50927E-1,-3.01452E-1
-9.77783E-1,-2.09411E-1
-9.92950E-1,-1.21887E-1
-1.01501E0,-0.26855E-1
-1.01275E0,0.86059E-1
-9.91088E-1,1.80419E-1
-9.70336E-1,2.75177E-1
-9.34173E-1,3.60076E-1
-9.07897E-1,4.42321E-1
-8.60321E-1,5.42511E-1
-7.89428E-1,6.13586E-1
-7.33551E-1,6.75323E-1
-6.65405E-1,7.42523E-1
-6.00647E-1,7.93579E-1
-5.30731E-1,8.59344E-1
-4.31976E-1,9.05181E-1
-3.48571E-1,9.28466E-1
-2.62756E-1,9.56726E-1
-1.77520E-1,9.64508E-1
-1.02935E-1,9.83367E-1
-0.01709E-1,9.95544E-1
0.83923E-1,9.79126E-1
1.65588E-1,9.74609E-1
2.56103E-1,9.51477E-1
3.25744E-1,9.29077E-1
4.15435E-1,9.15802E-1
5.09613E-1,8.66516E-1
5.82611E-1,8.14819E-1
6.59149E-1,7.54333E-1
7.16766E-1,6.86065E-1
7.75451E-1,6.25274E-1
8.33923E-1,5.46325E-1
8.70391E-1,4.65057E-1
9.03839E-1,3.86169E-1
9.24926E-1,3.05450E-1
9.47418E-1,2.36602E-1
9.74731E-1,1.49047E-1
9.77996E-1,0.59875E-1
9.81536E-1,-0.22003E-1
9.75250E-1,-1.12274E-1
9.59655E-1,-1.87774E-1
9.51324E-1,-2.73040E-1
9.15435E-1,-3.63098E-1
8.77594E-1,-4.34051E-1
8.37951E-1,-5.11474E-1
7.82440E-1,-5.74096E-1
7.43469E-1,-6.29333E-1
6.94519E-1,-7.03979E-1
6.27624E-1,-7.63214E-1
5.625E-1,-8.20983E-1
4.79888E-1,-8.70819E-1
4.04724E-1,-8.99993E-1
3.31909E-1,-9.38354E-1
2.41027E-1,-9.63836E-1
1.58477E-1,-9.79797E-1
0.63537E-1,-9.88922E-1
-0.15716E-1,-9.73022E-1
-0.79986E-1,-9.74304E-1
-1.67236E-1,-9.73815E-1
-2.44903E-1,-9.58435E-1
-3.33679E-1,-9.47387E-1
-4.31945E-1,-9.04602E-1
-4.95391E-1,-8.54370E-1
-5.69702E-1,-8.23364E-1
-6.47308E-1,-7.62908E-1
-7.07916E-1,-7.02514E-1
-7.73101E-1,-6.28387E-1
-8.02154E-1,-5.43640E-1
-8.32183E-1,-4.91485E-1
-8.77014E-1,-4.20593E-1
-8.97522E-1,-3.53332E-1
-9.37408E-1,-2.90222E-1
-9.63317E-1,-1.98089E-1
-9.67987E-1,-1.28265E-1
-1.00012E0,-0.48706E-1
-9.95422E-1,0.54107E-1
-9.88189E-1,1.25366E-1
-9.93988E-1,2.31292E-1
-9.44458E-1,3.34045E-1
-9.03625E-1,4.07409E-1
-8.43505E-1,4.89318E-1
-7.88665E-1,5.18554E-1
-7.77465E-1,5.82519E-1
-7.03613E-1,6.67327E-1
-6.42120E-1,6.89636E-1
-6.06018E-1,7.53814E-1
-5.25695E-1,7.99591E-1
-4.85595E-1,8.37249E-1
-4.00238E-1,9.21264E-1
-2.71850E-1,9.24743E-1
-2.08557E-1,9.14489E-1
-1.24633E-1,9.20440E-1
-0.69976E-1,8.95874E-1
-0.17700E-1,9.15985E-1
0.69213E-1,8.98345E-1
0.96618E-1,8.82751E-1
1.62292E-1,9.14062E-1
2.49145E-1,8.99322E-1
3.11035E-1,8.97277E-1
4.17633E-1,8.89312E-1
4.99816E-1,8.27026E-1
5.73333E-1,7.92999E-1
6.65557E-1,7.03887E-1
6.77124E-1,6.17828E-1
7.13012E-1,5.79040E-1
7.51525E-1,5.10955E-1
7.72216E-1,4.61639E-1
8.09295E-1,3.97644E-1
8.12896E-1,3.38104E-1
8.47991E-1,3.09173E-1
8.99810E-1,2.35565E-1
9.16717E-1,1.54144E-1
9.32922E-1,0.70922E-1
9.15557E-1,-0.13610E-1
9.05395E-1,-0.66650E-1
9.02191E-1,-1.43341E-1
8.75244E-1,-2.01385E-1
8.74816E-1,-2.55767E-1
8.60565E-1,-3.30078E-1
8.35968E-1,-3.85162E-1
8.21106E-1,-4.56298E-1
7.81402E-1,-5.26519E-1
7.52746E-1,-5.88562E-1
7.11578E-1,-6.70684E-1
6.45477E-1,-7.38891E-1
5.76446E-1,-7.90893E-1
4.99816E-1,-8.26049E-1
4.46929E-1,-8.55712E-1
3.78906E-1,-9.10064E-1
2.91809E-1,-9.39727E-1
2.18933E-1,-9.63104E-1
1.32446E-1,-9.81231E-1
0.58319E-1,-9.81445E-1
-0.21484E-1,-1.00012E0
-1.24115E-1,-9.90570E-1
-2.04528E-1,-9.64904E-1
-2.82592E-1,-9.43328E-1
-3.50708E-1,-9.09851E-1
-4.13391E-1,-8.85589E-1
-4.90722E-1,-8.49975E-1
-5.54138E-1,-8.04382E-1
-6.19171E-1,-7.63305E-1
-6.80877E-1,-7.05535E-1
-7.30590E-1,-6.53503E-1
-7.94403E-1,-5.98022E-1
-8.39080E-1,-5.19470E-1
-8.75915E-1,-4.46472E-1
-9.00695E-1,-3.67645E-1
-9.18243E-1,-3.01116E-1
-9.41162E-1,-2.34649E-1
-9.56817E-1,-1.59729E-1
-9.66156E-1,-0.82946E-1
-9.66278E-1,-0.04058E-1
-9.63928E-1,0.68359E-1
-9.60815E-1,1.46118E-1
-9.41986E-1,2.22564E-1
-9.23400E-1,2.92236E-1
-8.96362E-1,3.62060E-1
-8.69201E-1,4.24224E-1
-8.46405E-1,5.01922E-1
-7.99865E-1,5.73364E-1
-7.61413E-1,6.36627E-1
-7.03979E-1,7.06817E-1
-6.44012E-1,7.52502E-1
-5.91766E-1,8.12774E-1
-5.06286E-1,8.61999E-1
-4.31823E-1,8.94165E-1
-3.50067E-1,9.24499E-1
-2.79083E-1,9.27063E-1
-2.28241E-1,9.47204E-1
-1.47857E-1,9.81109E-1
-0.65643E-1,9.88830E-1
0.22216E-1,9.98443E-1
1.11297E-1,9.75250E-1
1.65130E-1,9.62829E-1
2.51861E-1,9.73266E-1
3.43017E-1,9.33776E-1
4.14886E-1,8.99932E-1
4.91790E-1,8.47503E-1
5.30151E-1,7.97699E-1
5.84686E-1,7.75848E-1
6.55334E-1,7.30346E-1
7.07946E-1,6.77978E-1
7.73651E-1,6.19171E-1
8.10913E-1,5.42358E-1
8.48205E-1,4.85992E-1
8.95355E-1,4.16137E-1
9.19464E-1,3.36914E-1
9.43817E-1,2.65258E-1
9.53491E-1,1.81915E-1
9.56512E-1,1.16119E-1
9.67346E-1,0.40954E-1
9.63867E-1,-0.35766E-1
9.61639E-1,-1.07147E-1
9.52697E-1,-1.81213E-1
9.34234E-1,-2.47131E-1
9.21295E-1,-3.22509E-1
8.90014E-1,-4.02832E-1
END
BEGIN
-8.37921E-1,-5.45318E-1
-8.87085E-1,-4.71130E-1
-9.18823E-1,-3.72680E-1
-9.46502E-1,-3.03466E-1
-9.90814E-1,-2.07733E-1
-9.98870E-1,-1.04003E-1
-1.00885E0,-0.12512E-1
-9.98748E-1,0.92071E-1
-9.82055E-1,1.69647E-1
-9.79858E-1,2.64465E-1
-9.42627E-1,3.68042E-1
-9.00238E-1,4.49646E-1
-8.46801E-1,5.35705E-1
-7.88147E-1,5.96069E-1
-7.46887E-1,6.68762E-1
-6.74224E-1,7.46582E-1
-5.97839E-1,7.98065E-1
-5.18951E-1,8.52478E-1
-4.32281E-1,8.78570E-1
-3.74115E-1,9.09881E-1
-2.88177E-1,9.61486E-1
-1.90338E-1,9.78881E-1
-1.04888E-1,9.96826E-1
-0.04180E-1,9.94567E-1
0.66864E-1,9.82086E-1
1.55609E-1,9.94903E-1
2.58087E-1,9.71649E-1
3.43231E-1,9.44213E-1
4.34906E-1,9.00665E-1
4.98107E-1,8.49700E-1
5.70617E-1,8.20678E-1
6.55029E-1,7.64190E-1
7.21954E-1,6.98455E-1
7.87139E-1,6.24816E-1
8.24462E-1,5.43853E-1
8.60839E-1,4.87060E-1
9.15588E-1,4.10675E-1
9.49310E-1,3.20800E-1
9.76684E-1,2.29339E-1
9.82421E-1,1.31591E-1
9.76989E-1,0.62744E-1
9.95605E-1,-0.13336E-1
9.96643E-1,-1.09588E-1
9.83734E-1,-2.01599E-1
9.53125E-1,-2.98248E-1
9.10003E-1,-3.70025E-1
8.87268E-1,-4.35913E-1
8.51562E-1,-5.20416E-1
8.03466E-1,-5.94268E-1
7.42248E-1,-6.70898E-1
6.67297E-1,-7.21832E-1
6.14105E-1,-7.63488E-1
5.54779E-1,-8.23822E-1
4.81231E-1,-8.72589E-1
4.01458E-1,-9.18609E-1
3.08471E-1,-9.43084E-1
2.34649E-1,-9.55383E-1
1.58874E-1,-9.77691E-1
0.72479E-1,-9.92950E-1
-0.14953E-1,-1.00262E0
-1.13952E-1,-9.95330E-1
-1.91589E-1,-9.64355E-1
-2.61627E-1,-9.54315E-1
-3.47076E-1,-9.34295E-1
-4.30450E-1,-9.08966E-1
-5.24566E-1,-8.64471E-1
-5.87829E-1,-7.93975E-1
-6.34979E-1,-7.52807E-1
-7.07000E-1,-7.0578E-1
-7.71606E-1,-6.40075E-1
-8.36364E-1,-5.67230E-1
-8.74786E-1,-4.65240E-1
-8.77288E-1,-4.00604E-1
-9.19769E-1,-3.49182E-1
-9.56970E-1,-2.63549E-1
-9.85290E-1,-1.80206E-1
-9.98748E-1,-0.63110E-1
-9.58099E-1,0.14251E-1
-9.66949E-1,0.57861E-1
-9.80285E-1,1.44348E-1
-9.77111E-1,2.31536E-1
-9.50439E-1,3.52233E-1
-8.63769E-1,4.23584E-1
-8.39996E-1,4.51263E-1
-8.20983E-1,5.35553E-1
-7.74139E-1,5.96710E-1
-7.46490E-1,6.91833E-1
-6.24939E-1,7.85522E-1
-5.24993E-1,7.71453E-1
-4.93621E-1,7.97241E-1
-4.29016E-1,8.36395E-1
-3.81835E-1,8.83178E-1
-2.68920E-1,9.45343E-1
-1.53839E-1,9.08569E-1
-1.17584E-1,8.84277E-1
-0.66284E-1,8.8974E-1
-0.27984E-1,9.06768E-1
0.74005E-1,9.61517E-1
2.14019E-1,8.98376E-1
2.32086E-1,8.29956E-1
2.68493E-1,8.29162E-1
3.15185E-1,8.16619E-1
3.83087E-1,8.38226E-1
5.07415E-1,7.85461E-1
5.36865E-1,6.98761E-1
5.69946E-1,6.76239E-1
6.15142E-1,6.25610E-1
6.42852E-1,6.12365E-1
7.44903E-1,5.83068E-1
7.96173E-1,4.65454E-1
7.90649E-1,4.02435E-1
8.10089E-1,3.52356E-1
8.23791E-1,3.18664E-1
8.96453E-1,2.83416E-1
9.52148E-1,1.60491E-1
9.27185E-1,0.68389E-1
9.2099E-1,0.10345E-1
9.11102E-1,-0.44067E-1
9.39361E-1,-0.86486E-1
9.72564E-1,-2.03064E-1
9.25903E-1,-3.21167E-1
8.73199E-1,-3.85223E-1
8.27545E-1,-4.35150E-1
8.10974E-1,-4.68536E-1
8.11126E-1,-5.53253E-1
7.47589E-1,-6.56799E-1
6.65771E-1,-7.11273E-1
5.95733E-1,-7.48291E-1
5.49774E-1,-7.67730E-1
5.27008E-1,-8.26690E-1
4.45861E-1,-9.09423E-1
3.36700E-1,-9.42260E-1
2.45452E-1,-9.48822E-1
1.78405E-1,-9.47845E-1
1.24755E-1,-9.67559E-1
0.39703E-1,-9.98565E-1
-0.58563E-1,-9.94445E-1
-1.46331E-1,-9.76837E-1
-2.23724E-1,-9.45587E-1
-2.84545E-1,-9.26178E-1
-3.57543E-1,-9.16137E-1
-4.42016E-1,-8.85284E-1
-5.15014E-1,-8.41766E-1
-5.83404E-1,-7.88085E-1
-6.37756E-1,-7.33856E-1
-6.91833E-1,-6.84326E-1
-7.49816E-1,-6.2854E-1
-7.97790E-1,-5.64056E-1
-8.38775E-1,-4.95361E-1
-8.66088E-1,-4.24621E-1
-8.96423E-1,-3.58856E-1
-9.22424E-1,-2.88543E-1
-9.43634E-1,-2.14935E-1
-9.57428E-1,-1.41143E-1
-9.62524E-1,-0.64941E-1
-9.66461E-1,0.09796E-1
-9.62707E-1,0.90759E-1
-9.52697E-1,1.66412E-1
-9.38201E-1,2.41394E-1
-9.17785E-1,3.11828E-1
-8.95507E-1,3.83209E-1
-8.60137E-1,4.60083E-1
-8.16711E-1,5.27282E-1
-7.70202E-1,5.93017E-1
-7.24060E-1,6.49444E-1
-6.75659E-1,7.06024E-1
-6.19354E-1,7.61138E-1
-5.51910E-1,8.07251E-1
-4.80102E-1,8.46130E-1
-4.08874E-1,8.70544E-1
-3.52844E-1,9.01763E-1
-2.82379E-1,9.38812E-1
-1.98730E-1,9.59930E-1
-1.21032E-1,9.67681E-1
-0.40985E-1,9.65362E-1
0.21118E-1,9.61059E-1
0.98449E-1,9.73602E-1
1.84906E-1,9.67254E-1
2.62451E-1,9.45861E-1
3.38073E-1,9.16870E-1
3.95355E-1,8.80767E-1
4.62036E-1,8.61419E-1
5.39642E-1,8.24310E-1
6.05224E-1,7.75848E-1
6.69128E-1,7.26440E-1
7.20245E-1,6.66198E-1
7.64251E-1,6.15936E-1
8.21502E-1,5.52612E-1
8.63281E-1,4.80804E-1
9.04083E-1,4.12139E-1
9.33715E-1,3.37677E-1
9.55139E-1,2.66052E-1
9.77264E-1,1.90887E-1
9.86145E-1,1.05133E-1
9.88403E-1,0.28503E-1
9.91943E-1,-0.48950E-1
9.91821E-1,-1.29028E-1
9.82574E-1,-2.08648E-1
9.54956E-1,-2.91259E-1
9.20379E-1,-3.63464E-1
8.84643E-1,-4.32434E-1
END
BEGIN
5.85365E-2,-0.14762E-2
6.21471E-2,-0.96416E-2
5.92250E-2,-2.29625E-2
6.00643E-2,-3.26728E-2
6.25762E-2,-4.90036E-2
5.46875E-2,-5.68962E-2
4.87804E-2,-6.12163E-2
3.09486E-2,-6.52313E-2
1.52282E-2,-6.62612E-2
0.07629E-2,-7.56950E-2
-1.70555E-2,-8.09402E-2
-2.90947E-2,-8.23135E-2
-4.30755E-2,-7.75337E-2
-5.26733E-2,-6.73522E-2
-6.47468E-2,-5.94787E-2
-8.03260E-2,-5.05523E-2
-9.25140E-2,-4.08172E-2
-1.03199E-1,-3.21312E-2
-1.06826E-1,-1.84402E-2
-1.09794E-1,-0.76713E-2
-1.14444E-1,0.51994E-2
-1.17279E-1,1.92031E-2
-1.18164E-1,2.95715E-2
-1.17130E-1,3.82003E-2
-1.11328E-1,4.55398E-2
-1.01596E-1,4.90379E-2
-9.27352E-2,5.47561E-2
-8.14056E-2,5.88913E-2
-7.20024E-2,6.27594E-2
-5.63201E-2,6.53610E-2
-4.21848E-2,6.21109E-2
-3.27453E-2,6.35528E-2
-2.24227E-2,6.57615E-2
-1.78794E-2,6.72493E-2
-1.30958E-2,6.81114E-2
-1.14555E-2,6.27021E-2
-1.05133E-2,5.67855E-2
-0.72593E-2,5.43479E-2
-0.79193E-2,5.41534E-2
-1.08814E-2,6.19850E-2
-1.36566E-2,6.36138E-2
-2.36415E-2,5.69782E-2
-3.14502E-2,5.26256E-2
-3.21598E-2,4.77409E-2
-2.94990E-2,5.41572E-2
-2.07824E-2,6.19201E-2
-2.19001E-2,6.93893E-2
-3.00064E-2,8.03871E-2
-3.53584E-2,8.62464E-2
-4.05578E-2,9.36889E-2
-3.03077E-2,1.01425E-1
-2.36396E-2,1.00894E-1
-2.42347E-2,1.09836E-1
-2.03018E-2,1.18820E-1
-1.79748E-2,1.22951E-1
-0.04402E-1,1.28257E-1
1.04332E-2,1.23058E-1
2.00386E-2,1.23283E-1
0.35018E-1,1.27967E-1
0.47294E-1,1.27922E-1
0.62179E-1,1.35215E-1
0.84388E-1,1.27090E-1
9.33189E-2,1.21551E-1
1.03721E-1,1.25846E-1
1.12102E-1,1.22249E-1
1.15509E-1,1.17622E-1
1.28089E-1,0.97633E-1
1.27952E-1,0.72998E-1
1.35963E-1,0.58792E-1
1.49589E-1,0.42694E-1
1.57409E-1,0.29884E-1
1.71203E-1,0.17807E-1
1.72409E-1,-0.08445E-1
1.69395E-1,-0.23948E-1
1.76780E-1,-0.36315E-1
1.83784E-1,-0.50354E-1
1.94511E-1,-0.62034E-1
1.89918E-1,-0.84724E-1
1.75842E-1,-0.87013E-1
1.68533E-1,-0.92453E-1
1.59988E-1,-1.05407E-1
1.45980E-1,-1.28692E-1
1.27403E-1,-1.51687E-1
1.13250E-1,-1.64276E-1
1.07040E-1,-1.77627E-1
0.97656E-1,-1.89628E-1
0.84861E-1,-1.97860E-1
0.71334E-1,-2.05940E-1
0.44311E-1,-2.21496E-1
0.27870E-1,-2.24571E-1
0.13954E-1,-2.34634E-1
-0.01007E-1,-2.33749E-1
-0.21621E-1,-2.32955E-1
-0.45517E-1,-2.32650E-1
-0.72662E-1,-2.31002E-1
-1.0112E-1,-2.39440E-1
-1.29554E-1,-2.37503E-1
-1.44676E-1,-2.36885E-1
-1.66595E-1,-2.46505E-1
-2.00859E-1,-2.33696E-1
-2.14767E-1,-2.22679E-1
-2.29240E-1,-2.09190E-1
-2.28424E-1,-1.98288E-1
-2.48123E-1,-1.88774E-1
-2.68493E-1,-1.56189E-1
-2.78839E-1,-1.33651E-1
-3.00277E-1,-1.14456E-1
-3.13003E-1,-0.89416E-1
-3.19809E-1,-0.66284E-1
-3.30001E-1,-0.37155E-1
-3.37616E-1,-0.01449E-1
-3.47747E-1,0.30487E-1
-3.47778E-1,0.61996E-1
-3.41339E-1,0.70465E-1
-3.41140E-1,0.86685E-1
-3.26934E-1,1.18331E-1
-3.08288E-1,1.49231E-1
-2.89413E-1,1.84936E-1
-2.71102E-1,2.11593E-1
-2.54577E-1,2.31994E-1
-2.42858E-1,2.49595E-1
-2.21176E-1,2.71072E-1
-1.94641E-1,2.92770E-1
-1.61224E-1,3.03176E-1
-1.45660E-1,3.04214E-1
-1.34964E-1,3.13583E-1
-1.11175E-1,3.25256E-1
-0.80612E-1,3.27560E-1
-0.45410E-1,3.18618E-1
-0.20401E-1,3.02475E-1
-0.02029E-1,2.90893E-1
0.24597E-1,2.92038E-1
0.58776E-1,2.82043E-1
0.87127E-1,2.67959E-1
0.99098E-1,2.45971E-1
0.99876E-1,2.31277E-1
1.07795E-1,2.19566E-1
1.20071E-1,1.94679E-1
1.27616E-1,1.67617E-1
1.30653E-1,1.37939E-1
1.22074E-1,1.12915E-1
1.10275E-1,9.41238E-2
1.00051E-1,7.17887E-2
9.09347E-2,5.14297E-2
9.00878E-2,2.65884E-2
7.77397E-2,0.59967E-2
6.69860E-2,-0.07247E-2
5.60646E-2,-0.56896E-2
4.10633E-2,-0.50983E-2
3.03201E-2,-0.73118E-2
8.74471E-3,-6.10828E-3
-9.70077E-3,5.30099E-3
-2.50520E-2,1.76296E-2
-4.28371E-2,3.03001E-2
-5.23796E-2,3.78799E-2
-6.45980E-2,3.51409E-2
-7.81135E-2,4.26521E-2
-7.92541E-2,5.81131E-2
-7.86666E-2,7.64389E-2
-7.13691E-2,9.48181E-2
-6.56433E-2,9.94224E-2
-6.75888E-2,1.06758E-1
-5.77888E-2,1.24832E-1
-0.41023E-1,1.42646E-1
-0.2108E-1,1.68685E-1
-0.03746E-1,1.82006E-1
-0.07278E-1,1.95297E-1
-0.05783E-1,2.14027E-1
0.04402E-1,2.18353E-1
0.19554E-1,2.18460E-1
0.39375E-1,2.12722E-1
0.48904E-1,2.05184E-1
0.52871E-1,2.07481E-1
0.65277E-1,2.05871E-1
0.79452E-1,1.97952E-1
1.03248E-1,1.80885E-1
1.19804E-1,1.63665E-1
1.31469E-1,1.60347E-1
1.46514E-1,1.62674E-1
1.51748E-1,1.55700E-1
1.56173E-1,1.45217E-1
1.56906E-1,1.27815E-1
1.58950E-1,1.15066E-1
1.64024E-1,1.08261E-1
1.60598E-1,1.03714E-1
1.60003E-1,1.00296E-1
1.54121E-1,0.72029E-1
1.44767E-1,0.47622E-1
1.51596E-1,0.27610E-1
1.61590E-1,0.14625E-1
1.71798E-1,0.20683E-1
1.79771E-1,0.16670E-1
1.68495E-1,0.06828E-1
1.59767E-1,-0.08567E-1
1.58126E-1,-0.23628E-1
1.65565E-1,-0.21698E-1
1.85142E-1,-0.19256E-1
1.74507E-1,-0.27565E-1
1.46530E-1,-0.30960E-1
1.21471E-1,-4.52652E-2
1.11736E-1,-5.68389E-2
END
