CITIFILE A.01.01
#NA VERSION HP8510C.08.10
NAME DATA
#NA REGISTER 1
VAR FREQ MAG 201
DATA S[1,1] RI
DATA S[2,1] RI
DATA S[1,2] RI
DATA S[2,2] RI
SEG_LIST_BEGIN
SEG 8000000000 12000000000 201
SEG_LIST_END
COMMENT       YEAR MONTH DAY HOUR MINUTE SECONDS
CONSTANT TIME 2013   09   26  18    25    56.0
BEGIN
-8.30650E-2,0.18882E-2
-7.99217E-2,1.60522E-2
-7.52067E-2,3.29437E-2
-6.98013E-2,4.70466E-2
-6.44683E-2,6.06803E-2
-5.26619E-2,6.80046E-2
-4.14009E-2,7.24639E-2
-2.55966E-2,7.50618E-2
-1.64070E-2,7.71102E-2
-0.65612E-2,8.12568E-2
0.38681E-2,8.04901E-2
1.38130E-2,7.93457E-2
2.55851E-2,7.39364E-2
3.53012E-2,6.97059E-2
4.28085E-2,6.58760E-2
5.01136E-2,6.29158E-2
5.62171E-2,5.73101E-2
6.39953E-2,4.85496E-2
6.86988E-2,3.79943E-2
7.50160E-2,2.73819E-2
7.94143E-2,2.17552E-2
8.38851E-2,1.45797E-2
8.63304E-2,0.64735E-2
8.73527E-2,-0.98304E-2
8.13331E-2,-2.83622E-2
7.50579E-2,-3.91845E-2
7.03773E-2,-4.92973E-2
6.29386E-2,-5.46531E-2
5.36308E-2,-6.16340E-2
3.74145E-2,-6.59179E-2
2.27127E-2,-6.78100E-2
1.14402E-2,-6.92215E-2
0.55389E-2,-6.63185E-2
0.56419E-2,-6.34994E-2
0.30365E-2,-6.15520E-2
-0.64907E-2,-6.18991E-2
-1.64966E-2,-5.79719E-2
-2.22148E-2,-5.61847E-2
-2.15454E-2,-5.85918E-2
-2.61344E-2,-6.43615E-2
-3.65619E-2,-6.19182E-2
-4.48265E-2,-5.10463E-2
-5.22613E-2,-4.33177E-2
-5.50117E-2,-3.70883E-2
-5.58967E-2,-3.88088E-2
-6.09798E-2,-3.62453E-2
-6.46972E-2,-2.53448E-2
-6.81457E-2,-1.52854E-2
-7.27272E-2,-0.38757E-2
-7.28454E-2,-0.02822E-2
-7.56492E-2,0.35057E-2
-7.16781E-2,1.45416E-2
-6.27403E-2,2.56881E-2
-5.74073E-2,4.07333E-2
-5.16490E-2,4.88300E-2
-5.07812E-2,4.57878E-2
-4.99954E-2,4.33998E-2
-4.21695E-2,4.47406E-2
-3.35235E-2,5.64537E-2
-1.99241E-2,7.20901E-2
-1.78833E-2,7.52143E-2
-1.75857E-2,7.96890E-2
-0.69885E-2,7.55195E-2
0.78964E-2,6.87789E-2
3.08952E-2,7.40547E-2
4.99305E-2,7.33223E-2
5.37605E-2,7.23724E-2
5.22995E-2,6.94007E-2
5.71956E-2,5.86051E-2
7.29103E-2,4.99954E-2
9.63592E-2,3.91807E-2
1.11026E-1,3.96614E-2
1.25282E-1,0.37574E-1
1.32644E-1,0.18699E-1
1.36253E-1,-0.05104E-1
1.50009E-1,-0.33515E-1
1.62879E-1,-0.61065E-1
1.63246E-1,-0.84022E-1
1.54495E-1,-1.00112E-1
1.35543E-1,-1.21734E-1
1.27609E-1,-1.44683E-1
1.18362E-1,-1.78947E-1
1.09565E-1,-1.93832E-1
1.02096E-1,-2.06527E-1
0.71044E-1,-2.18231E-1
0.43556E-1,-2.29400E-1
0.19134E-1,-2.57904E-1
-0.04150E-1,-2.75238E-1
-0.2565E-1,-2.85125E-1
-0.53680E-1,-2.82119E-1
-0.92559E-1,-2.67883E-1
-1.24694E-1,-2.65472E-1
-1.67099E-1,-2.66189E-1
-1.83700E-1,-2.63595E-1
-1.96991E-1,-2.59216E-1
-2.24441E-1,-2.40150E-1
-2.54425E-1,-2.07794E-1
-2.92587E-1,-1.87027E-1
-3.24340E-1,-1.74438E-1
-3.4758E-1,-1.52435E-1
-3.58261E-1,-1.25335E-1
-3.61511E-1,-0.74752E-1
-3.66531E-1,-0.33248E-1
-3.83682E-1,0.14923E-1
-3.80630E-1,0.42602E-1
-3.79577E-1,0.54351E-1
-3.67340E-1,0.83160E-1
-3.47427E-1,1.19644E-1
-3.33984E-1,1.62414E-1
-3.21365E-1,1.92947E-1
-3.18664E-1,2.09365E-1
-3.09494E-1,2.29507E-1
-2.70736E-1,2.54989E-1
-2.31216E-1,2.73529E-1
-1.97006E-1,3.00750E-1
-2.21496E-1,3.03192E-1
-1.60736E-1,3.17535E-1
-1.35757E-1,3.19931E-1
-0.96969E-1,3.15200E-1
-0.51879E-1,3.14224E-1
-0.26184E-1,3.14071E-1
-0.13259E-1,3.21380E-1
0.01663E-1,3.21121E-1
0.33309E-1,2.99484E-1
0.66314E-1,2.70065E-1
1.00769E-1,2.51861E-1
1.24115E-1,2.44880E-1
1.31729E-1,2.39891E-1
1.28112E-1,2.17308E-1
1.28654E-1,1.82060E-1
1.40922E-1,1.38664E-1
1.55548E-1,1.17309E-1
1.71127E-1,1.15325E-1
1.70288E-1,1.16142E-1
1.48941E-1,1.03111E-1
1.32759E-1,0.70770E-1
1.22127E-1,3.01933E-2
1.29486E-1,0.10231E-1
1.40190E-1,0.06469E-1
1.28738E-1,0.18447E-1
1.03706E-1,2.78053E-2
6.99882E-2,1.57470E-2
5.18417E-2,0.24795E-2
6.33544E-2,-1.02806E-2
7.58323E-2,-0.87432E-2
8.21800E-2,0.80871E-2
7.11174E-2,1.26266E-2
4.76093E-2,0.79746E-2
4.08687E-2,-1.05896E-2
4.04682E-2,-3.00273E-2
4.59499E-2,-2.25143E-2
5.02147E-2,-1.08242E-2
2.93550E-2,-0.01211E-2
1.14765E-2,4.56953E-3
2.79378E-3,-8.78572E-3
1.10611E-2,-1.22456E-2
3.07121E-2,-1.28593E-2
2.93741E-2,-0.43335E-2
1.59721E-2,1.26934E-2
0.67043E-3,1.00970E-2
-1.09729E-2,4.11891E-3
5.32126E-3,-1.81460E-3
1.77068E-2,-0.14553E-2
2.29625E-2,2.51035E-2
2.56214E-2,4.27265E-2
1.52359E-2,4.20074E-2
2.37035E-2,2.94895E-2
4.54864E-2,-0.17738E-2
6.50711E-2,-1.35726E-2
8.22792E-2,-1.24397E-2
6.72035E-2,-1.07154E-2
4.75997E-2,-0.80242E-2
3.83606E-2,-4.04892E-2
2.86636E-2,-7.16667E-2
4.28810E-2,-8.15048E-2
4.95910E-2,-8.08410E-2
4.00047E-2,-5.53779E-2
2.92625E-2,-5.88493E-2
-0.77590E-2,-8.66432E-2
-2.46391E-2,-1.08505E-1
-0.23315E-1,-1.31645E-1
-2.66571E-2,-1.13460E-1
-1.94206E-2,-8.98094E-2
-5.47142E-2,-8.58192E-2
-9.84916E-2,-7.46841E-2
-1.11690E-1,-8.75930E-2
-1.17492E-1,-9.32617E-2
-8.78982E-2,-7.69653E-2
-8.29582E-2,-6.95037E-2
-1.17206E-1,-4.12902E-2
-1.42807E-1,-0.32508E-1
-1.73873E-1,-0.40626E-1
-1.60881E-1,-0.32051E-1
-1.39556E-1,-0.35408E-1
-1.53121E-1,-0.01831E-1
-1.64108E-1,0.44700E-1
-1.91528E-1,0.56709E-1
-1.96861E-1,0.68603E-1
-1.62109E-1,0.47538E-1
-1.46354E-1,0.50491E-1
-1.32339E-1,0.98159E-1
END
BEGIN
-8.22052E-1,-5.60668E-1
-8.77410E-1,-4.82757E-1
-9.15374E-1,-3.88855E-1
-9.49127E-1,-3.04687E-1
-9.76196E-1,-2.13165E-1
-9.91516E-1,-1.25427E-1
-1.01416E0,-0.31738E-1
-1.01214E0,0.82458E-1
-9.90966E-1,1.76696E-1
-9.70764E-1,2.69897E-1
-9.35455E-1,3.56140E-1
-9.0802E-1,4.38842E-1
-8.61450E-1,5.38909E-1
-7.90557E-1,6.10412E-1
-7.35748E-1,6.72576E-1
-6.67511E-1,7.39196E-1
-6.03393E-1,7.90222E-1
-5.34271E-1,8.56781E-1
-4.35821E-1,9.02862E-1
-3.52478E-1,9.26483E-1
-2.66418E-1,9.55017E-1
-1.81884E-1,9.62921E-1
-1.06811E-1,9.82360E-1
-0.06500E-1,9.94232E-1
0.80749E-1,9.79095E-1
1.61773E-1,9.74304E-1
2.5177E-1,9.51477E-1
3.22540E-1,9.29321E-1
4.11773E-1,9.16564E-1
5.04760E-1,8.68682E-1
5.78949E-1,8.16375E-1
6.55975E-1,7.55981E-1
7.12524E-1,6.88964E-1
7.71942E-1,6.2854E-1
8.30566E-1,5.48889E-1
8.67126E-1,4.68689E-1
9.01367E-1,3.90197E-1
9.23248E-1,3.08898E-1
9.45831E-1,2.40417E-1
9.73663E-1,1.53167E-1
9.76684E-1,0.63537E-1
9.81536E-1,-0.17395E-1
9.75067E-1,-1.06994E-1
9.59381E-1,-1.83776E-1
9.51690E-1,-2.68951E-1
9.16046E-1,-3.58459E-1
8.79241E-1,-4.29565E-1
8.39508E-1,-5.07782E-1
7.83752E-1,-5.70922E-1
7.45697E-1,-6.25061E-1
6.97143E-1,-7.00500E-1
6.30859E-1,-7.60223E-1
5.66131E-1,-8.17932E-1
4.83306E-1,-8.68957E-1
4.08172E-1,-8.97705E-1
3.35723E-1,-9.36401E-1
2.45758E-1,-9.61975E-1
1.62384E-1,-9.77386E-1
0.68237E-1,-9.87670E-1
-0.11474E-1,-9.72900E-1
-0.76110E-1,-9.73815E-1
-1.62963E-1,-9.73754E-1
-2.39624E-1,-9.58435E-1
-3.29620E-1,-9.48211E-1
-4.27520E-1,-9.06189E-1
-4.90692E-1,-8.56140E-1
-5.65155E-1,-8.26049E-1
-6.42913E-1,-7.66418E-1
-7.04040E-1,-7.05535E-1
-7.69897E-1,-6.31286E-1
-7.99163E-1,-5.47119E-1
-8.29284E-1,-4.95056E-1
-8.74176E-1,-4.23889E-1
-8.95263E-1,-3.59100E-1
-9.36187E-1,-2.94921E-1
-9.61883E-1,-2.02850E-1
-9.66766E-1,-1.32904E-1
-9.99939E-1,-0.52764E-1
-9.94293E-1,0.48980E-1
-9.88555E-1,1.21002E-1
-9.94567E-1,2.26440E-1
-9.45312E-1,3.29315E-1
-9.05334E-1,4.03625E-1
-8.45336E-1,4.84527E-1
-7.91503E-1,5.13946E-1
-7.79937E-1,5.79406E-1
-7.06939E-1,6.63787E-1
-6.44195E-1,6.86035E-1
-6.07940E-1,7.50122E-1
-5.28717E-1,7.95684E-1
-4.88616E-1,8.34564E-1
-4.03625E-1,9.19250E-1
-2.75207E-1,9.22699E-1
-2.12890E-1,9.12475E-1
-1.28723E-1,9.17633E-1
-0.75286E-1,8.94989E-1
-0.20721E-1,9.15618E-1
0.64727E-1,8.97827E-1
0.92742E-1,8.82659E-1
1.57287E-1,9.13543E-1
2.44049E-1,8.99688E-1
3.06640E-1,8.99078E-1
4.13787E-1,8.89862E-1
4.96032E-1,8.29132E-1
5.69274E-1,7.94250E-1
6.61315E-1,7.05139E-1
6.73370E-1,6.21063E-1
7.09991E-1,5.81939E-1
7.48535E-1,5.14282E-1
7.70111E-1,4.65118E-1
8.05999E-1,4.00604E-1
8.09997E-1,3.43139E-1
8.46618E-1,3.13049E-1
8.97308E-1,2.38922E-1
9.16351E-1,1.57867E-1
9.31457E-1,0.75836E-1
9.13543E-1,-0.09704E-1
9.07287E-1,-0.59661E-1
9.01855E-1,-1.39068E-1
8.75762E-1,-1.96411E-1
8.76068E-1,-2.51892E-1
8.60015E-1,-3.26721E-1
8.38226E-1,-3.79425E-1
8.23852E-1,-4.52667E-1
7.82470E-1,-5.21911E-1
7.57110E-1,-5.84686E-1
7.13165E-1,-6.68335E-1
6.49017E-1,-7.34680E-1
5.81085E-1,-7.87567E-1
5.03692E-1,-8.22174E-1
4.51293E-1,-8.52417E-1
3.82843E-1,-9.08935E-1
2.95471E-1,-9.37988E-1
2.24304E-1,-9.61975E-1
1.35528E-1,-9.80743E-1
0.62683E-1,-9.80133E-1
-0.16052E-1,-1.00054E0
-1.18743E-1,-9.90387E-1
-1.99096E-1,-9.66247E-1
-2.78015E-1,-9.44091E-1
-3.46405E-1,-9.10034E-1
-4.07440E-1,-8.87573E-1
-4.85839E-1,-8.53393E-1
-5.50415E-1,-8.06762E-1
-6.16638E-1,-7.65411E-1
-6.78558E-1,-7.07763E-1
-7.26135E-1,-6.55761E-1
-7.90161E-1,-6.02417E-1
-8.35571E-1,-5.24292E-1
-8.72802E-1,-4.51568E-1
-8.98193E-1,-3.70819E-1
-9.15344E-1,-3.06854E-1
-9.39331E-1,-2.39349E-1
-9.55566E-1,-1.63909E-1
-9.66430E-1,-0.87738E-1
-9.65240E-1,-0.08544E-1
-9.63287E-1,0.62713E-1
-9.60479E-1,1.40350E-1
-9.43298E-1,2.17559E-1
-9.25079E-1,2.86712E-1
-8.98498E-1,3.56933E-1
-8.69842E-1,4.19433E-1
-8.49334E-1,4.97222E-1
-8.01727E-1,5.68969E-1
-7.65014E-1,6.31195E-1
-7.07397E-1,7.03735E-1
-6.45874E-1,7.48901E-1
-5.96374E-1,8.08868E-1
-5.10803E-1,8.58734E-1
-4.37652E-1,8.91662E-1
-3.54278E-1,9.22607E-1
-2.84149E-1,9.25476E-1
-2.33642E-1,9.45343E-1
-1.53533E-1,9.79797E-1
-0.71014E-1,9.88098E-1
0.17425E-1,9.98901E-1
1.05285E-1,9.75677E-1
1.60919E-1,9.63378E-1
2.45758E-1,9.73785E-1
3.37127E-1,9.34875E-1
4.09179E-1,9.02008E-1
4.87152E-1,8.49548E-1
5.25482E-1,8.00933E-1
5.80810E-1,7.78106E-1
6.50299E-1,7.33245E-1
7.05535E-1,6.81304E-1
7.69866E-1,6.23382E-1
8.06854E-1,5.45166E-1
8.44940E-1,4.91546E-1
8.93219E-1,4.20654E-1
9.17724E-1,3.41461E-1
9.41528E-1,2.70233E-1
9.50103E-1,1.86035E-1
9.55688E-1,1.24267E-1
9.67529E-1,0.47119E-1
9.63958E-1,-0.31066E-1
9.60632E-1,-1.02783E-1
9.51782E-1,-1.75842E-1
9.35211E-1,-2.39929E-1
9.24652E-1,-3.16589E-1
8.94043E-1,-3.97766E-1
END
BEGIN
-8.35571E-1,-5.46264E-1
-8.85711E-1,-4.72076E-1
-9.17633E-1,-3.74145E-1
-9.45098E-1,-3.04870E-1
-9.89166E-1,-2.09411E-1
-9.97680E-1,-1.05682E-1
-1.00708E0,-0.14465E-1
-9.97222E-1,0.90271E-1
-9.81628E-1,1.67602E-1
-9.79431E-1,2.62085E-1
-9.42504E-1,3.66394E-1
-8.99444E-1,4.47967E-1
-8.45886E-1,5.34210E-1
-7.87872E-1,5.94848E-1
-7.46887E-1,6.67327E-1
-6.74377E-1,7.44842E-1
-5.98053E-1,7.96020E-1
-5.19592E-1,8.51013E-1
-4.32922E-1,8.76892E-1
-3.74450E-1,9.08569E-1
-2.88116E-1,9.60449E-1
-1.91223E-1,9.76806E-1
-1.05529E-1,9.95239E-1
-0.04425E-1,9.93591E-1
0.66558E-1,9.80896E-1
1.5448E-1,9.92797E-1
2.57690E-1,9.71252E-1
3.42865E-1,9.43298E-1
4.34875E-1,8.99078E-1
4.98016E-1,8.48480E-1
5.69641E-1,8.18847E-1
6.54449E-1,7.63000E-1
7.20855E-1,6.97174E-1
7.85278E-1,6.23626E-1
8.22967E-1,5.43029E-1
8.59771E-1,4.85748E-1
9.14917E-1,4.09668E-1
9.49127E-1,3.19732E-1
9.76348E-1,2.28302E-1
9.81018E-1,1.30218E-1
9.75433E-1,0.61401E-1
9.94720E-1,-0.13946E-1
9.95483E-1,-1.10656E-1
9.82147E-1,-2.02331E-1
9.52026E-1,-2.99255E-1
9.08264E-1,-3.70910E-1
8.85345E-1,-4.36340E-1
8.50341E-1,-5.20904E-1
8.01635E-1,-5.95031E-1
7.40753E-1,-6.70745E-1
6.65374E-1,-7.22168E-1
6.11938E-1,-7.63061E-1
5.52703E-1,-8.24890E-1
4.78881E-1,-8.72436E-1
3.98895E-1,-9.18212E-1
3.06304E-1,-9.42901E-1
2.33001E-1,-9.54467E-1
1.56860E-1,-9.77356E-1
0.70220E-1,-9.91729E-1
-0.17334E-1,-1.00189E0
-1.16424E-1,-9.94293E-1
-1.93023E-1,-9.62554E-1
-2.62756E-1,-9.52819E-1
-3.48358E-1,-9.32037E-1
-4.32098E-1,-9.06677E-1
-5.27069E-1,-8.61908E-1
-5.89477E-1,-7.91076E-1
-6.36627E-1,-7.49847E-1
-7.07824E-1,-7.02697E-1
-7.71545E-1,-6.37695E-1
-8.36608E-1,-5.63842E-1
-8.74206E-1,-4.61456E-1
-8.77380E-1,-3.97918E-1
-9.20593E-1,-3.45428E-1
-9.56939E-1,-2.59368E-1
-9.84985E-1,-1.77124E-1
-9.97436E-1,-0.59356E-1
-9.56573E-1,0.17608E-1
-9.65332E-1,0.60913E-1
-9.78027E-1,1.47338E-1
-9.74762E-1,2.34649E-1
-9.47479E-1,3.56323E-1
-8.60870E-1,4.26025E-1
-8.37677E-1,4.54193E-1
-8.17169E-1,5.37963E-1
-7.70721E-1,5.99182E-1
-7.43438E-1,6.93756E-1
-6.20697E-1,7.87597E-1
-5.20813E-1,7.73284E-1
-4.89715E-1,7.99011E-1
-4.24926E-1,8.37707E-1
-3.77990E-1,8.83087E-1
-2.64129E-1,9.45495E-1
-1.49200E-1,9.07409E-1
-1.13555E-1,8.82995E-1
-0.61584E-1,8.88855E-1
-0.24139E-1,9.05212E-1
0.79254E-1,9.60784E-1
2.18170E-1,8.95813E-1
2.34619E-1,8.27453E-1
2.72216E-1,8.27026E-1
3.19397E-1,8.13598E-1
3.86413E-1,8.35357E-1
5.11322E-1,7.82104E-1
5.39886E-1,6.94610E-1
5.73181E-1,6.72271E-1
6.18072E-1,6.20758E-1
6.44928E-1,6.08673E-1
7.48596E-1,5.7901E-1
7.98400E-1,4.59716E-1
7.91442E-1,3.98071E-1
8.10607E-1,3.47595E-1
8.24585E-1,3.13079E-1
8.97277E-1,2.78839E-1
9.53002E-1,1.54174E-1
5.20202E-1,7.77618E-1
9.21112E-1,0.04608E-1
9.09301E-1,-0.49682E-1
9.37133E-1,-0.90911E-1
9.71008E-1,-2.09320E-1
9.22607E-1,-3.27117E-1
8.70117E-1,-3.90319E-1
8.24310E-1,-4.39788E-1
8.06671E-1,-4.72381E-1
8.07830E-1,-5.57434E-1
7.42279E-1,-6.62200E-1
6.59179E-1,-7.15271E-1
5.90118E-1,-7.52014E-1
5.43914E-1,-7.71484E-1
5.21820E-1,-8.28338E-1
4.39147E-1,-9.12048E-1
3.29254E-1,-9.43267E-1
2.37548E-1,-9.48730E-1
1.70349E-1,-9.48120E-1
1.16455E-1,-9.67071E-1
0.33050E-1,-9.98626E-1
-0.65612E-1,-9.93042E-1
-1.54815E-1,-9.74914E-1
-2.30285E-1,-9.42627E-1
-2.92633E-1,-9.23065E-1
-3.63861E-1,-9.13024E-1
-4.47876E-1,-8.80859E-1
-5.20080E-1,-8.36944E-1
-5.88439E-1,-7.82165E-1
-6.42822E-1,-7.27417E-1
-6.96868E-1,-6.77490E-1
-7.54943E-1,-6.21307E-1
-8.01788E-1,-5.57434E-1
-8.41217E-1,-4.87243E-1
-8.65661E-1,-4.16503E-1
-8.98132E-1,-3.51196E-1
-9.23767E-1,-2.79541E-1
-9.44488E-1,-2.05719E-1
-9.57885E-1,-1.33026E-1
-9.61425E-1,-0.55755E-1
-9.64874E-1,0.16479E-1
-9.59503E-1,0.98907E-1
-9.49585E-1,1.75018E-1
-9.34478E-1,2.49115E-1
-9.14276E-1,3.19976E-1
-8.90869E-1,3.89007E-1
-8.55682E-1,4.66491E-1
-8.10272E-1,5.35003E-1
-7.63397E-1,5.98571E-1
-7.17651E-1,6.54998E-1
-6.68060E-1,7.13012E-1
-6.12213E-1,7.65716E-1
-5.45135E-1,8.11706E-1
-4.71069E-1,8.49456E-1
-3.99383E-1,8.72528E-1
-3.44512E-1,9.03930E-1
-2.73254E-1,9.41345E-1
-1.89544E-1,9.60968E-1
-1.11297E-1,9.68200E-1
-0.31311E-1,9.62951E-1
0.28198E-1,9.59930E-1
1.08520E-1,9.72168E-1
1.95465E-1,9.64691E-1
2.72491E-1,9.43023E-1
3.46771E-1,9.11804E-1
4.02069E-1,8.74755E-1
4.70367E-1,8.57605E-1
5.49346E-1,8.17657E-1
6.14471E-1,7.68737E-1
6.75506E-1,7.19390E-1
7.25341E-1,6.57775E-1
7.68219E-1,6.09252E-1
8.26599E-1,5.43335E-1
8.67095E-1,4.70184E-1
9.08203E-1,4.01733E-1
9.37561E-1,3.26446E-1
9.55261E-1,2.56927E-1
9.80773E-1,1.82464E-1
9.86663E-1,0.94116E-1
9.86633E-1,0.17791E-1
9.91668E-1,-0.61401E-1
9.88525E-1,-1.39007E-1
9.81262E-1,-2.16400E-1
9.52758E-1,-3.00476E-1
9.15679E-1,-3.71765E-1
8.79119E-1,-4.42291E-1
END
BEGIN
5.89313E-2,-0.16250E-2
6.14051E-2,-0.90427E-2
5.92422E-2,-2.20718E-2
5.97038E-2,-3.29837E-2
6.18324E-2,-4.87308E-2
5.53512E-2,-5.67760E-2
4.87079E-2,-6.10218E-2
3.07540E-2,-6.46095E-2
1.53999E-2,-6.62384E-2
0.02403E-2,-7.54890E-2
-1.66587E-2,-8.12645E-2
-2.88848E-2,-8.27903E-2
-4.23851E-2,-7.75566E-2
-5.21125E-2,-6.77108E-2
-6.48155E-2,-5.96351E-2
-8.01963E-2,-5.03997E-2
-9.28382E-2,-4.15267E-2
-1.03496E-1,-3.20663E-2
-1.06597E-1,-1.86386E-2
-1.09314E-1,-0.75988E-2
-1.14276E-1,0.55427E-2
-1.17134E-1,1.92222E-2
-1.18362E-1,2.98957E-2
-1.16859E-1,3.82919E-2
-1.11125E-1,4.5681E-2
-1.01276E-1,4.94537E-2
-9.26132E-2,5.46722E-2
-8.16001E-2,5.93071E-2
-7.22465E-2,6.32286E-2
-5.65910E-2,6.55632E-2
-4.24194E-2,6.25877E-2
-3.26423E-2,6.35948E-2
-2.2892E-2,6.56623E-2
-1.84135E-2,6.73446E-2
-1.38969E-2,6.83136E-2
-1.15203E-2,6.30645E-2
-1.03473E-2,5.64155E-2
-0.77781E-2,5.39379E-2
-0.82321E-2,5.43708E-2
-1.12724E-2,6.25991E-2
-1.38092E-2,6.41975E-2
-2.30999E-2,5.68599E-2
-3.18527E-2,5.25474E-2
-3.24497E-2,4.75006E-2
-2.94895E-2,5.44395E-2
-2.05154E-2,6.25457E-2
-2.12631E-2,6.90765E-2
-3.01208E-2,8.03985E-2
-3.59344E-2,8.65898E-2
-4.12330E-2,9.39827E-2
-3.02314E-2,1.01673E-1
-2.32086E-2,1.00215E-1
-2.46810E-2,1.09588E-1
-2.03857E-2,1.18675E-1
-1.83715E-2,1.23249E-1
-0.04478E-1,1.28723E-1
1.09443E-2,1.22615E-1
2.04048E-2,1.22226E-1
0.34980E-1,1.27922E-1
0.46714E-1,1.28227E-1
0.62370E-1,1.35841E-1
0.85075E-1,1.27029E-1
9.29031E-2,1.20189E-1
1.03340E-1,1.25373E-1
1.11602E-1,1.21898E-1
1.15394E-1,1.18789E-1
1.29280E-1,0.98114E-1
1.27990E-1,0.71975E-1
1.35429E-1,0.58448E-1
1.49391E-1,0.42488E-1
1.57150E-1,0.30540E-1
1.72546E-1,0.18264E-1
1.72843E-1,-0.09796E-1
1.68022E-1,-0.24887E-1
1.76193E-1,-0.36819E-1
1.83174E-1,-0.50483E-1
1.95190E-1,-0.62034E-1
1.90475E-1,-0.85990E-1
1.75018E-1,-0.87379E-1
1.67587E-1,-0.92590E-1
1.58699E-1,-1.05682E-1
1.46293E-1,-1.28479E-1
1.27906E-1,-1.53167E-1
1.12686E-1,-1.64962E-1
1.06613E-1,-1.77406E-1
0.96481E-1,-1.89659E-1
0.8461E-1,-1.96807E-1
0.72250E-1,-2.06451E-1
0.43594E-1,-2.23007E-1
0.27450E-1,-2.24693E-1
0.13443E-1,-2.34863E-1
-0.02159E-1,-2.33001E-1
-0.21385E-1,-2.33139E-1
-0.46554E-1,-2.34298E-1
-0.73822E-1,-2.32513E-1
-1.02661E-1,-2.39929E-1
-1.30653E-1,-2.36145E-1
-1.44386E-1,-2.36167E-1
-1.67465E-1,-2.47673E-1
-2.03376E-1,-2.34115E-1
-2.16377E-1,-2.22625E-1
-2.30964E-1,-2.07824E-1
-2.27943E-1,-1.97097E-1
-2.48397E-1,-1.88613E-1
-2.70553E-1,-1.55532E-1
-2.80365E-1,-1.32217E-1
-3.01818E-1,-1.12915E-1
-3.12606E-1,-0.86853E-1
-3.19015E-1,-0.65139E-1
-3.30795E-1,-0.36346E-1
-3.38378E-1,0.00183E-1
-3.48724E-1,0.32806E-1
-3.46954E-1,0.64498E-1
-3.38928E-1,0.72174E-1
-3.40179E-1,0.87265E-1
-3.08639E-1,1.33499E-1
-3.07815E-1,1.51443E-1
-2.87902E-1,1.88140E-1
-2.68127E-1,2.13546E-1
-2.51998E-1,2.32070E-1
-2.41882E-1,2.50167E-1
-2.19970E-1,2.72827E-1
-1.93328E-1,2.95593E-1
-1.57440E-1,3.04672E-1
-1.42822E-1,3.04016E-1
-1.34231E-1,3.12912E-1
-1.09573E-1,3.25515E-1
-0.78994E-1,3.28720E-1
-0.41763E-1,3.19992E-1
-0.16372E-1,3.00384E-1
-0.01052E-1,2.88238E-1
0.24917E-1,2.91320E-1
0.59295E-1,2.82196E-1
0.89630E-1,2.68402E-1
1.02256E-1,2.43339E-1
1.00631E-1,2.28828E-1
1.07421E-1,2.18864E-1
1.19377E-1,1.94351E-1
1.28135E-1,1.68739E-1
1.32957E-1,1.36024E-1
1.21856E-1,1.10313E-1
1.08612E-1,9.28192E-2
9.79805E-2,7.17010E-2
8.96987E-2,5.30166E-2
9.12666E-2,2.60505E-2
7.71026E-2,0.38261E-2
6.57196E-2,-0.11711E-2
5.43708E-2,-0.46062E-2
3.99971E-2,-0.17414E-2
3.21197E-2,-0.54683E-2
9.39655E-3,-8.64791E-3
-1.17173E-2,4.36162E-3
-2.59208E-2,1.84507E-2
-4.35333E-2,3.35025E-2
-5.02758E-2,4.09088E-2
-6.25343E-2,3.43551E-2
-7.86552E-2,4.16030E-2
-7.90100E-2,5.80406E-2
-7.77702E-2,7.73849E-2
-6.79435E-2,9.73053E-2
-6.28929E-2,9.92813E-2
-6.79931E-2,1.06376E-1
-0.57769E-1,1.25106E-1
-0.41259E-1,1.42219E-1
-0.19149E-1,1.71096E-1
0.01518E-1,1.82083E-1
-0.05561E-1,1.94183E-1
-0.05737E-1,2.14592E-1
0.04325E-1,2.17430E-1
0.19485E-1,2.19665E-1
0.43884E-1,2.13264E-1
0.51971E-1,2.02438E-1
0.53581E-1,2.07153E-1
0.65528E-1,2.06138E-1
0.78453E-1,2.00195E-1
1.07032E-1,1.82289E-1
1.23268E-1,1.59904E-1
1.31980E-1,1.57890E-1
1.47415E-1,1.62414E-1
1.5168E-1,1.58172E-1
1.58393E-1,1.47361E-1
1.58538E-1,1.24961E-1
1.57844E-1,1.11442E-1
1.64405E-1,1.05720E-1
1.60743E-1,1.03775E-1
1.62956E-1,1.03065E-1
1.57455E-1,0.71281E-1
1.43173E-1,0.44899E-1
1.50825E-1,0.24551E-1
1.60301E-1,0.10665E-1
1.73698E-1,0.21659E-1
1.85684E-1,0.17074E-1
1.69860E-1,0.05256E-1
1.57768E-1,-0.10780E-1
1.54457E-1,-0.28327E-1
1.63528E-1,-0.22506E-1
1.92009E-1,-0.21064E-1
1.79046E-1,-0.32066E-1
1.45286E-1,-0.33126E-1
1.16256E-1,-4.71649E-2
1.04728E-1,-5.72929E-2
END
