CITIFILE A.01.01
#NA VERSION HP8510C.08.10
NAME DATA
#NA REGISTER 1
VAR FREQ MAG 201
DATA S[1,1] RI
DATA S[2,1] RI
DATA S[1,2] RI
DATA S[2,2] RI
SEG_LIST_BEGIN
SEG 8000000000 12000000000 201
SEG_LIST_END
COMMENT       YEAR MONTH DAY HOUR MINUTE SECONDS
CONSTANT TIME 2013   09   26  18    19    11.0
BEGIN
-8.07647E-2,-0.07934E-2
-7.91778E-2,1.33132E-2
-7.49168E-2,3.06320E-2
-6.99043E-2,4.32891E-2
-6.55174E-2,5.61027E-2
-5.44776E-2,6.37359E-2
-4.49676E-2,7.00607E-2
-2.93960E-2,7.53059E-2
-1.99317E-2,7.78808E-2
-1.03721E-2,8.26988E-2
0.05874E-2,8.20655E-2
1.07803E-2,8.15048E-2
2.43339E-2,7.72094E-2
3.50112E-2,7.32727E-2
4.32510E-2,6.93092E-2
5.01632E-2,6.54869E-2
5.60913E-2,5.85842E-2
6.45065E-2,4.93507E-2
7.06214E-2,3.87725E-2
7.69615E-2,2.83126E-2
8.13942E-2,2.20947E-2
8.30612E-2,1.45378E-2
8.45489E-2,0.59738E-2
8.53996E-2,-0.96130E-2
8.04061E-2,-2.73895E-2
7.53135E-2,-3.74527E-2
7.04917E-2,-4.60815E-2
6.26869E-2,-5.07812E-2
5.42774E-2,-5.90915E-2
3.93295E-2,-6.50787E-2
2.74391E-2,-6.89849E-2
1.72195E-2,-7.17239E-2
0.96588E-2,-6.85997E-2
0.72097E-2,-6.69174E-2
0.20980E-2,-6.54068E-2
-0.74691E-2,-6.69326E-2
-1.77269E-2,-6.34613E-2
-2.28004E-2,-5.96141E-2
-2.34127E-2,-5.96656E-2
-2.99148E-2,-6.31218E-2
-4.01706E-2,-6.11591E-2
-4.88128E-2,-5.20916E-2
-5.42793E-2,-4.49142E-2
-5.56316E-2,-3.81965E-2
-5.71022E-2,-3.69720E-2
-6.20594E-2,-3.20434E-2
-6.71844E-2,-2.23617E-2
-7.02781E-2,-1.37443E-2
-7.20596E-2,-0.44899E-2
-7.06520E-2,-0.10261E-2
-7.20329E-2,0.57640E-2
-6.89163E-2,1.67694E-2
-6.33964E-2,2.73017E-2
-5.93433E-2,3.90014E-2
-5.33752E-2,4.43935E-2
-5.04932E-2,4.40082E-2
-4.73995E-2,4.38003E-2
-4.12139E-2,4.83436E-2
-3.36799E-2,5.90114E-2
-2.23503E-2,7.04422E-2
-1.96037E-2,7.17010E-2
-1.52587E-2,7.52944E-2
-0.42381E-2,7.39173E-2
1.02195E-2,7.14111E-2
2.83927E-2,7.49855E-2
4.37011E-2,7.35893E-2
5.06324E-2,7.17659E-2
5.34896E-2,6.72988E-2
6.16188E-2,5.97000E-2
7.65266E-2,5.16204E-2
9.42993E-2,4.09698E-2
1.06910E-1,3.87001E-2
1.2146E-1,3.18489E-2
1.30348E-1,0.13244E-1
1.36291E-1,-0.06614E-1
1.47018E-1,-0.30387E-1
1.56112E-1,-0.53688E-1
1.55845E-1,-0.79361E-1
1.49719E-1,-0.97366E-1
1.37489E-1,-1.19422E-1
1.32400E-1,-1.41304E-1
1.22894E-1,-1.70600E-1
1.10389E-1,-1.86363E-1
0.99243E-1,-2.01698E-1
0.71861E-1,-2.18193E-1
0.48011E-1,-2.32704E-1
0.25939E-1,-2.56362E-1
0.04211E-1,-2.69714E-1
-0.21835E-1,-2.79983E-1
-0.52352E-1,-2.78656E-1
-0.89355E-1,-2.72598E-1
-1.20513E-1,-2.72323E-1
-1.58584E-1,-2.71133E-1
-1.77230E-1,-2.65594E-1
-1.95465E-1,-2.56759E-1
-2.25341E-1,-2.39959E-1
-2.56210E-1,-2.13241E-1
-2.89566E-1,-1.93344E-1
-3.16192E-1,-1.81655E-1
-3.40408E-1,-1.55883E-1
-3.52096E-1,-1.25625E-1
-3.60382E-1,-0.80444E-1
-3.68026E-1,-0.43960E-1
-3.83865E-1,-0.01083E-1
-3.81271E-1,0.29541E-1
-3.77700E-1,0.48095E-1
-3.68484E-1,0.77911E-1
-3.56094E-1,1.14898E-1
-3.44177E-1,1.55075E-1
-3.29620E-1,1.82357E-1
-3.21395E-1,2.02285E-1
-3.07464E-1,2.25326E-1
-2.75604E-1,2.54730E-1
-2.41409E-1,2.76275E-1
-2.09869E-1,2.98721E-1
-1.84478E-1,3.09204E-1
-1.63772E-1,3.13873E-1
-1.35818E-1,3.21029E-1
-0.96649E-1,3.24951E-1
-0.56503E-1,3.23593E-1
-0.35064E-1,3.18740E-1
-0.18020E-1,3.18435E-1
0.03128E-1,3.13385E-1
0.38894E-1,2.97683E-1
0.72708E-1,2.75238E-1
0.9758E-1,2.59277E-1
1.14051E-1,2.48413E-1
1.23374E-1,2.34130E-1
1.27227E-1,2.08267E-1
1.36909E-1,1.76918E-1
1.48040E-1,1.43905E-1
1.55822E-1,1.26525E-1
1.61399E-1,1.18301E-1
1.57753E-1,1.11450E-1
1.46102E-1,0.92536E-1
1.36253E-1,0.64216E-1
1.28852E-1,0.36544E-1
1.29814E-1,0.20477E-1
1.29089E-1,0.15258E-1
1.18541E-1,1.75743E-2
1.01135E-1,1.88827E-2
7.88612E-2,0.95100E-2
6.36749E-2,0.28343E-2
6.39686E-2,-0.27771E-2
6.93817E-2,-0.24070E-2
7.13768E-2,0.18501E-2
6.61697E-2,0.42495E-2
5.49278E-2,0.28152E-2
4.76570E-2,-0.46176E-2
4.18949E-2,-1.47609E-2
3.77655E-2,-1.56707E-2
3.63845E-2,-1.16710E-2
2.76670E-2,-0.80471E-2
2.07567E-2,-0.47578E-2
1.53799E-2,-5.62095E-3
-4.84962E-2,8.01696E-2
5.86738E-2,8.01582E-2
2.01082E-2,0.08506E-2
1.36237E-2,4.42695E-3
7.30085E-3,4.85086E-3
4.92572E-3,5.00536E-3
1.16496E-2,6.83355E-3
1.82590E-2,1.07297E-2
1.97143E-2,2.06089E-2
2.06689E-2,2.79903E-2
2.27937E-2,2.67953E-2
3.32584E-2,1.94206E-2
4.93278E-2,0.35476E-2
6.19564E-2,-0.71678E-2
6.80809E-2,-1.13563E-2
5.91182E-2,-1.60522E-2
4.85267E-2,-2.15873E-2
4.27341E-2,-4.25167E-2
3.77159E-2,-6.32057E-2
4.04167E-2,-7.20748E-2
4.07409E-2,-7.40165E-2
3.18183E-2,-6.52771E-2
2.21939E-2,-7.01179E-2
0.05950E-2,-8.7677E-2
-1.50756E-2,-1.04038E-1
-2.23007E-2,-1.16783E-1
-3.07960E-2,-1.08871E-1
-3.27110E-2,-9.53788E-2
-5.48248E-2,-9.19265E-2
-8.44879E-2,-8.49952E-2
-1.00582E-1,-8.53042E-2
-1.09153E-1,-8.40263E-2
-1.00574E-1,-7.42950E-2
-1.00605E-1,-6.84127E-2
-1.19869E-1,-5.32188E-2
-1.37664E-1,-0.42625E-1
-1.54670E-1,-0.36598E-1
-1.54716E-1,-0.25390E-1
-1.49803E-1,-0.21087E-1
-1.58515E-1,-0.01068E-1
-1.66336E-1,0.26435E-1
-1.78131E-1,0.42511E-1
-1.74781E-1,0.57571E-1
-1.58523E-1,0.55648E-1
-1.52656E-1,0.66360E-1
-1.46690E-1,0.93048E-1
END
BEGIN
-8.10394E-1,-5.75195E-1
-8.67218E-1,-4.99542E-1
-9.07287E-1,-4.06585E-1
-9.42047E-1,-3.23761E-1
-9.71710E-1,-2.33001E-1
-9.89166E-1,-1.45507E-1
-1.01306E0,-0.51757E-1
-1.01336E0,0.61279E-1
-9.93408E-1,1.56585E-1
-9.75677E-1,2.50183E-1
-9.42016E-1,3.36486E-1
-9.17266E-1,4.19097E-1
-8.72863E-1,5.20813E-1
-8.02825E-1,5.93689E-1
-7.49694E-1,6.56158E-1
-6.82525E-1,7.25677E-1
-6.19934E-1,7.76458E-1
-5.51971E-1,8.44512E-1
-4.54650E-1,8.94134E-1
-3.71215E-1,9.19403E-1
-2.86346E-1,9.49249E-1
-2.01843E-1,9.58923E-1
-1.27166E-1,9.79126E-1
-0.28015E-1,9.94415E-1
0.58837E-1,9.80712E-1
1.40777E-1,9.77508E-1
2.31323E-1,9.56573E-1
3.02124E-1,9.35882E-1
3.91723E-1,9.24499E-1
4.86297E-1,8.78906E-1
5.60943E-1,8.29071E-1
6.39099E-1,7.70965E-1
6.98211E-1,7.03094E-1
7.58331E-1,6.45477E-1
8.19458E-1,5.67718E-1
8.57910E-1,4.86084E-1
8.92700E-1,4.08386E-1
9.15832E-1,3.28491E-1
9.38934E-1,2.60589E-1
9.69238E-1,1.75506E-1
9.75494E-1,0.85357E-1
9.80499E-1,0.04272E-1
9.76867E-1,-0.85815E-1
9.61914E-1,-1.62628E-1
9.57031E-1,-2.46582E-1
9.24804E-1,-3.38012E-1
8.88824E-1,-4.09637E-1
8.51104E-1,-4.88281E-1
7.97241E-1,-5.52948E-1
7.58331E-1,-6.09069E-1
7.12066E-1,-6.84021E-1
6.47613E-1,-7.45880E-1
5.83862E-1,-8.03924E-1
5.03051E-1,-8.56536E-1
4.28466E-1,-8.87054E-1
3.57147E-1,-9.27581E-1
2.68005E-1,-9.55627E-1
1.85821E-1,-9.73724E-1
0.91674E-1,-9.85961E-1
0.11352E-1,-9.73144E-1
-0.53314E-1,-9.74731E-1
-1.39373E-1,-9.76928E-1
-2.18505E-1,-9.62768E-1
-3.06091E-1,-9.54437E-1
-4.05639E-1,-9.15649E-1
-4.69604E-1,-8.67553E-1
-5.45043E-1,-8.38409E-1
-6.24237E-1,-7.80212E-1
-6.86554E-1,-7.22076E-1
-7.54119E-1,-6.49810E-1
-7.86346E-1,-5.65643E-1
-8.16467E-1,-5.14190E-1
-8.63708E-1,-4.45007E-1
-8.85772E-1,-3.77136E-1
-9.25994E-1,-3.15918E-1
-9.55352E-1,-2.26257E-1
-9.62585E-1,-1.56372E-1
-9.95636E-1,-0.78033E-1
-9.94751E-1,0.24597E-1
-9.89715E-1,0.96527E-1
-9.98779E-1,1.99859E-1
-9.53704E-1,3.05084E-1
-9.15893E-1,3.79180E-1
-8.58886E-1,4.63043E-1
-8.02551E-1,4.95483E-1
-7.92175E-1,5.58105E-1
-7.23938E-1,6.45599E-1
-6.61560E-1,6.70166E-1
-6.27929E-1,7.33764E-1
-5.48217E-1,7.83111E-1
-5.09277E-1,8.19213E-1
-4.29260E-1,9.06921E-1
-2.99499E-1,9.16351E-1
-2.37701E-1,9.07745E-1
-1.51702E-1,9.16961E-1
-0.94909E-1,8.92547E-1
-0.45654E-1,9.12475E-1
0.41534E-1,8.99444E-1
0.69976E-1,8.83422E-1
1.32720E-1,9.1745E-1
2.2052E-1,9.05120E-1
2.81127E-1,9.03320E-1
3.87115E-1,9.01794E-1
4.72625E-1,8.41491E-1
5.46569E-1,8.09753E-1
6.44195E-1,7.26074E-1
6.58569E-1,6.37908E-1
6.93634E-1,6.01226E-1
7.36175E-1,5.32226E-1
7.56530E-1,4.84039E-1
7.97088E-1,4.22607E-1
8.03314E-1,3.59588E-1
8.34442E-1,3.33282E-1
8.90197E-1,2.63793E-1
9.09301E-1,1.82739E-1
9.29138E-1,1.01776E-1
9.16320E-1,0.13427E-1
9.04602E-1,-0.38513E-1
9.04602E-1,-1.14532E-1
8.79669E-1,-1.75933E-1
8.77533E-1,-2.27172E-1
8.68408E-1,-3.02154E-1
8.44085E-1,-3.58917E-1
8.31085E-1,-4.27093E-1
7.95562E-1,-5.00396E-1
7.68768E-1,-5.61676E-1
7.32452E-1,-6.43707E-1
6.67999E-1,-7.15545E-1
6.00372E-1,-7.69256E-1
5.27191E-1,-8.08715E-1
4.71618E-1,-8.40637E-1
4.07867E-1,-8.93798E-1
3.23272E-1,-9.27734E-1
2.51129E-1,-9.52453E-1
1.64581E-1,-9.73999E-1
0.89538E-1,-9.77996E-1
0.11383E-1,-9.98382E-1
-0.91491E-1,-9.92309E-1
-1.7099E-1,-9.69879E-1
-2.50915E-1,-9.49981E-1
-3.20220E-1,-9.19433E-1
-3.85223E-1,-8.97674E-1
-4.62524E-1,-8.63586E-1
-5.25146E-1,-8.20739E-1
-5.91461E-1,-7.82379E-1
-6.54693E-1,-7.26013E-1
-7.06481E-1,-6.76269E-1
-7.70965E-1,-6.22436E-1
-8.19732E-1,-5.46051E-1
-8.57910E-1,-4.73571E-1
-8.85772E-1,-3.96637E-1
-9.03595E-1,-3.31817E-1
-9.29290E-1,-2.65075E-1
-9.48364E-1,-1.89483E-1
-9.59075E-1,-1.14379E-1
-9.87426E-1,-0.41046E-1
-9.64202E-1,0.49621E-1
-9.61517E-1,1.10107E-1
-9.46899E-1,1.87591E-1
-9.29565E-1,2.58239E-1
-9.04815E-1,3.29254E-1
-8.81744E-1,3.92120E-1
-8.58459E-1,4.67926E-1
-8.18634E-1,5.39642E-1
-7.81097E-1,6.04278E-1
-7.28149E-1,6.74255E-1
-6.70929E-1,7.25463E-1
-6.20422E-1,7.86834E-1
-5.39154E-1,8.40240E-1
-4.64355E-1,8.75061E-1
-3.86138E-1,9.09057E-1
-3.12683E-1,9.16473E-1
-2.63397E-1,9.37530E-1
-1.83807E-1,9.73754E-1
-1.00891E-1,9.84863E-1
-0.14221E-1,9.96032E-1
0.73425E-1,9.78057E-1
1.28875E-1,9.66491E-1
2.13623E-1,9.80041E-1
3.07678E-1,9.46106E-1
3.80218E-1,9.13421E-1
4.59716E-1,8.64502E-1
5.00366E-1,8.14086E-1
5.54077E-1,7.94647E-1
6.26678E-1,7.52502E-1
6.82067E-1,7.02728E-1
7.47314E-1,6.47094E-1
7.90222E-1,5.70739E-1
8.26690E-1,5.17669E-1
8.76892E-1,4.49554E-1
9.05548E-1,3.70758E-1
9.32464E-1,3.00323E-1
9.46472E-1,2.18017E-1
9.49493E-1,1.49566E-1
9.61639E-1,0.78582E-1
9.63317E-1,0.01525E-1
9.63562E-1,-0.70373E-1
9.57946E-1,-1.45263E-1
9.42871E-1,-2.16186E-1
9.28802E-1,-2.89062E-1
9.01306E-1,-3.65997E-1
END
BEGIN
-8.24005E-1,-5.65460E-1
-8.75152E-1,-4.92981E-1
-9.09637E-1,-3.95782E-1
-9.38690E-1,-3.26110E-1
-9.84314E-1,-2.32116E-1
-9.96124E-1,-1.29730E-1
-1.00738E0,-0.38452E-1
-1.00018E0,0.66162E-1
-9.85046E-1,1.44409E-1
-9.85778E-1,2.37731E-1
-9.51904E-1,3.43627E-1
-9.11315E-1,4.26483E-1
-8.59588E-1,5.13519E-1
-8.02887E-1,5.75286E-1
-7.64373E-1,6.48101E-1
-6.94305E-1,7.27661E-1
-6.18713E-1,7.80792E-1
-5.41992E-1,8.37524E-1
-4.55932E-1,8.65722E-1
-3.99261E-1,8.98986E-1
-3.14483E-1,9.52819E-1
-2.17376E-1,9.72351E-1
-1.32537E-1,9.92157E-1
-0.32897E-1,9.93133E-1
0.39550E-1,9.83642E-1
1.26434E-1,9.98352E-1
2.29766E-1,9.78790E-1
3.15277E-1,9.52758E-1
4.08599E-1,9.13421E-1
4.73449E-1,8.62976E-1
5.45043E-1,8.36181E-1
6.31164E-1,7.83477E-1
7.00714E-1,7.20184E-1
7.67089E-1,6.47308E-1
8.06640E-1,5.67657E-1
8.44116E-1,5.12115E-1
9.02679E-1,4.38385E-1
9.39300E-1,3.49731E-1
9.69665E-1,2.59429E-1
9.76379E-1,1.62017E-1
9.73602E-1,0.93139E-1
9.94751E-1,0.18066E-1
9.98962E-1,-0.78552E-1
9.88891E-1,-1.71081E-1
9.60540E-1,-2.68737E-1
9.20135E-1,-3.40087E-1
9.00695E-1,-4.07043E-1
8.67828E-1,-4.92462E-1
8.21533E-1,-5.68481E-1
7.63366E-1,-6.45233E-1
6.90612E-1,-6.99096E-1
6.38458E-1,-7.42828E-1
5.80902E-1,-8.05419E-1
5.09216E-1,-8.55285E-1
4.31427E-1,-9.03900E-1
3.39599E-1,-9.31823E-1
2.65747E-1,-9.46807E-1
1.91833E-1,-9.71283E-1
1.05896E-1,-9.89379E-1
0.18981E-1,-1.00189E0
-0.81054E-1,-9.98474E-1
-1.5802E-1,-9.70550E-1
-2.27905E-1,-9.62432E-1
-3.14483E-1,-9.45159E-1
-3.97277E-1,-9.22393E-1
-4.93774E-1,-8.82263E-1
-5.59722E-1,-8.13507E-1
-6.07788E-1,-7.73590E-1
-6.81182E-1,-7.30194E-1
-7.46521E-1,-6.67144E-1
-8.15338E-1,-5.97015E-1
-8.56292E-1,-4.97192E-1
-8.62457E-1,-4.33166E-1
-9.06768E-1,-3.82385E-1
-9.46899E-1,-2.98522E-1
-9.78454E-1,-2.16613E-1
-9.95880E-1,-1.01898E-1
-9.59472E-1,-0.22033E-1
-9.69085E-1,0.23101E-1
-9.83856E-1,1.08123E-1
-9.84314E-1,1.94824E-1
-9.63317E-1,3.15246E-1
-8.80127E-1,3.90930E-1
-8.55773E-1,4.20440E-1
-8.39660E-1,5.04058E-1
-7.95410E-1,5.67871E-1
-7.72491E-1,6.62078E-1
-6.56524E-1,7.61474E-1
-5.55114E-1,7.52685E-1
-5.22674E-1,7.78961E-1
-4.59777E-1,8.20282E-1
-4.14428E-1,8.66363E-1
-3.05969E-1,9.34173E-1
-1.88385E-1,9.03350E-1
-1.50634E-1,8.78631E-1
-1.00830E-1,8.85620E-1
-0.62683E-1,9.04785E-1
0.35430E-1,9.63043E-1
1.76635E-1,9.08752E-1
2.00622E-1,8.40698E-1
2.36877E-1,8.39752E-1
2.83935E-1,8.28460E-1
3.48877E-1,8.50616E-1
4.75708E-1,8.05297E-1
5.10253E-1,7.18627E-1
5.43273E-1,6.95495E-1
5.89447E-1,6.47674E-1
6.16760E-1,6.35009E-1
7.16918E-1,6.11297E-1
7.75695E-1,4.97253E-1
7.72705E-1,4.32800E-1
7.93090E-1,3.83728E-1
8.08868E-1,3.51013E-1
8.80584E-1,3.18847E-1
9.41253E-1,2.01934E-1
9.22149E-1,1.07574E-1
9.17572E-1,0.48431E-1
9.08783E-1,-0.04058E-1
9.39209E-1,-0.46814E-1
9.77691E-1,-1.57989E-1
9.37835E-1,-2.76702E-1
8.88763E-1,-3.4552E-1
8.44451E-1,-3.96667E-1
8.30444E-1,-4.32006E-1
8.32702E-1,-5.16632E-1
7.76672E-1,-6.20330E-1
6.97570E-1,-6.80450E-1
6.28295E-1,-7.21466E-1
5.83068E-1,-7.42126E-1
5.61950E-1,-8.02276E-1
4.85961E-1,-8.86291E-1
3.80065E-1,-9.26208E-1
2.88879E-1,-9.36004E-1
2.20459E-1,-9.38720E-1
1.67144E-1,-9.60449E-1
0.83587E-1,-9.94018E-1
-0.13336E-1,-9.95391E-1
-1.01715E-1,-9.82269E-1
-1.80633E-1,-9.55719E-1
-2.42553E-1,-9.37286E-1
-3.14636E-1,-9.30053E-1
-3.99749E-1,-9.02557E-1
-4.75585E-1,-8.63037E-1
-5.45745E-1,-8.13446E-1
-6.02111E-1,-7.61383E-1
-6.57836E-1,-7.14935E-1
-7.17102E-1,-6.61407E-1
-7.68951E-1,-5.98785E-1
-8.13964E-1,-5.32074E-1
-8.45123E-1,-4.62463E-1
-8.76098E-1,-3.99749E-1
-9.04815E-1,-3.32305E-1
-9.29748E-1,-2.59307E-1
-9.46746E-1,-1.85760E-1
-9.56451E-1,-1.09497E-1
-1.71081E-1,-1.03491E0
-2.72644E-1,-9.03564E-1
-9.57336E-1,1.17614E-1
-9.46075E-1,1.91864E-1
-9.28802E-1,2.63977E-1
-9.09301E-1,3.37432E-1
-8.78601E-1,4.13787E-1
-8.40972E-1,4.83062E-1
-7.99499E-1,5.48736E-1
-7.54913E-1,6.08032E-1
-7.10998E-1,6.67297E-1
-6.56036E-1,7.26226E-1
-5.92376E-1,7.75207E-1
-5.24658E-1,8.18420E-1
-4.54834E-1,8.49243E-1
-3.98071E-1,8.80859E-1
-3.30505E-1,9.20837E-1
-2.48718E-1,9.46441E-1
-1.70776E-1,9.59899E-1
-0.90484E-1,9.62310E-1
-0.26397E-1,9.60815E-1
0.46569E-1,9.74670E-1
1.32415E-1,9.74090E-1
2.12127E-1,9.57275E-1
2.88085E-1,9.31610E-1
3.52203E-1,8.99993E-1
4.16107E-1,8.81286E-1
4.93194E-1,8.50250E-1
5.62713E-1,8.06030E-1
6.28082E-1,7.59429E-1
6.84906E-1,7.01873E-1
7.31140E-1,6.50848E-1
7.86865E-1,5.94604E-1
8.34869E-1,5.27557E-1
8.77105E-1,4.60571E-1
9.12780E-1,3.87878E-1
9.38415E-1,3.14605E-1
9.62158E-1,2.40661E-1
9.78332E-1,1.60705E-1
9.85504E-1,0.82611E-1
9.91943E-1,0.06134E-1
9.96551E-1,-0.72570E-1
9.88708E-1,-1.56189E-1
9.65881E-1,-2.37670E-1
9.38812E-1,-3.13568E-1
9.07012E-1,-3.82904E-1
END
BEGIN
5.63697E-2,0.18768E-2
6.07204E-2,-0.59890E-2
5.83648E-2,-1.92089E-2
5.92594E-2,-2.76279E-2
6.22310E-2,-4.45461E-2
5.40142E-2,-5.36575E-2
4.85115E-2,-5.89332E-2
3.17001E-2,-6.52275E-2
1.68685E-2,-6.65969E-2
0.41008E-2,-7.65495E-2
-1.42593E-2,-8.31909E-2
-2.67524E-2,-8.47053E-2
-4.03366E-2,-8.12377E-2
-5.01022E-2,-7.15141E-2
-6.13822E-2,-6.43615E-2
-7.72705E-2,-5.57098E-2
-9.04693E-2,-4.55818E-2
-1.01432E-1,-3.73687E-2
-1.05495E-1,-2.41622E-2
-1.07719E-1,-1.39083E-2
-1.12300E-1,-0.19950E-2
-1.14734E-1,1.28936E-2
-1.15177E-1,2.45857E-2
-1.14780E-1,3.45726E-2
-1.09371E-1,4.27551E-2
-1.00643E-1,4.70542E-2
-9.24186E-2,5.31539E-2
-8.13636E-2,5.87463E-2
-7.26661E-2,6.37245E-2
-5.80673E-2,6.75125E-2
-4.60166E-2,6.49337E-2
-3.78990E-2,6.63337E-2
-2.85873E-2,6.84509E-2
-2.38266E-2,6.93321E-2
-1.84745E-2,6.92443E-2
-1.74140E-2,6.35070E-2
-1.58481E-2,5.78060E-2
-1.25465E-2,5.49678E-2
-1.26876E-2,5.40962E-2
-1.50680E-2,6.06918E-2
-1.80912E-2,6.17618E-2
-2.61650E-2,5.56850E-2
-3.36837E-2,5.21526E-2
-3.43608E-2,4.76017E-2
-3.22170E-2,5.32741E-2
-2.56233E-2,6.01348E-2
-2.62527E-2,6.76918E-2
-3.44657E-2,7.78236E-2
-3.92913E-2,8.37173E-2
-4.43763E-2,9.0065E-2
-3.53469E-2,9.73434E-2
-2.91633E-2,9.70306E-2
-2.84462E-2,1.05842E-1
-2.34031E-2,1.15646E-1
-1.98936E-2,1.20807E-1
-0.07537E-1,1.27052E-1
0.52108E-2,1.24557E-1
0.14717E-1,1.25236E-1
0.28320E-1,1.30172E-1
0.41442E-1,1.30165E-1
0.55915E-1,1.36528E-1
0.76927E-1,1.31057E-1
0.86441E-1,1.26640E-1
0.96321E-1,1.30050E-1
1.05751E-1,1.26297E-1
1.11408E-1,1.20151E-1
1.24748E-1,1.02088E-1
1.27983E-1,0.80902E-1
1.36909E-1,0.68016E-1
1.50398E-1,0.54092E-1
1.58210E-1,0.40794E-1
1.69715E-1,0.29632E-1
1.72920E-1,0.05737E-1
1.70730E-1,-0.10772E-1
1.76498E-1,-0.22911E-1
1.83685E-1,-0.37086E-1
1.92779E-1,-0.50315E-1
1.89727E-1,-0.73059E-1
1.77528E-1,-0.78254E-1
1.71150E-1,-0.84877E-1
1.64207E-1,-0.97976E-1
1.51313E-1,-1.22459E-1
1.34010E-1,-1.44516E-1
1.22589E-1,-1.58493E-1
1.16668E-1,-1.72538E-1
1.09024E-1,-1.84074E-1
0.96992E-1,-1.93618E-1
0.80848E-1,-2.00645E-1
0.55580E-1,-2.16964E-1
0.38597E-1,-2.23007E-1
0.24848E-1,-2.34451E-1
0.10582E-1,-2.36808E-1
-0.10810E-1,-2.37266E-1
-0.32638E-1,-2.35611E-1
-0.57922E-1,-2.35908E-1
-0.85495E-1,-2.45414E-1
-1.13395E-1,-2.46650E-1
-1.30889E-1,-2.45445E-1
-1.50085E-1,-2.52075E-1
-1.84913E-1,-2.41020E-1
-2.01072E-1,-2.29057E-1
-2.17697E-1,-2.15896E-1
-2.20222E-1,-2.05154E-1
-2.41233E-1,-1.94801E-1
-2.61901E-1,-1.65100E-1
-2.74353E-1,-1.43615E-1
-2.95593E-1,-1.26113E-1
-3.10073E-1,-1.03973E-1
-3.19152E-1,-0.81344E-1
-3.27392E-1,-0.52810E-1
-3.36074E-1,-0.18539E-1
-3.46725E-1,0.13107E-1
-3.50021E-1,0.43960E-1
-3.45306E-1,0.54702E-1
-3.44207E-1,0.72219E-1
-3.32031E-1,1.01974E-1
-3.15216E-1,1.33514E-1
-3.00125E-1,1.68930E-1
-2.86468E-1,1.95816E-1
-2.71423E-1,2.17834E-1
-2.57629E-1,2.3349E-1
-2.37472E-1,2.54409E-1
-2.11273E-1,2.75207E-1
-1.81594E-1,2.88452E-1
-1.64764E-1,2.92861E-1
-1.51931E-1,3.01528E-1
-1.2854E-1,3.13842E-1
-0.97106E-1,3.17260E-1
-0.65048E-1,3.10028E-1
-0.40420E-1,2.99545E-1
-0.18661E-1,2.90344E-1
0.07171E-1,2.90222E-1
0.40084E-1,2.81066E-1
0.66680E-1,2.67471E-1
0.79849E-1,2.49664E-1
0.85395E-1,2.35405E-1
0.93956E-1,2.22389E-1
1.08535E-1,1.97982E-1
1.16653E-1,1.70951E-1
1.19743E-1,1.44081E-1
1.15905E-1,1.21784E-1
1.07250E-1,1.02005E-1
9.95597E-2,8.01391E-2
9.03549E-2,5.93414E-2
8.73565E-2,3.71818E-2
7.66410E-2,1.89552E-2
6.65283E-2,0.96702E-2
5.59692E-2,0.28533E-2
4.15802E-2,-0.13732E-2
2.61011E-2,-0.33788E-2
6.30354E-3,1.13272E-3
-8.83150E-3,9.27019E-3
-2.53801E-2,1.72224E-2
-4.29878E-2,2.59590E-2
-5.47580E-2,3.20015E-2
2.30178E-1,0.84571E-1
1.07883E-1,-3.82461E-2
-7.97805E-2,5.72929E-2
-8.15353E-2,7.43408E-2
-7.91740E-2,9.08966E-2
-7.61413E-2,9.92965E-2
-7.55233E-2,1.06788E-1
-6.90803E-2,1.22814E-1
-0.55709E-1,1.40968E-1
-0.40275E-1,1.63429E-1
-0.27542E-1,1.77383E-1
-0.26825E-1,1.90765E-1
-0.24498E-1,2.06260E-1
-0.13229E-1,2.13249E-1
0.03791E-1,2.12600E-1
0.20034E-1,2.09205E-1
0.31913E-1,2.06710E-1
0.39680E-1,2.07824E-1
0.53436E-1,2.07771E-1
0.69259E-1,1.99981E-1
0.88012E-1,1.86401E-1
1.04003E-1,1.76178E-1
1.18682E-1,1.72325E-1
1.33094E-1,1.72287E-1
1.40663E-1,1.63009E-1
1.43775E-1,1.50665E-1
1.46118E-1,1.38793E-1
1.53480E-1,1.27166E-1
1.57997E-1,1.18499E-1
1.57295E-1,1.11389E-1
1.55090E-1,1.03874E-1
1.51199E-1,0.81817E-1
1.48857E-1,0.60600E-1
1.55540E-1,0.42137E-1
1.64451E-1,0.31562E-1
1.71035E-1,0.30906E-1
1.72851E-1,0.27702E-1
1.65557E-1,0.18806E-1
1.6082E-1,0.04280E-1
1.60797E-1,-0.10101E-1
1.65672E-1,-0.13183E-1
1.74911E-1,-0.12069E-1
1.68556E-1,-0.18104E-1
1.47789E-1,-0.25543E-1
1.28707E-1,-0.40222E-1
1.20975E-1,-5.47599E-2
END
